hour, t(sec), |V|1 (volts), |V|2 (volts), |V|3 (volts), |V|4 (volts), |I|1 (amps), |I|2 (amps), |I|3 (amps), |I|4 (amps)
0, 900.00000, 123.351, 123.326, 125.68, 0, 80.7398, 72.1238, 43.0686, 34.5639
0, 1800.00000, 123.556, 123.54, 125.828, 0, 79.1207, 70.5101, 42.5094, 33.5177
0, 2700.00000, 123.835, 123.889, 126.081, 0, 77.8787, 68.1528, 41.6051, 32.8693
1, 0.00000, 123.68, 123.682, 125.962, 0, 79.1455, 70.5434, 41.9707, 34.0626
1, 900.00000, 123.719, 123.727, 126.016, 0, 79.2923, 70.6865, 41.751, 34.4197
1, 1800.00000, 123.779, 123.811, 126.024, 0, 77.4729, 68.5099, 40.8496, 33.4072
1, 2700.00000, 123.775, 123.759, 125.965, 0, 76.7085, 68.6155, 41.0406, 32.7191
2, 0.00000, 123.679, 123.718, 125.876, 0, 77.8511, 68.6394, 42.2246, 32.3666
2, 900.00000, 123.844, 123.835, 126.021, 0, 76.2186, 67.9337, 41.0417, 32.1851
2, 1800.00000, 123.787, 123.726, 125.936, 0, 76.2143, 68.8149, 41.6308, 31.8727
2, 2700.00000, 123.882, 123.861, 126.035, 0, 75.3792, 67.4131, 40.6376, 31.849
3, 0.00000, 124.148, 124.152, 126.242, 0, 72.9877, 64.8346, 39.2698, 30.7792
3, 900.00000, 123.985, 123.958, 126.091, 0, 74.555, 66.9271, 40.6768, 31.0979
3, 1800.00000, 124.148, 124.147, 126.239, 0, 72.9458, 64.9103, 39.2923, 30.7503
3, 2700.00000, 123.717, 123.733, 125.904, 0, 77.4337, 68.7483, 42.1955, 32.1369
4, 0.00000, 123.848, 123.881, 126.007, 0, 75.977, 66.9984, 41.269, 31.5329
4, 900.00000, 123.936, 123.995, 126.081, 0, 75.2979, 65.8026, 41.0343, 30.9678
4, 1800.00000, 123.61, 123.642, 125.821, 0, 78.2653, 68.8056, 43.156, 31.8199
4, 2700.00000, 124.029, 124.052, 126.089, 0, 72.4792, 63.4998, 39.9757, 29.3841
5, 0.00000, 123.852, 123.794, 125.973, 0, 73.8883, 66.27, 40.409, 30.7268
5, 900.00000, 123.935, 123.922, 126.017, 0, 73.1771, 64.7994, 40.3214, 29.8903
5, 1800.00000, 123.645, 123.707, 125.784, 0, 75.3168, 65.5913, 41.2941, 30.6804
5, 2700.00000, 123.814, 123.792, 125.877, 0, 72.5032, 64.3447, 39.9747, 29.629
6, 0.00000, 124.241, 124.173, 126.145, 0, 67.1385, 59.8915, 37.6603, 26.8858
6, 900.00000, 123.874, 123.806, 125.917, 0, 71.0042, 63.0204, 39.7215, 28.4777
6, 1800.00000, 123.852, 123.741, 125.962, 0, 70.8821, 63.2295, 39.1194, 29.0623
6, 2700.00000, 124.022, 123.876, 126.042, 0, 67.5575, 60.5754, 37.8204, 27.2677
7, 0.00000, 123.712, 123.562, 125.83, 0, 70.3231, 62.7332, 39.4699, 28.2149
7, 900.00000, 123.803, 123.607, 125.821, 0, 68.0637, 60.9999, 39.3575, 26.2603
7, 1800.00000, 124.285, 124.063, 126.167, 0, 62.6149, 56.192, 36.7683, 23.6288
7, 2700.00000, 124.441, 124.215, 126.26, 0, 60.15, 53.8014, 35.5943, 22.3794
8, 0.00000, 124.344, 124.051, 126.176, 0, 59.794, 54.3735, 35.184, 22.7124
8, 900.00000, 124.607, 124.321, 126.424, 0, 57.478, 52.0556, 33.4391, 22.1453
8, 1800.00000, 124.439, 124.16, 126.286, 0, 59.2971, 53.7118, 34.826, 22.5308
8, 2700.00000, 124.25, 123.957, 126.128, 0, 60.0365, 54.1536, 35.4705, 22.5488
9, 0.00000, 124.116, 123.764, 125.965, 0, 59.6771, 54.7262, 35.7164, 22.2463
9, 900.00000, 124.107, 123.802, 125.983, 0, 60.6662, 55.0444, 36.0443, 22.6844
9, 1800.00000, 124.142, 123.877, 125.965, 0, 59.8344, 53.4993, 36.2852, 21.424
9, 2700.00000, 124.407, 124.1, 126.184, 0, 57.5014, 52.215, 34.7569, 20.9265
10, 0.00000, 124.499, 124.177, 126.246, 0, 55.8261, 51.05, 33.4522, 20.7109
10, 900.00000, 124.267, 124.004, 126.045, 0, 58.4523, 52.3412, 35.5222, 20.87
10, 1800.00000, 124.502, 124.247, 126.259, 0, 55.2438, 49.0587, 32.714, 20.4468
10, 2700.00000, 124.086, 123.86, 126.022, 0, 61.906, 54.9824, 36.0921, 23.4789
11, 0.00000, 124.2, 123.956, 126.117, 0, 60.3555, 53.7149, 34.9012, 23.1984
11, 900.00000, 124.662, 124.371, 126.39, 0, 53.7628, 48.318, 31.7325, 20.1573
11, 1800.00000, 124.068, 123.859, 125.95, 0, 63.8468, 56.9771, 38.4687, 23.063
11, 2700.00000, 124.469, 124.2, 126.215, 0, 58.1473, 52.6291, 35.0737, 21.1622
12, 0.00000, 124.652, 124.444, 126.388, 0, 56.4618, 49.8738, 33.542, 20.7106
12, 900.00000, 124.04, 123.876, 125.94, 0, 63.4359, 55.5004, 37.7457, 23.1006
12, 1800.00000, 124.236, 123.977, 126.042, 0, 60.1844, 54.0691, 36.3246, 21.7754
12, 2700.00000, 124.135, 123.984, 126.054, 0, 63.8012, 55.8254, 37.7095, 23.4788
13, 0.00000, 124.409, 124.165, 126.204, 0, 59.3226, 52.7602, 36.0672, 21.0706
13, 900.00000, 124.172, 123.939, 126.055, 0, 62.1278, 55.2243, 37.2838, 22.5394
13, 1800.00000, 124.167, 123.908, 126.055, 0, 61.5926, 55.1594, 36.5789, 22.8286
13, 2700.00000, 123.364, 123.177, 125.567, 0, 70.6302, 62.0058, 40.3229, 27.4607
14, 0.00000, 123.513, 123.344, 125.67, 0, 69.4997, 60.6394, 40.1605, 26.4618
14, 900.00000, 123.595, 123.435, 125.733, 0, 69.1093, 60.2854, 40.0537, 26.1925
14, 1800.00000, 123.969, 123.779, 126.014, 0, 64.3735, 56.3399, 36.8568, 24.8671
14, 2700.00000, 124.189, 123.952, 126.13, 0, 61.3331, 54.4115, 35.464, 23.5318
15, 0.00000, 124.008, 123.714, 125.964, 0, 63.4521, 57.2187, 37.8649, 23.4733
15, 900.00000, 124.338, 124.06, 126.204, 0, 59.4355, 53.1325, 35.4955, 21.8211
15, 1800.00000, 124.07, 123.754, 125.997, 0, 61.8694, 56.2843, 36.5899, 23.3563
15, 2700.00000, 124.137, 123.898, 126.08, 0, 61.338, 54.4122, 35.5842, 23.4213
16, 0.00000, 123.91, 123.67, 125.89, 0, 64.2961, 57.2906, 37.9226, 24.0192
16, 900.00000, 123.914, 123.68, 125.921, 0, 64.9015, 58.0108, 37.8385, 24.7235
16, 1800.00000, 124.038, 123.785, 125.957, 0, 62.7262, 56.3765, 37.1116, 23.4455
16, 2700.00000, 124.178, 123.974, 126.056, 0, 61.3389, 53.9949, 36.5296, 22.391
17, 0.00000, 123.999, 123.741, 125.952, 0, 62.953, 56.615, 36.6205, 24.1521
17, 900.00000, 124.187, 124.031, 126.002, 0, 60.5308, 52.9911, 35.7446, 22.2938
17, 1800.00000, 124.162, 124.014, 125.986, 0, 63.9028, 56.5781, 38.0205, 23.3981
17, 2700.00000, 124.035, 123.914, 125.894, 0, 66.7399, 59.2905, 39.693, 24.4952
18, 0.00000, 124.185, 124.098, 125.977, 0, 64.927, 57.0819, 38.599, 23.682
18, 900.00000, 123.352, 123.436, 125.378, 0, 75.8226, 64.8088, 44.5477, 27.7854
18, 1800.00000, 123.324, 123.33, 125.395, 0, 76.2016, 66.7904, 43.8157, 29.1822
18, 2700.00000, 123.361, 123.388, 125.456, 0, 77.1408, 67.3405, 44.1218, 29.7005
19, 0.00000, 123.008, 123.093, 125.228, 0, 82.0064, 71.0947, 46.5375, 31.8226
19, 900.00000, 122.942, 123.055, 125.229, 0, 84.8592, 73.6844, 47.7874, 33.3083
19, 1800.00000, 122.852, 122.965, 125.139, 0, 85.1387, 73.9934, 48.0027, 33.376
19, 2700.00000, 122.376, 122.6, 124.959, 0, 91.8819, 78.4164, 49.5677, 37.8895
20, 0.00000, 122.659, 122.835, 125.079, 0, 88.0445, 75.5414, 48.5895, 35.3257
20, 900.00000, 122.042, 122.271, 124.784, 0, 96.6325, 83.0051, 51.6963, 40.408
20, 1800.00000, 122.613, 122.758, 125.09, 0, 88.7226, 76.7679, 48.2309, 36.4515
20, 2700.00000, 122.265, 122.402, 124.855, 0, 91.9606, 80.1281, 49.5743, 38.3366
21, 0.00000, 121.925, 122.046, 124.584, 0, 95.702, 83.6076, 52.5271, 39.0676
21, 900.00000, 122.546, 122.648, 124.975, 0, 87.0001, 75.4732, 48.1066, 35.0209
21, 1800.00000, 122.701, 122.725, 125.164, 0, 86.4063, 76.2821, 46.7981, 36.0691
21, 2700.00000, 122.559, 122.632, 125.059, 0, 89.2455, 78.368, 48.9491, 36.5493
22, 0.00000, 122.952, 122.954, 125.305, 0, 84.2642, 74.8374, 46.5417, 34.4034
22, 900.00000, 122.852, 122.878, 125.238, 0, 85.3161, 75.3792, 46.7454, 35.0882
22, 1800.00000, 122.828, 122.839, 125.21, 0, 85.4444, 75.9005, 46.8391, 35.2279
22, 2700.00000, 123.092, 123.162, 125.457, 0, 83.0508, 72.2711, 45.0046, 34.3559
23, 0.00000, 122.851, 122.906, 125.365, 0, 86.568, 75.8141, 46.1239, 36.7208
23, 900.00000, 123.183, 123.213, 125.586, 0, 82.7867, 72.7698, 44.1784, 35.1044
23, 1800.00000, 122.999, 122.994, 125.465, 0, 84.2944, 74.7813, 44.5841, 36.3325
23, 2700.00000, 123.211, 123.189, 125.571, 0, 81.8198, 72.7504, 44.1575, 34.4438
24, 0.00000, 123.064, 123.071, 125.472, 0, 84.0825, 74.4493, 45.5443, 35.1503
24, 900.00000, 123.35, 123.326, 125.679, 0, 80.7422, 72.1259, 43.0693, 34.5656
