hour, t(sec), |V|1 (volts), |V|2 (volts), |V|3 (volts), |V|4 (volts), |I|1 (amps), |I|2 (amps), |I|3 (amps), |I|4 (amps)
0, 900.00000, 120.99, 120.582, 121.5, 0, 298.581, 298.524, 294.669, 5.4897
0, 1800.00000, 121.285, 120.882, 121.789, 0, 280.58, 280.772, 276.402, 5.73679
0, 2700.00000, 123.935, 123.517, 124.416, 0, 272.212, 272.38, 267.894, 5.73759
1, 0.00000, 123.768, 123.354, 124.256, 0, 276.107, 276.277, 271.914, 5.65355
1, 900.00000, 123.872, 123.464, 124.356, 0, 268.745, 268.907, 264.804, 5.35305
1, 1800.00000, 125.778, 125.359, 126.236, 0, 266.56, 266.708, 262.891, 5.00444
1, 2700.00000, 125.688, 125.261, 126.145, 0, 270.868, 271.023, 267.066, 5.16554
2, 0.00000, 125.643, 125.215, 126.113, 0, 269.929, 270.084, 265.704, 5.5918
2, 900.00000, 125.793, 125.368, 126.25, 0, 266.374, 266.523, 262.376, 5.32257
2, 1800.00000, 125.695, 125.262, 126.159, 0, 267.126, 267.28, 263.254, 5.23493
2, 2700.00000, 126.24, 125.816, 126.695, 0, 257.156, 257.297, 253.017, 5.39502
3, 0.00000, 126.496, 126.093, 126.933, 0, 250.273, 250.401, 246.646, 4.80411
3, 900.00000, 126.348, 125.935, 126.8, 0, 250.194, 250.326, 246.505, 4.90845
3, 1800.00000, 125.314, 124.922, 125.764, 0, 238.474, 238.601, 234.431, 5.1749
3, 2700.00000, 124.888, 124.476, 125.362, 0, 258.423, 258.572, 254.425, 5.31588
4, 0.00000, 125.011, 124.604, 125.481, 0, 252.131, 252.273, 248.026, 5.36755
4, 900.00000, 125.074, 124.673, 125.539, 0, 256.114, 256.256, 251.946, 5.43145
4, 1800.00000, 124.766, 124.337, 125.249, 0, 268.474, 268.636, 264.658, 5.24063
4, 2700.00000, 124.558, 124.153, 125.026, 0, 251.711, 251.856, 246.678, 6.2571
5, 0.00000, 124.391, 123.975, 124.876, 0, 254.497, 254.648, 249.149, 6.62539
5, 900.00000, 124.495, 124.083, 124.981, 0, 249.971, 250.118, 243.499, 7.68779
5, 1800.00000, 123.856, 123.451, 124.346, 0, 259.511, 259.667, 252.936, 7.84969
5, 2700.00000, 123.904, 123.496, 124.393, 0, 255.465, 255.619, 249.023, 7.69813
6, 0.00000, 124.247, 123.843, 124.718, 0, 238.554, 238.694, 231.865, 7.80722
6, 900.00000, 123.943, 123.51, 124.437, 0, 252.873, 253.033, 247.267, 6.90988
6, 1800.00000, 123.891, 123.449, 124.386, 0, 263.647, 263.819, 258.926, 6.13362
6, 2700.00000, 124.336, 124.026, 124.812, 0, 217.837, 217.884, 213.745, 4.99383
7, 0.00000, 124.009, 123.672, 124.527, 0, 232.857, 232.916, 227.183, 6.69768
7, 900.00000, 123.824, 123.463, 124.335, 0, 258.812, 258.89, 252.305, 7.64588
7, 1800.00000, 125.705, 125.482, 126.219, 0, 200.487, 200.48, 189.904, 11.2639
7, 2700.00000, 125.75, 125.527, 126.288, 0, 199.855, 199.848, 185.416, 15.1362
8, 0.00000, 125.528, 125.284, 126.112, 0, 212.571, 212.567, 192.273, 21.0748
8, 900.00000, 125.822, 125.594, 126.466, 0, 201.358, 201.351, 171.359, 30.8319
8, 1800.00000, 125.607, 125.377, 126.309, 0, 217.01, 217.006, 180.634, 37.3025
8, 2700.00000, 124.883, 124.744, 125.613, 0, 205.753, 205.739, 167.511, 39.5817
9, 0.00000, 124.583, 124.432, 125.339, 0, 224.141, 224.128, 181.947, 43.5291
9, 900.00000, 124.658, 124.517, 125.447, 0, 220.19, 220.179, 173.639, 48.014
9, 1800.00000, 126.324, 126.41, 127.1, 0, 184.391, 184.411, 140.079, 48.5351
9, 2700.00000, 126.535, 126.637, 127.32, 0, 184.023, 184.047, 135.913, 52.793
10, 0.00000, 126.604, 126.716, 127.377, 0, 172.595, 172.621, 127.187, 50.5077
10, 900.00000, 126.318, 126.415, 127.109, 0, 195.448, 195.472, 146.646, 52.9599
10, 1800.00000, 126.551, 126.656, 127.339, 0, 179, 179.024, 130.784, 53.2485
10, 2700.00000, 127.318, 127.75, 128.132, 0, 136.326, 136.21, 106.289, 55.4403
11, 0.00000, 127.401, 127.831, 128.191, 0, 134.61, 134.485, 106.162, 53.1556
11, 900.00000, 127.576, 128.028, 128.358, 0, 134.771, 134.645, 105.415, 55.2202
11, 1800.00000, 127.361, 127.897, 128.169, 0, 146.16, 145.973, 116.36, 57.1334
11, 2700.00000, 127.578, 128.126, 128.367, 0, 137.646, 137.385, 112.403, 56.609
12, 0.00000, 127.851, 128.412, 128.612, 0, 129.536, 129.184, 109.833, 54.5133
12, 900.00000, 127.342, 127.869, 128.136, 0, 142.823, 142.611, 115.551, 54.4995
12, 1800.00000, 127.437, 127.967, 128.221, 0, 138.814, 138.568, 113.878, 53.3901
12, 2700.00000, 128.134, 128.742, 128.902, 0, 137.353, 136.959, 117.53, 50.3691
13, 0.00000, 128.388, 128.982, 129.132, 0, 126.902, 126.354, 114.777, 47.4719
13, 900.00000, 128.215, 128.799, 128.961, 0, 130.665, 130.192, 115.83, 46.6306
13, 1800.00000, 128.871, 129.455, 129.632, 0, 134.495, 134.109, 115.848, 49.3951
13, 2700.00000, 128.285, 128.826, 129.12, 0, 149.269, 149.05, 122.104, 53.2097
14, 0.00000, 128.469, 129.017, 129.31, 0, 144.667, 144.406, 119.019, 55.046
14, 900.00000, 128.591, 129.151, 129.437, 0, 139.206, 138.883, 116.434, 55.9108
14, 1800.00000, 128.837, 129.414, 129.662, 0, 133.05, 132.645, 114.432, 55.5749
14, 2700.00000, 129.72, 130.321, 130.54, 0, 132.411, 131.988, 114.23, 56.7257
15, 0.00000, 129.497, 130.074, 130.337, 0, 144.312, 144.053, 117.843, 58.4717
15, 900.00000, 129.806, 130.401, 130.641, 0, 131.591, 131.159, 113.837, 58.4726
15, 1800.00000, 129.764, 130.32, 130.631, 0, 142.096, 141.881, 113.738, 61.4489
15, 2700.00000, 129.862, 130.43, 130.673, 0, 140.556, 140.322, 114.804, 54.9014
16, 0.00000, 129.666, 130.224, 130.506, 0, 146.803, 146.63, 117.293, 57.1301
16, 900.00000, 129.78, 130.351, 130.583, 0, 137.323, 137.05, 114.501, 50.9502
16, 1800.00000, 129.853, 130.427, 130.631, 0, 132.195, 131.86, 112.97, 48.059
16, 2700.00000, 128.112, 128.461, 128.873, 0, 154.32, 154.346, 119.457, 46.824
17, 0.00000, 127.941, 128.287, 128.702, 0, 159.856, 159.891, 124.902, 45.6674
17, 900.00000, 128, 128.375, 128.724, 0, 158.913, 158.946, 125.417, 43.8567
17, 1800.00000, 124.941, 124.961, 125.654, 0, 226.124, 226.127, 186.158, 41.8696
17, 2700.00000, 124.865, 124.896, 125.553, 0, 234.523, 234.53, 196.917, 39.3399
18, 0.00000, 124.932, 124.971, 125.606, 0, 230.218, 230.226, 193.338, 38.6194
18, 900.00000, 124.183, 124.213, 124.876, 0, 271.636, 271.641, 236.047, 37.1111
18, 1800.00000, 124.158, 124.194, 124.81, 0, 275.076, 275.081, 244.167, 32.309
18, 2700.00000, 121.365, 121.042, 122.029, 0, 373.929, 374.082, 346.386, 29.1626
19, 0.00000, 121.182, 120.854, 121.853, 0, 374.014, 374.168, 348.615, 27.0983
19, 900.00000, 121.286, 120.966, 121.909, 0, 373.128, 373.277, 352.614, 22.175
19, 1800.00000, 120.028, 119.618, 120.62, 0, 406.877, 405.396, 391.051, 17.4035
19, 2700.00000, 119.92, 119.512, 120.518, 0, 401.67, 400.211, 388.79, 14.5248
20, 0.00000, 120.119, 119.703, 120.696, 0, 389.912, 388.475, 377.3, 14.1452
20, 900.00000, 119.925, 119.516, 120.534, 0, 386.395, 384.989, 375.665, 12.3939
20, 1800.00000, 122.967, 122.497, 123.549, 0, 370.186, 370.457, 359.408, 12.8733
20, 2700.00000, 122.91, 122.441, 123.488, 0, 369.342, 369.612, 360.914, 10.5975
21, 0.00000, 122.517, 122.017, 123.087, 0, 403.528, 403.849, 396.854, 9.1979
21, 900.00000, 123.159, 122.678, 123.72, 0, 346.909, 347.168, 340.352, 8.63487
21, 1800.00000, 123.264, 122.778, 123.814, 0, 342.928, 343.183, 336.467, 8.49006
21, 2700.00000, 123.229, 122.754, 123.781, 0, 346.788, 347.042, 340.797, 8.05923
22, 0.00000, 123.514, 123.042, 124.037, 0, 334.271, 334.51, 328.846, 7.3498
22, 900.00000, 123.42, 122.94, 123.943, 0, 337.497, 337.744, 331.967, 7.48315
22, 1800.00000, 123.423, 122.946, 123.947, 0, 332.176, 332.417, 326.796, 7.30775
22, 2700.00000, 123.726, 123.255, 124.24, 0, 316.098, 316.32, 310.906, 6.9851
23, 0.00000, 123.653, 123.175, 124.19, 0, 312.306, 312.531, 307.549, 6.62281
23, 900.00000, 123.934, 123.47, 124.45, 0, 303.535, 303.744, 298.09, 7.13794
23, 1800.00000, 123.846, 123.371, 124.37, 0, 302.212, 302.425, 297.497, 6.47502
23, 2700.00000, 123.976, 123.512, 124.489, 0, 299.055, 299.26, 294.568, 6.19383
24, 0.00000, 123.92, 123.451, 124.441, 0, 297.772, 297.979, 293.674, 5.84916
24, 900.00000, 124.056, 123.609, 124.56, 0, 297.142, 297.337, 293.289, 5.53618
