hour, t(sec), |V|1 (volts), |V|2 (volts), |V|3 (volts), |V|4 (volts), |I|1 (amps), |I|2 (amps), |I|3 (amps), |I|4 (amps)
0, 900.00000, 122.978, 122.24, 123.849, 0, 258.068, 283.755, 228.985, 49.0963
0, 1800.00000, 123.263, 122.538, 124.082, 0, 249.457, 274.645, 223.439, 45.9042
0, 2700.00000, 123.486, 122.823, 124.282, 0, 233.909, 255.042, 208.273, 41.9572
1, 0.00000, 123.202, 122.501, 124.012, 0, 245.906, 270.588, 219.773, 45.5
1, 900.00000, 123.277, 122.57, 124.082, 0, 244.373, 270.01, 218.294, 46.2517
1, 1800.00000, 123.501, 122.828, 124.281, 0, 235.396, 258.639, 210.167, 43.3606
1, 2700.00000, 123.392, 122.685, 124.183, 0, 239.434, 264.798, 213.143, 46.1385
2, 0.00000, 123.262, 122.575, 124.052, 0, 245.84, 269.334, 220.581, 43.7001
2, 900.00000, 123.517, 122.828, 124.282, 0, 235.28, 259.343, 211.065, 43.1911
2, 1800.00000, 123.335, 122.604, 124.098, 0, 242.493, 269.436, 219.245, 44.9753
2, 2700.00000, 123.657, 122.957, 124.402, 0, 234.232, 259.587, 211.494, 43.0497
3, 0.00000, 124.052, 123.412, 124.789, 0, 219.121, 241.193, 195.617, 40.6911
3, 900.00000, 123.75, 123.06, 124.487, 0, 231.505, 257.042, 209.498, 42.5645
3, 1800.00000, 124.072, 123.407, 124.786, 0, 218.728, 242.779, 197.339, 40.612
3, 2700.00000, 123.546, 122.85, 124.304, 0, 237.975, 262.865, 215.189, 42.7296
4, 0.00000, 123.671, 122.998, 124.425, 0, 234.301, 257.666, 211.386, 41.4641
4, 900.00000, 123.839, 123.203, 124.609, 0, 227.983, 248.725, 203.281, 40.7104
4, 1800.00000, 123.486, 122.796, 124.269, 0, 238.417, 261.409, 214.472, 42.1108
4, 2700.00000, 123.932, 123.285, 124.659, 0, 226.053, 247.02, 204.395, 38.2294
5, 0.00000, 123.664, 122.946, 124.413, 0, 236.025, 262.085, 213.834, 43.2586
5, 900.00000, 123.821, 123.13, 124.554, 0, 229.144, 253.087, 207.56, 40.8099
5, 1800.00000, 123.753, 123.097, 124.501, 0, 237.4, 258.566, 214.794, 39.3176
5, 2700.00000, 123.767, 123.074, 124.504, 0, 237.754, 261.922, 216.032, 41.1835
6, 0.00000, 124.158, 123.48, 124.834, 0, 224.264, 247.435, 205.877, 37.3852
6, 900.00000, 123.823, 123.113, 124.554, 0, 234.806, 258.156, 214.421, 39.3717
6, 1800.00000, 123.866, 123.159, 124.652, 0, 233.197, 255.593, 208.835, 41.9476
6, 2700.00000, 124.172, 123.472, 124.929, 0, 221.583, 243.806, 199.111, 40.0689
7, 0.00000, 123.784, 123.039, 124.58, 0, 234.816, 258.626, 212.026, 41.9117
7, 900.00000, 123.812, 123.062, 124.59, 0, 232.078, 254.202, 209.644, 40.1242
7, 1800.00000, 124.123, 123.395, 124.874, 0, 221.748, 243.771, 200.197, 39.1528
7, 2700.00000, 124.192, 123.467, 124.916, 0, 219.72, 241.368, 200.117, 37.1504
8, 0.00000, 123.989, 123.216, 124.725, 0, 225.046, 249.162, 205.079, 39.7238
8, 900.00000, 124.341, 123.596, 125.042, 0, 214.656, 237.661, 196.577, 37.0559
8, 1800.00000, 124.222, 123.476, 124.941, 0, 215.293, 238.208, 197.005, 37.1803
8, 2700.00000, 123.812, 123.043, 124.56, 0, 225.713, 248.325, 206.633, 37.7089
9, 0.00000, 123.459, 122.648, 124.218, 0, 240.473, 265.596, 220.493, 40.8303
9, 900.00000, 123.619, 122.826, 124.358, 0, 231.169, 255.632, 212.968, 38.6993
9, 1800.00000, 123.624, 122.859, 124.353, 0, 230.65, 253.219, 213.46, 36.1554
9, 2700.00000, 123.969, 123.213, 124.679, 0, 220.802, 243.765, 202.893, 36.9574
10, 0.00000, 123.909, 123.146, 124.596, 0, 224.303, 248.951, 208.84, 36.5543
10, 900.00000, 123.721, 122.971, 124.444, 0, 229.4, 251.417, 211.051, 36.5523
10, 1800.00000, 123.913, 123.18, 124.606, 0, 223.646, 244.83, 207.17, 34.1967
10, 2700.00000, 123.523, 122.739, 124.247, 0, 238.595, 263.065, 222.453, 37.1162
11, 0.00000, 123.704, 122.93, 124.42, 0, 229.492, 252.909, 213.139, 36.2342
11, 900.00000, 124.014, 123.279, 124.713, 0, 219.665, 241.617, 202.632, 35.3076
11, 1800.00000, 123.474, 122.71, 124.195, 0, 237.177, 260.636, 220.309, 36.7266
11, 2700.00000, 123.631, 122.875, 124.331, 0, 235.592, 259.259, 219.089, 36.5648
12, 0.00000, 124.021, 123.324, 124.714, 0, 219.622, 239.168, 202.007, 33.6038
12, 900.00000, 123.28, 122.525, 124.059, 0, 248.363, 270.197, 227.144, 38.9919
12, 1800.00000, 123.464, 122.702, 124.199, 0, 237.457, 260.228, 219.691, 36.8486
12, 2700.00000, 123.382, 122.655, 124.157, 0, 244.56, 265.586, 223.984, 37.6952
13, 0.00000, 123.622, 122.865, 124.336, 0, 234.523, 256.817, 218.485, 34.9901
13, 900.00000, 123.412, 122.639, 124.165, 0, 241.339, 264.263, 222.832, 37.6541
13, 1800.00000, 123.36, 122.584, 124.119, 0, 243.342, 266.349, 223.643, 38.716
13, 2700.00000, 122.618, 121.792, 123.481, 0, 266.201, 290.183, 242.756, 43.0904
14, 0.00000, 122.943, 122.145, 123.744, 0, 251.704, 273.979, 232.555, 37.8148
14, 900.00000, 123.06, 122.276, 123.826, 0, 247.448, 269.546, 231.123, 35.2833
14, 1800.00000, 123.294, 122.531, 124.069, 0, 244.074, 265.665, 224.921, 37.061
14, 2700.00000, 123.329, 122.572, 124.075, 0, 245.135, 266.85, 226.995, 36.2896
15, 0.00000, 123.2, 122.397, 123.957, 0, 248.157, 272.133, 229.996, 38.4138
15, 900.00000, 123.458, 122.688, 124.174, 0, 241.305, 263.786, 225.865, 34.7658
15, 1800.00000, 123.263, 122.458, 124.017, 0, 249.438, 274.527, 231.963, 38.8758
15, 2700.00000, 123.467, 122.728, 124.224, 0, 239.983, 260.358, 220.954, 35.8038
16, 0.00000, 123.187, 122.411, 123.967, 0, 251.147, 273.846, 231.662, 38.3772
16, 900.00000, 123.12, 122.339, 123.911, 0, 257.957, 282.199, 237.972, 40.2117
16, 1800.00000, 123.153, 122.358, 123.929, 0, 256.276, 281.872, 237.131, 40.7171
16, 2700.00000, 123.484, 122.738, 124.24, 0, 247.088, 268.487, 228.315, 36.5418
17, 0.00000, 123.282, 122.494, 124.076, 0, 252.559, 277.356, 231.529, 41.5147
17, 900.00000, 123.374, 122.661, 124.131, 0, 249.296, 269.948, 229.313, 36.8608
17, 1800.00000, 123.289, 122.548, 124.052, 0, 255.894, 278.336, 233.892, 40.1627
17, 2700.00000, 123.287, 122.556, 124.038, 0, 254.444, 277.25, 232.94, 40.0162
18, 0.00000, 123.334, 122.643, 124.055, 0, 253.395, 273.427, 233.798, 35.9323
18, 900.00000, 122.525, 121.843, 123.36, 0, 280.301, 298.994, 254.652, 40.3898
18, 1800.00000, 122.562, 121.859, 123.418, 0, 277.054, 298.135, 248.92, 44.5385
18, 2700.00000, 122.338, 121.634, 123.219, 0, 286.213, 307.563, 256.897, 45.9052
19, 0.00000, 122.03, 121.292, 122.961, 0, 296.025, 319.467, 264.584, 49.6794
19, 900.00000, 122.236, 121.516, 123.148, 0, 287.592, 310.191, 256.243, 48.7886
19, 1800.00000, 122.056, 121.341, 123.019, 0, 295.025, 317.53, 259.923, 52.1786
19, 2700.00000, 121.838, 121.131, 122.852, 0, 300.266, 321.894, 263.496, 53.1326
20, 0.00000, 121.996, 121.273, 122.921, 0, 297.887, 320.101, 266.42, 48.6909
20, 900.00000, 121.782, 121.023, 122.765, 0, 295.774, 321.506, 263.893, 52.0858
20, 1800.00000, 122.045, 121.305, 122.976, 0, 293.425, 317.163, 262.311, 49.6228
20, 2700.00000, 121.828, 121.064, 122.823, 0, 299.98, 325.845, 264.585, 55.2899
21, 0.00000, 121.714, 120.939, 122.683, 0, 296.301, 320.631, 263.576, 51.663
21, 900.00000, 122.005, 121.244, 122.922, 0, 293.073, 317.514, 263.867, 48.5559
21, 1800.00000, 122.165, 121.371, 123.07, 0, 282.744, 309.667, 253.436, 50.6532
21, 2700.00000, 122.126, 121.346, 123.07, 0, 285.372, 311.956, 253.239, 52.8549
22, 0.00000, 122.46, 121.678, 123.344, 0, 274.334, 301.497, 244.961, 50.7796
22, 900.00000, 122.325, 121.542, 123.218, 0, 279.543, 305.999, 249.427, 50.8735
22, 1800.00000, 122.254, 121.462, 123.124, 0, 282.267, 309.854, 254.491, 49.8421
22, 2700.00000, 122.614, 121.878, 123.46, 0, 269.884, 293.146, 243.124, 45.125
23, 0.00000, 122.402, 121.615, 123.309, 0, 279.234, 306.129, 249.425, 51.0182
23, 900.00000, 122.782, 122.029, 123.654, 0, 266.537, 291.648, 237.157, 48.9489
23, 1800.00000, 122.703, 121.911, 123.565, 0, 266.508, 294.094, 239.228, 49.2982
23, 2700.00000, 122.797, 122.017, 123.658, 0, 268.036, 295.522, 239.922, 49.8988
24, 0.00000, 122.693, 121.902, 123.554, 0, 271.105, 299.089, 244.036, 49.4911
24, 900.00000, 122.978, 122.239, 123.849, 0, 258.076, 283.766, 228.99, 49.1011
