hour, t(sec), |V|1 (volts), |V|2 (volts), |V|3 (volts), |V|4 (volts), |I|1 (amps), |I|2 (amps), |I|3 (amps), |I|4 (amps)
0, 900.00000, 127.714, 126.949, 128.974, 0, 24.6405, 29.8639, 13.015, 14.9405
0, 1800.00000, 127.832, 127.162, 129.067, 0, 24.0827, 28.3966, 12.697, 14.0562
0, 2700.00000, 132.07, 131.382, 133.197, 0, 22.5093, 26.7659, 11.8359, 13.3249
1, 0.00000, 131.72, 131.061, 132.977, 0, 25.6436, 29.5986, 13.6354, 14.4049
1, 900.00000, 131.743, 131.154, 132.999, 0, 25.6117, 28.897, 13.6161, 13.9422
1, 1800.00000, 126.712, 126.227, 128.028, 0, 26.0312, 28.7014, 13.8367, 13.7454
1, 2700.00000, 126.664, 126.113, 127.988, 0, 26.2945, 29.5953, 13.9964, 14.2532
2, 0.00000, 126.54, 126.043, 127.912, 0, 27.3758, 30.1313, 14.6295, 14.3448
2, 900.00000, 126.719, 126.202, 128.029, 0, 26.0042, 28.978, 13.869, 13.881
2, 1800.00000, 126.685, 126.172, 127.998, 0, 26.0618, 28.9435, 13.9047, 13.8438
2, 2700.00000, 126.758, 126.337, 128.057, 0, 25.8431, 27.8461, 13.8079, 13.1756
3, 0.00000, 127.327, 126.636, 128.412, 0, 20.7456, 25.6234, 10.8542, 13.0343
3, 900.00000, 127.313, 126.681, 128.387, 0, 20.4372, 24.6665, 10.6833, 12.426
3, 1800.00000, 127.256, 126.739, 128.369, 0, 21.4475, 24.5476, 11.2856, 12.0282
3, 2700.00000, 126.959, 126.416, 128.161, 0, 23.4255, 26.6875, 12.4233, 12.9596
4, 0.00000, 127.102, 126.53, 128.254, 0, 22.2635, 25.8441, 11.7583, 12.6917
4, 900.00000, 127.383, 126.645, 128.426, 0, 19.6836, 24.9902, 10.2943, 12.8889
4, 1800.00000, 126.938, 126.326, 128.143, 0, 23.3983, 27.2599, 12.4191, 13.3481
4, 2700.00000, 127.082, 126.599, 128.261, 0, 22.9348, 25.5766, 12.1463, 12.3413
5, 0.00000, 126.873, 126.434, 128.124, 0, 24.5485, 26.6761, 13.0651, 12.7052
5, 900.00000, 126.921, 126.496, 128.16, 0, 24.3011, 26.3168, 12.9134, 12.5412
5, 1800.00000, 126.65, 126.308, 127.996, 0, 26.8054, 27.9875, 14.337, 13.1308
5, 2700.00000, 126.802, 126.455, 128.086, 0, 25.4006, 26.6156, 13.5481, 12.5336
6, 0.00000, 127.086, 126.766, 128.273, 0, 23.3111, 24.2763, 12.3885, 11.4628
6, 900.00000, 126.997, 126.584, 128.206, 0, 23.4541, 25.1838, 12.4254, 12.0134
6, 1800.00000, 127.08, 126.44, 128.256, 0, 22.5638, 26.5189, 11.9365, 13.0751
6, 2700.00000, 127.619, 126.842, 128.587, 0, 17.5912, 22.9796, 9.0997, 12.1222
7, 0.00000, 127.318, 126.72, 128.389, 0, 19.8928, 23.2721, 10.4485, 11.5296
7, 900.00000, 127.33, 126.697, 128.387, 0, 19.6439, 23.284, 10.3133, 11.6034
7, 1800.00000, 127.47, 126.902, 128.508, 0, 19.0871, 22.1389, 9.94143, 11.0118
7, 2700.00000, 127.384, 126.974, 128.464, 0, 20.125, 21.5676, 10.5603, 10.3885
8, 0.00000, 126.971, 126.714, 128.211, 0, 23.7857, 23.5378, 12.5887, 11.1151
8, 900.00000, 127.123, 126.963, 128.339, 0, 23.0259, 21.8576, 12.1019, 10.4307
8, 1800.00000, 127.383, 126.992, 128.47, 0, 19.931, 21.1143, 10.3518, 10.2514
8, 2700.00000, 126.496, 126.125, 127.683, 0, 22.0462, 22.9439, 11.5582, 10.9999
9, 0.00000, 125.57, 125.501, 127.122, 0, 30.6928, 28.4397, 16.5068, 13.2694
9, 900.00000, 125.827, 125.73, 127.277, 0, 28.268, 26.366, 15.1149, 12.3708
9, 1800.00000, 126.547, 126.569, 127.951, 0, 27.3201, 24.1463, 14.5763, 11.5465
9, 2700.00000, 126.678, 126.654, 128.054, 0, 26.7369, 24.12, 14.2403, 11.4689
10, 0.00000, 126.53, 126.727, 127.978, 0, 28.2582, 23.4123, 15.0258, 11.6516
10, 900.00000, 126.341, 126.476, 127.849, 0, 29.6621, 25.4004, 15.8242, 12.3372
10, 1800.00000, 126.151, 126.517, 127.757, 0, 31.9805, 25.3878, 17.1493, 12.9348
10, 2700.00000, 127.546, 127.986, 129.204, 0, 33.3464, 25.7457, 17.9334, 13.4117
11, 0.00000, 126.096, 126.47, 127.707, 0, 31.8998, 25.1552, 17.0826, 12.9136
11, 900.00000, 126.206, 126.507, 127.791, 0, 31.4527, 25.5417, 16.8243, 12.811
11, 1800.00000, 124.592, 124.811, 126.124, 0, 29.9235, 25.03, 16.0024, 12.2967
11, 2700.00000, 124.788, 124.977, 126.253, 0, 28.5138, 23.97, 15.1933, 11.7879
12, 0.00000, 124.749, 124.929, 126.253, 0, 29.4654, 25.071, 15.7243, 12.2173
12, 900.00000, 124.349, 124.588, 125.981, 0, 32.1687, 27.044, 17.2555, 13.1968
12, 1800.00000, 124.736, 124.75, 126.206, 0, 28.4289, 25.5768, 15.1194, 12.1982
12, 2700.00000, 124.531, 124.606, 126.005, 0, 28.3313, 24.9463, 15.028, 12.0372
13, 0.00000, 124.467, 124.682, 125.983, 0, 29.3867, 24.4894, 15.6625, 12.1106
13, 900.00000, 124.344, 124.517, 125.896, 0, 30.1106, 25.6177, 16.0522, 12.5041
13, 1800.00000, 123.599, 123.831, 125.286, 0, 33.3116, 28.2711, 17.9119, 13.6777
13, 2700.00000, 123.027, 123.316, 124.912, 0, 37.3775, 31.5998, 20.1904, 15.2465
14, 0.00000, 123.069, 123.46, 124.96, 0, 37.4719, 30.6824, 20.2176, 15.1512
14, 900.00000, 123.329, 123.718, 125.116, 0, 35.1509, 28.4231, 18.9236, 14.2068
14, 1800.00000, 123.381, 123.748, 125.168, 0, 35.3124, 28.8671, 19.0267, 14.2915
14, 2700.00000, 119.367, 119.788, 121.153, 0, 35.8065, 29.3333, 19.5736, 14.2347
15, 0.00000, 125.602, 125.937, 127.389, 0, 35.8683, 29.3989, 19.3485, 14.5012
15, 900.00000, 125.728, 126.153, 127.489, 0, 35.2624, 27.9523, 18.9958, 14.1882
15, 1800.00000, 125.846, 126.062, 127.533, 0, 33.5149, 28.3083, 18.0045, 13.7488
15, 2700.00000, 125.724, 125.951, 127.469, 0, 34.9511, 29.6763, 18.8221, 14.3252
16, 0.00000, 125.685, 125.878, 127.438, 0, 34.9817, 30.0199, 18.8135, 14.4286
16, 900.00000, 125.805, 125.979, 127.511, 0, 33.9019, 29.1971, 18.2133, 14.0239
16, 1800.00000, 125.831, 126.07, 127.531, 0, 33.6772, 28.3312, 18.0135, 13.8683
16, 2700.00000, 126.005, 126.241, 127.642, 0, 32.3679, 27.05, 17.3054, 13.3026
17, 0.00000, 125.88, 126.005, 127.547, 0, 33.123, 28.919, 17.78, 13.8078
17, 900.00000, 125.64, 125.964, 127.407, 0, 35.736, 29.6796, 19.2503, 14.524
17, 1800.00000, 127.114, 127.322, 128.838, 0, 35.0942, 30.1217, 18.8185, 14.521
17, 2700.00000, 127.188, 127.376, 128.874, 0, 34.3661, 29.682, 18.4227, 14.2649
18, 0.00000, 127.296, 127.473, 128.94, 0, 33.5006, 28.9801, 17.9238, 13.9472
18, 900.00000, 126.886, 127.014, 128.645, 0, 36.1555, 32.1309, 19.4731, 15.1536
18, 1800.00000, 126.811, 126.753, 128.599, 0, 36.9032, 34.7806, 19.8966, 16.1198
18, 2700.00000, 130.347, 130.372, 132.131, 0, 37.7196, 34.3775, 20.3531, 16.0282
19, 0.00000, 130.488, 130.455, 132.196, 0, 35.7172, 32.9431, 19.1618, 15.4199
19, 900.00000, 130.674, 130.565, 132.311, 0, 34.1384, 32.2268, 18.2809, 15.0477
19, 1800.00000, 130.302, 129.991, 131.929, 0, 33.8799, 34.093, 18.1708, 15.8586
19, 2700.00000, 129.9, 129.724, 131.688, 0, 37.4106, 36.1696, 20.2002, 16.686
20, 0.00000, 129.515, 129.704, 131.478, 0, 41.7724, 36.8097, 22.7145, 17.2115
20, 900.00000, 124.995, 125.055, 126.916, 0, 39.1366, 35.9336, 21.1864, 16.6719
20, 1800.00000, 125.144, 125.127, 127.018, 0, 38.4201, 36.018, 20.7812, 16.6483
20, 2700.00000, 125.057, 124.801, 126.875, 0, 36.9694, 37.0096, 19.9667, 17.0846
21, 0.00000, 124.541, 124.444, 126.559, 0, 41.5143, 39.7771, 22.539, 18.2557
21, 900.00000, 124.978, 124.94, 126.839, 0, 37.9806, 35.7273, 20.5404, 16.5093
21, 1800.00000, 121.865, 121.806, 123.665, 0, 36.0125, 34.356, 19.3707, 15.9531
21, 2700.00000, 122.232, 121.908, 123.87, 0, 32.3007, 33.3752, 17.2952, 15.6189
22, 0.00000, 122.244, 122.067, 123.901, 0, 32.8845, 32.4815, 17.6266, 15.1186
22, 900.00000, 121.991, 121.886, 123.736, 0, 35.1802, 34.0242, 19.0112, 15.6899
22, 1800.00000, 121.87, 121.862, 123.666, 0, 36.3119, 34.1967, 19.6332, 15.803
22, 2700.00000, 123.038, 123.125, 124.894, 0, 37.7697, 34.5537, 20.4542, 16.0365
23, 0.00000, 123.259, 123.214, 125.017, 0, 35.276, 33.3459, 19.0288, 15.4472
23, 900.00000, 123.28, 123.158, 125.052, 0, 35.8073, 34.7041, 19.3457, 16.007
23, 1800.00000, 126.532, 126.413, 128.278, 0, 35.9107, 34.39, 19.4478, 15.824
23, 2700.00000, 126.731, 126.536, 128.406, 0, 34.3309, 33.6348, 18.5733, 15.4789
24, 0.00000, 126.827, 126.642, 128.455, 0, 33.1949, 32.3822, 17.9316, 14.9303
24, 900.00000, 127.714, 126.949, 128.974, 0, 24.6404, 29.8636, 13.0148, 14.9405
