hour, t(sec), |V|1 (volts), |V|2 (volts), |V|3 (volts), |V|4 (volts), |I|1 (amps), |I|2 (amps), |I|3 (amps), |I|4 (amps)
0, 900.00000, 124.677, 123.856, 124.103, 0, 55.8604, 63.0057, 76.2838, 17.8118
0, 1800.00000, 124.923, 124.133, 124.372, 0, 53.4301, 60.15, 73.3464, 17.4119
0, 2700.00000, 124.639, 123.856, 124.146, 0, 49.9836, 56.8598, 68.621, 16.2082
1, 0.00000, 124.326, 123.445, 123.677, 0, 54.4167, 63.3198, 75.9087, 18.591
1, 900.00000, 124.428, 123.562, 123.779, 0, 53.2984, 62.0485, 74.7565, 18.575
1, 1800.00000, 124.516, 123.6, 123.849, 0, 51.693, 61.5452, 73.3931, 18.7259
1, 2700.00000, 124.37, 123.467, 123.681, 0, 53.7603, 63.2569, 75.7186, 18.9722
2, 0.00000, 124.299, 123.354, 123.568, 0, 54.3967, 64.6986, 77.3502, 19.8105
2, 900.00000, 124.476, 123.569, 123.811, 0, 52.527, 62.0615, 74.2796, 18.7851
2, 1800.00000, 124.365, 123.505, 123.699, 0, 53.5695, 62.0309, 75.3818, 18.9262
2, 2700.00000, 124.608, 123.731, 123.947, 0, 50.9768, 60.0021, 72.628, 18.7301
3, 0.00000, 124.89, 124.207, 124.457, 0, 48.3017, 53.7695, 65.3072, 14.9169
3, 900.00000, 124.801, 124.209, 124.384, 0, 48.3854, 51.9436, 65.1237, 15.1248
3, 1800.00000, 125.386, 124.702, 124.922, 0, 46.6491, 52.164, 64.3172, 15.5366
3, 2700.00000, 124.989, 124.246, 124.447, 0, 50.4863, 56.844, 69.949, 17.0579
4, 0.00000, 125.113, 124.407, 124.623, 0, 49.1646, 54.835, 67.5827, 16.2066
4, 900.00000, 125.222, 124.593, 124.858, 0, 48.0408, 52.188, 64.1564, 14.3527
4, 1800.00000, 124.888, 124.105, 124.377, 0, 51.1727, 57.8609, 70.6288, 16.9861
4, 2700.00000, 125.629, 124.847, 125.126, 0, 47.6155, 54.6262, 66.6227, 16.5341
5, 0.00000, 125.404, 124.594, 124.837, 0, 50.0193, 57.2905, 70.474, 17.8299
5, 900.00000, 125.503, 124.687, 124.941, 0, 48.9806, 56.5345, 69.1951, 17.5727
5, 1800.00000, 125.413, 124.469, 124.735, 0, 50.3593, 60.5961, 72.8103, 19.3704
5, 2700.00000, 125.491, 124.644, 124.875, 0, 49.3673, 57.5531, 70.5797, 18.4122
6, 0.00000, 125.82, 125.051, 125.296, 0, 45.8433, 52.5068, 65.2256, 16.9385
6, 900.00000, 125.55, 124.759, 125.069, 0, 47.8119, 54.1526, 67.255, 17.0351
6, 1800.00000, 125.424, 124.601, 125.027, 0, 49.7245, 56.1451, 68.4018, 16.2892
6, 2700.00000, 125.961, 125.555, 125.765, 0, 45.7694, 47.6562, 59.9909, 13.1941
7, 0.00000, 125.774, 125.273, 125.514, 0, 46.1118, 49.2206, 62.4449, 14.83
7, 900.00000, 125.765, 125.233, 125.524, 0, 45.8356, 49.1393, 61.9562, 14.5592
7, 1800.00000, 126.088, 125.776, 125.855, 0, 43.8854, 46.8041, 59.4194, 14.1184
7, 2700.00000, 126.195, 125.834, 125.916, 0, 42.3789, 46.2684, 58.8788, 14.7663
8, 0.00000, 125.975, 125.448, 125.547, 0, 44.5238, 51.3223, 64.2035, 17.1366
8, 900.00000, 126.274, 125.763, 125.903, 0, 41.3522, 47.9686, 60.2609, 16.4519
8, 1800.00000, 126.181, 125.819, 125.952, 0, 41.7398, 45.3073, 57.9122, 14.5351
8, 2700.00000, 125.975, 125.673, 125.647, 0, 44.2685, 49.4313, 62.321, 15.9083
9, 0.00000, 125.52, 124.836, 124.8, 0, 50.4287, 62.9645, 76.2432, 22.1376
9, 900.00000, 125.696, 125.127, 125.082, 0, 47.6863, 58.2272, 71.3184, 20.2953
9, 1800.00000, 126.443, 126.276, 125.812, 0, 44.1552, 53.857, 66.934, 19.5605
9, 2700.00000, 126.605, 126.443, 125.998, 0, 43.7153, 53.5478, 65.9656, 19.0764
10, 0.00000, 126.676, 126.495, 125.997, 0, 42.4452, 52.8997, 65.9213, 20.1329
10, 900.00000, 126.464, 126.186, 125.722, 0, 44.8136, 57.0259, 69.5429, 21.1598
10, 1800.00000, 126.614, 126.21, 125.771, 0, 43.1883, 58.0256, 69.9886, 22.9849
10, 2700.00000, 127.237, 127.358, 126.257, 0, 44.5547, 59.2786, 72.6127, 23.9263
11, 0.00000, 127.327, 127.478, 126.416, 0, 43.4214, 57.4746, 70.0993, 22.7495
11, 900.00000, 127.444, 127.591, 126.54, 0, 43.5107, 57.9505, 69.7804, 22.4178
11, 1800.00000, 127.48, 127.927, 126.598, 0, 44.6591, 56.275, 69.5963, 21.266
11, 2700.00000, 127.646, 128.169, 126.81, 0, 43.4792, 53.79, 67.1536, 20.2473
12, 0.00000, 127.75, 128.15, 126.874, 0, 43.1706, 56.1277, 67.6677, 20.859
12, 900.00000, 127.317, 127.648, 126.338, 0, 47.0393, 60.7765, 73.937, 22.8981
12, 1800.00000, 127.386, 127.885, 126.573, 0, 46.2606, 56.564, 69.8297, 20.1405
12, 2700.00000, 127.546, 128.16, 126.726, 0, 45.0196, 55.3493, 68.4287, 19.9842
13, 0.00000, 127.645, 128.194, 126.799, 0, 43.871, 55.0361, 68.2659, 20.8008
13, 900.00000, 127.467, 127.984, 126.595, 0, 45.6669, 57.3159, 70.6713, 21.3023
13, 1800.00000, 127.24, 127.586, 126.218, 0, 48.3743, 63.3701, 76.2738, 23.7362
13, 2700.00000, 126.685, 126.837, 125.523, 0, 53.0435, 70.9798, 84.5172, 26.8192
14, 0.00000, 126.881, 127.007, 125.723, 0, 50.7947, 69.3901, 82.3037, 26.9068
14, 900.00000, 127.074, 127.325, 126.015, 0, 48.081, 64.4292, 77.5643, 25.1069
14, 1800.00000, 127.196, 127.42, 126.118, 0, 48.1319, 65.281, 77.7703, 25.2818
14, 2700.00000, 127.335, 127.562, 126.202, 0, 48.7579, 66.5578, 79.06, 25.8662
15, 0.00000, 127.224, 127.46, 126.122, 0, 49.581, 66.6528, 79.8059, 25.7474
15, 900.00000, 127.464, 127.734, 126.387, 0, 47.1193, 63.8337, 76.7867, 25.2769
15, 1800.00000, 127.33, 127.662, 126.33, 0, 49.2851, 63.6981, 77.4061, 23.9165
15, 2700.00000, 127.368, 127.558, 126.295, 0, 49.2655, 66.7338, 78.6628, 25.1144
16, 0.00000, 127.209, 127.453, 126.139, 0, 51.063, 67.3357, 80.4539, 25.0198
16, 900.00000, 127.257, 127.594, 126.227, 0, 50.7663, 65.4265, 79.2211, 24.1949
16, 1800.00000, 127.317, 127.702, 126.287, 0, 49.8589, 63.743, 77.9985, 23.9415
16, 2700.00000, 127.134, 127.17, 126.218, 0, 47.0786, 60.9916, 74.1102, 23.0576
17, 0.00000, 126.878, 126.892, 125.918, 0, 50.4179, 64.6585, 78.2043, 23.6937
17, 900.00000, 126.981, 126.884, 125.843, 0, 49.7007, 67.123, 79.7853, 25.7562
17, 1800.00000, 126.121, 125.542, 125.052, 0, 51.4636, 67.7992, 80.9571, 25.3262
17, 2700.00000, 126.161, 125.636, 125.099, 0, 50.9988, 66.7141, 79.8727, 24.78
18, 0.00000, 126.28, 125.794, 125.226, 0, 49.8065, 65.0837, 77.8964, 24.1121
18, 900.00000, 125.771, 125.196, 124.565, 0, 54.6339, 71.8679, 85.1809, 26.2557
18, 1800.00000, 125.572, 124.939, 124.317, 0, 58.5014, 76.8943, 89.733, 26.9073
18, 2700.00000, 124.617, 123.385, 123.413, 0, 58.0452, 76.9961, 90.1413, 27.8233
19, 0.00000, 124.536, 123.457, 123.425, 0, 57.5669, 73.5175, 87.7835, 26.0422
19, 900.00000, 124.678, 123.65, 123.624, 0, 56.2963, 71.5469, 85.115, 24.8416
19, 1800.00000, 124.206, 122.995, 123.191, 0, 59.786, 74.8186, 88.4435, 24.7384
19, 2700.00000, 123.996, 122.585, 122.847, 0, 61.304, 80.1234, 93.1796, 27.6812
20, 0.00000, 124.116, 122.518, 122.749, 0, 60.6735, 83.2168, 96.5217, 31.3249
20, 900.00000, 123.932, 122.492, 122.735, 0, 60.7373, 80.0462, 94.0101, 28.8461
20, 1800.00000, 124.096, 122.673, 122.898, 0, 60.8211, 79.8682, 93.4546, 28.3155
20, 2700.00000, 123.878, 122.534, 122.757, 0, 63.6063, 80.9834, 94.9647, 27.1162
21, 0.00000, 123.627, 122.002, 122.324, 0, 65.6143, 87.904, 101.033, 30.9559
21, 900.00000, 124.032, 122.635, 122.886, 0, 61.0934, 79.1527, 93.3402, 27.8998
21, 1800.00000, 124.2, 122.885, 123.158, 0, 59.0812, 75.4351, 89.3391, 26.139
21, 2700.00000, 124.189, 123.065, 123.311, 0, 59.3488, 72.1134, 86.3638, 23.2864
22, 0.00000, 124.436, 123.276, 123.52, 0, 57.2207, 70.785, 84.744, 23.7304
22, 900.00000, 124.319, 123.036, 123.28, 0, 58.6273, 74.5769, 88.3242, 25.6538
22, 1800.00000, 124.288, 122.984, 123.194, 0, 58.8963, 75.3561, 89.5676, 26.4935
22, 2700.00000, 124.519, 123.073, 123.373, 0, 57.515, 76.7576, 89.5146, 27.8387
23, 0.00000, 124.451, 123.158, 123.446, 0, 57.5969, 73.5254, 87.3617, 25.7016
23, 900.00000, 124.54, 123.178, 123.493, 0, 58.629, 76.162, 88.8921, 26.2469
23, 1800.00000, 124.36, 123, 123.304, 0, 58.7474, 76.0403, 89.3013, 26.4573
23, 2700.00000, 124.462, 123.194, 123.475, 0, 58.4342, 74.0158, 87.6085, 25.1909
24, 0.00000, 124.487, 123.299, 123.554, 0, 57.2865, 71.2944, 85.4489, 24.2798
24, 900.00000, 124.677, 123.856, 124.102, 0, 55.8614, 63.0073, 76.2858, 17.8127
