hour, t(sec), |V|1 (volts), |V|2 (volts), |V|3 (volts), |V|4 (volts), |I|1 (amps), |I|2 (amps), |I|3 (amps), |I|4 (amps)
0, 900.00000, 125.103, 125.218, 126.266, 0, 296.472, 264.528, 216.87, 69.9329
0, 1800.00000, 125.36, 125.458, 126.468, 0, 282.45, 252.371, 206.967, 66.3228
0, 2700.00000, 125.342, 125.436, 126.404, 0, 268.516, 239.447, 196.422, 63.2861
1, 0.00000, 125.107, 125.2, 126.203, 0, 282.204, 253.566, 207.59, 65.7072
1, 900.00000, 125.197, 125.3, 126.257, 0, 277.372, 248.102, 205.638, 62.943
1, 1800.00000, 125.309, 125.404, 126.341, 0, 269.46, 241.09, 199.578, 61.3206
1, 2700.00000, 125.2, 125.306, 126.265, 0, 275.996, 246.426, 203.14, 63.9304
2, 0.00000, 125.156, 125.248, 126.24, 0, 277.534, 249.226, 203.574, 65.1348
2, 900.00000, 125.314, 125.406, 126.355, 0, 269.531, 241.124, 198.8, 62.0989
2, 1800.00000, 125.236, 125.332, 126.287, 0, 273.071, 243.842, 201.563, 62.7247
2, 2700.00000, 125.441, 125.536, 126.437, 0, 262.173, 233.607, 195.003, 58.7924
3, 0.00000, 125.656, 125.739, 126.65, 0, 252.659, 226.031, 185.2, 59.2634
3, 900.00000, 125.563, 125.665, 126.551, 0, 255.825, 227.138, 189.143, 58.3272
3, 1800.00000, 125.959, 126.041, 126.899, 0, 243.753, 217.03, 180.559, 55.3043
3, 2700.00000, 125.584, 125.684, 126.602, 0, 263.236, 234.261, 194.591, 60.1101
4, 0.00000, 125.684, 125.773, 126.693, 0, 258.239, 230.4, 190.164, 59.7017
4, 900.00000, 125.748, 125.846, 126.764, 0, 256.265, 227.766, 187.601, 60.1692
4, 1800.00000, 125.505, 125.604, 126.558, 0, 266.939, 237.088, 195.958, 62.1775
4, 2700.00000, 126.015, 126.093, 126.993, 0, 249.455, 222.206, 183.703, 57.6112
5, 0.00000, 125.843, 125.935, 126.827, 0, 258.332, 229.228, 192.475, 57.546
5, 900.00000, 125.952, 126.03, 126.933, 0, 251.804, 224.17, 185.887, 57.7259
5, 1800.00000, 125.822, 125.908, 126.823, 0, 260.065, 232.113, 192.787, 58.9582
5, 2700.00000, 125.891, 125.983, 126.869, 0, 256.228, 227.548, 190.716, 57.2628
6, 0.00000, 126.208, 126.273, 127.132, 0, 238.905, 212.447, 177.026, 54.1181
6, 900.00000, 125.95, 126.019, 126.939, 0, 252.099, 223.718, 186.159, 57.6797
6, 1800.00000, 125.831, 125.904, 126.864, 0, 261.517, 231.882, 192.767, 60.1512
6, 2700.00000, 126.344, 126.487, 127.337, 0, 230.598, 201.973, 164.909, 57.3793
7, 0.00000, 126.175, 126.341, 127.167, 0, 236.117, 203.951, 171.813, 55.9827
7, 900.00000, 126.119, 126.3, 127.131, 0, 239.163, 204.632, 172.838, 57.7316
7, 1800.00000, 126.6, 126.846, 127.548, 0, 207.381, 175.181, 146.334, 53.1994
7, 2700.00000, 126.718, 126.948, 127.632, 0, 199.215, 168.329, 141.008, 50.7309
8, 0.00000, 126.553, 126.785, 127.473, 0, 206.652, 174.533, 148.06, 51.0901
8, 900.00000, 126.843, 127.057, 127.689, 0, 191.16, 161.146, 138.913, 45.6451
8, 1800.00000, 126.752, 126.962, 127.643, 0, 194.754, 164.993, 139.083, 48.5283
8, 2700.00000, 126.673, 126.94, 127.626, 0, 192.82, 163.3, 133.068, 52.2388
9, 0.00000, 126.357, 126.638, 127.332, 0, 209.835, 178.544, 148.316, 53.7314
9, 900.00000, 126.526, 126.792, 127.472, 0, 198.162, 168.745, 139.074, 51.6394
9, 1800.00000, 127.132, 127.583, 128.024, 0, 163.378, 131.649, 109.981, 47.7914
9, 2700.00000, 127.28, 127.744, 128.135, 0, 158.961, 126.798, 108.19, 45.7374
10, 0.00000, 127.358, 127.809, 128.165, 0, 152.598, 122.107, 105.89, 42.2929
10, 900.00000, 127.134, 127.61, 128.005, 0, 165.255, 132.09, 113.145, 46.8727
10, 1800.00000, 127.325, 127.753, 128.148, 0, 153.303, 124.639, 105.376, 43.0442
10, 2700.00000, 127.845, 128.516, 128.683, 0, 127.406, 98.7425, 83.9529, 43.0802
11, 0.00000, 127.91, 128.567, 128.751, 0, 124.137, 96.5288, 80.6027, 43.3759
11, 900.00000, 128.057, 128.701, 128.889, 0, 118.787, 93.2761, 75.9699, 43.1642
11, 1800.00000, 127.941, 128.727, 128.815, 0, 125.501, 94.3463, 80.7591, 46.4847
11, 2700.00000, 128.069, 128.834, 128.929, 0, 120.98, 92.2237, 77.4212, 45.6442
12, 0.00000, 128.224, 128.954, 129.085, 0, 113.775, 88.6709, 71.4191, 45.5401
12, 900.00000, 127.785, 128.569, 128.713, 0, 135.157, 103.411, 85.6753, 49.7622
12, 1800.00000, 127.889, 128.622, 128.832, 0, 129.292, 101.506, 79.3715, 50.8491
12, 2700.00000, 127.959, 128.781, 128.884, 0, 125.936, 96.1825, 79.4617, 49.1728
13, 0.00000, 128.157, 128.935, 129.046, 0, 114.497, 88.0755, 72.543, 46.5837
13, 900.00000, 127.975, 128.774, 128.895, 0, 123.629, 94.4808, 78.0076, 48.6671
13, 1800.00000, 127.833, 128.628, 128.768, 0, 130.497, 101.031, 82.4896, 49.832
13, 2700.00000, 127.343, 128.133, 128.376, 0, 152.583, 120.543, 96.3783, 55.1739
14, 0.00000, 127.584, 128.34, 128.573, 0, 138.544, 109.989, 87.067, 52.0624
14, 900.00000, 127.746, 128.492, 128.695, 0, 129.204, 102.336, 81.7613, 49.263
14, 1800.00000, 127.845, 128.596, 128.778, 0, 127.639, 101.267, 81.1121, 48.5192
14, 2700.00000, 127.922, 128.68, 128.849, 0, 127.583, 101.986, 81.2847, 48.5238
15, 0.00000, 127.815, 128.622, 128.741, 0, 133.069, 102.373, 86.1114, 48.6209
15, 900.00000, 128.075, 128.833, 128.966, 0, 119.621, 94.1254, 77.2834, 45.7545
15, 1800.00000, 127.862, 128.618, 128.802, 0, 133.657, 105.427, 85.1766, 49.2792
15, 2700.00000, 127.898, 128.633, 128.85, 0, 132.096, 105.967, 82.9216, 50.2681
16, 0.00000, 127.757, 128.516, 128.739, 0, 139.84, 111.261, 87.8054, 52.1296
16, 900.00000, 127.769, 128.537, 128.739, 0, 140.602, 111.834, 89.366, 51.1678
16, 1800.00000, 127.839, 128.61, 128.79, 0, 135.601, 107.158, 85.9776, 50.2171
16, 2700.00000, 127.583, 128.207, 128.512, 0, 149.366, 119.225, 96.616, 49.2469
17, 0.00000, 127.385, 128.008, 128.354, 0, 160.589, 130.006, 104.19, 52.0488
17, 900.00000, 127.465, 128.085, 128.414, 0, 155.071, 126.672, 99.4199, 51.6291
17, 1800.00000, 126.572, 127.019, 127.548, 0, 207.183, 172.811, 144.642, 54.9908
17, 2700.00000, 126.562, 127.045, 127.517, 0, 208.151, 171.424, 146.874, 54.1088
18, 0.00000, 126.626, 127.073, 127.595, 0, 205.171, 172.153, 142.202, 55.333
18, 900.00000, 126.053, 126.58, 127.132, 0, 235.903, 196.391, 164.728, 62.5029
18, 1800.00000, 125.904, 126.425, 127.023, 0, 247.907, 208.86, 172.953, 65.6889
18, 2700.00000, 124.982, 125.301, 126.091, 0, 296.74, 254.243, 222.402, 64.9269
19, 0.00000, 124.853, 125.205, 125.986, 0, 301.553, 256.052, 225.767, 66.3857
19, 900.00000, 124.919, 125.3, 126.024, 0, 299.981, 252.427, 225.871, 65.2872
19, 1800.00000, 124.457, 124.763, 125.642, 0, 329.46, 281.64, 249.159, 70.3503
19, 2700.00000, 124.314, 124.593, 125.516, 0, 334.349, 288.704, 254.278, 70.0206
20, 0.00000, 124.482, 124.745, 125.62, 0, 324.852, 280.326, 249.094, 66.3169
20, 900.00000, 124.403, 124.643, 125.561, 0, 323.421, 280.519, 247.782, 66.1321
20, 1800.00000, 124.498, 124.713, 125.676, 0, 323.902, 283.234, 244.904, 68.9157
20, 2700.00000, 124.303, 124.549, 125.531, 0, 336.59, 293.458, 254.172, 71.9271
21, 0.00000, 124.101, 124.358, 125.345, 0, 344.871, 298.972, 261.488, 72.8277
21, 900.00000, 124.543, 124.725, 125.731, 0, 319.108, 280.491, 239.748, 69.2636
21, 1800.00000, 124.644, 124.835, 125.791, 0, 314.357, 274.42, 237.854, 66.7209
21, 2700.00000, 124.596, 124.831, 125.77, 0, 318.56, 275.588, 239.995, 68.5783
22, 0.00000, 124.845, 125.071, 125.95, 0, 305.798, 263.527, 231.828, 64.6297
22, 900.00000, 124.722, 124.944, 125.852, 0, 312.549, 270.456, 236.419, 66.4412
22, 1800.00000, 124.722, 124.928, 125.839, 0, 311.521, 270.861, 236.406, 65.5232
22, 2700.00000, 124.978, 125.126, 126.076, 0, 299.006, 263.449, 225.463, 64.1493
23, 0.00000, 124.878, 125.057, 125.986, 0, 305.057, 266.414, 231.602, 64.0584
23, 900.00000, 125.024, 125.168, 126.135, 0, 300.746, 265.673, 226.165, 65.097
23, 1800.00000, 124.946, 125.065, 126.06, 0, 299.889, 266.301, 225.359, 65.1409
23, 2700.00000, 125.027, 125.171, 126.128, 0, 298.191, 262.975, 224.428, 64.3574
24, 0.00000, 125.027, 125.177, 126.124, 0, 296.607, 260.678, 223.455, 63.7939
24, 900.00000, 125.103, 125.218, 126.266, 0, 296.476, 264.531, 216.872, 69.9349
