hour, t(sec), |V|1 (volts), |V|2 (volts), |V|3 (volts), |V|4 (volts), |I|1 (amps), |I|2 (amps), |I|3 (amps), |I|4 (amps)
0, 900.00000, 123.201, 122.013, 125.6, 0, 114.384, 137.268, 51.4918, 77.0723
0, 1800.00000, 123.635, 122.458, 125.868, 0, 105.558, 128.463, 47.442, 72.4597
0, 2700.00000, 123.599, 122.486, 125.723, 0, 99.856, 121.323, 44.8469, 68.4406
1, 0.00000, 123.188, 122.07, 125.361, 0, 108.883, 130.525, 52.5968, 69.834
1, 900.00000, 123.544, 122.446, 125.636, 0, 99.3535, 120.602, 45.3568, 67.3161
1, 1800.00000, 123.731, 122.666, 125.767, 0, 95.1577, 115.638, 42.5714, 65.3976
1, 2700.00000, 123.561, 122.477, 125.731, 0, 98.8897, 119.654, 41.9966, 69.7364
2, 0.00000, 123.503, 122.351, 125.564, 0, 99.2184, 122.04, 46.1042, 67.5927
2, 900.00000, 123.681, 122.594, 125.714, 0, 97.0868, 118.065, 44.5557, 65.7048
2, 1800.00000, 123.522, 122.386, 125.588, 0, 99.6273, 121.839, 46.2575, 67.3991
2, 2700.00000, 123.785, 122.695, 125.713, 0, 95.4917, 116.693, 46.203, 62.7691
3, 0.00000, 124.145, 123.119, 126.052, 0, 89.9595, 109.812, 40.8988, 61.5471
3, 900.00000, 123.904, 122.795, 125.771, 0, 93.6174, 115.745, 46.2097, 61.6504
3, 1800.00000, 124.493, 123.453, 126.305, 0, 87.6983, 107.981, 41.5826, 59.0451
3, 2700.00000, 123.99, 122.85, 125.889, 0, 95.521, 118.245, 47.4013, 62.7791
4, 0.00000, 124.161, 123.028, 126.027, 0, 92.3377, 115.004, 45.1212, 61.8657
4, 900.00000, 124.332, 123.226, 126.158, 0, 89.4548, 111.483, 43.3876, 60.2965
4, 1800.00000, 123.925, 122.754, 125.855, 0, 95.9931, 119.148, 47.2572, 63.6911
4, 2700.00000, 124.646, 123.524, 126.404, 0, 88.2458, 110.524, 44.111, 58.6586
5, 0.00000, 124.385, 123.252, 126.215, 0, 92.5781, 114.795, 46.5043, 60.4656
5, 900.00000, 124.435, 123.306, 126.273, 0, 92.8833, 115.082, 46.4075, 60.8263
5, 1800.00000, 124.438, 123.282, 126.178, 0, 91.3175, 114.497, 48.0097, 58.5866
5, 2700.00000, 124.444, 123.283, 126.208, 0, 91.9138, 115.134, 47.7541, 59.4125
6, 0.00000, 124.744, 123.601, 126.438, 0, 88.6573, 111.476, 46.1398, 57.5483
6, 900.00000, 124.393, 123.185, 126.215, 0, 94.008, 117.894, 48.3675, 61.3208
6, 1800.00000, 124.551, 123.393, 126.427, 0, 89.6363, 111.658, 42.5097, 61.3163
6, 2700.00000, 124.896, 124.16, 126.711, 0, 89.064, 97.5969, 43.7084, 45.8697
7, 0.00000, 124.88, 124.061, 126.648, 0, 83.7256, 93.979, 40.5853, 44.8848
7, 900.00000, 124.677, 123.836, 126.561, 0, 89.8358, 100.097, 42.8047, 48.6711
7, 1800.00000, 125.482, 125.084, 127.108, 0, 74.0887, 71.7083, 34.7864, 27.872
7, 2700.00000, 125.635, 125.226, 127.188, 0, 70.3858, 68.4688, 33.3322, 25.8587
8, 0.00000, 125.284, 124.877, 126.959, 0, 77.7514, 74.998, 36.9764, 29.1541
8, 900.00000, 125.82, 125.46, 127.233, 0, 66.7476, 63.3566, 34.108, 20.5423
8, 1800.00000, 125.578, 125.193, 127.081, 0, 71.4403, 68.547, 36.3334, 23.3525
8, 2700.00000, 125.473, 125.372, 127.118, 0, 72.4027, 61.474, 33.3599, 18.4197
9, 0.00000, 125.35, 125.233, 126.978, 0, 71.4314, 60.7111, 32.849, 17.9744
9, 900.00000, 125.334, 125.238, 126.928, 0, 73.1424, 62.0024, 35.7078, 16.7497
9, 1800.00000, 126.231, 126.802, 127.609, 0, 58.8795, 42.2713, 28.8681, 21.3799
9, 2700.00000, 126.588, 127.241, 127.872, 0, 53.387, 39.0162, 25.9345, 24.7942
10, 0.00000, 126.603, 127.245, 127.772, 0, 52.6914, 39.0019, 28.7205, 26.3974
10, 900.00000, 126.355, 126.968, 127.655, 0, 57.0117, 40.9196, 29.0178, 23.4256
10, 1800.00000, 126.529, 127.173, 127.756, 0, 54.5495, 39.5885, 28.7488, 25.4371
10, 2700.00000, 127.206, 128.778, 128.413, 0, 48.1207, 62.768, 25.7147, 60.4799
11, 0.00000, 127.224, 128.838, 128.559, 0, 49.2121, 62.831, 23.3531, 58.6516
11, 900.00000, 127.495, 129.164, 128.782, 0, 45.7535, 64.7923, 21.4514, 60.3986
11, 1800.00000, 127.462, 129.301, 128.733, 0, 45.1129, 73.5693, 22.456, 68.1326
11, 2700.00000, 127.442, 129.301, 128.733, 0, 49.1234, 71.4079, 24.5966, 67.4651
12, 0.00000, 127.665, 129.599, 128.987, 0, 46.8339, 73.511, 22.129, 68.4315
12, 900.00000, 127.148, 128.961, 128.518, 0, 53.0889, 69.3094, 26.2056, 65.1877
12, 1800.00000, 127.022, 128.866, 128.544, 0, 58.1771, 67.5116, 26.5716, 62.4507
12, 2700.00000, 127.408, 129.413, 128.733, 0, 48.5564, 77.9151, 24.4512, 72.8803
13, 0.00000, 127.472, 129.474, 128.806, 0, 49.3553, 77.5748, 24.749, 72.883
13, 900.00000, 127.28, 129.28, 128.686, 0, 51.9608, 76.3607, 25.2306, 71.4882
13, 1800.00000, 127.103, 129.141, 128.551, 0, 55.5489, 75.1813, 26.8665, 71.5286
13, 2700.00000, 126.453, 128.421, 128.144, 0, 63.9097, 71.6552, 28.6802, 66.0584
14, 0.00000, 126.98, 128.953, 128.554, 0, 51.5422, 77.0831, 22.3584, 68.7375
14, 900.00000, 127.144, 129.105, 128.582, 0, 48.3333, 78.4227, 22.8113, 71.2173
14, 1800.00000, 127.33, 129.349, 128.733, 0, 47.3559, 79.533, 22.5381, 72.8966
14, 2700.00000, 127.557, 129.621, 128.918, 0, 44.6975, 82.4755, 21.6553, 74.9069
15, 0.00000, 127.501, 129.538, 128.825, 0, 44.3352, 82.666, 22.1572, 75.7869
15, 900.00000, 127.737, 129.769, 128.952, 0, 41.536, 84.0037, 22.2556, 77.7615
15, 1800.00000, 127.256, 129.203, 128.633, 0, 52.5897, 74.3316, 26.4314, 70.7757
15, 2700.00000, 127.306, 129.313, 128.729, 0, 52.9125, 74.8431, 25.4949, 71.0185
16, 0.00000, 127.084, 129.035, 128.518, 0, 56.3354, 72.6001, 28.1084, 69.4901
16, 900.00000, 127.146, 129.083, 128.492, 0, 54.9369, 72.8764, 29.1959, 70.8974
16, 1800.00000, 127.103, 129.035, 128.473, 0, 56.5913, 72.0125, 29.7906, 69.8789
16, 2700.00000, 126.709, 128.013, 128.037, 0, 61.2334, 52.4898, 33.7305, 47.8628
17, 0.00000, 126.428, 127.769, 127.947, 0, 66.5928, 52.5779, 33.38, 45.0886
17, 900.00000, 126.513, 127.861, 127.944, 0, 65.2423, 52.5035, 34.0411, 45.8139
17, 1800.00000, 125.32, 125.601, 126.906, 0, 82.0679, 63.0711, 44.1792, 12.8424
17, 2700.00000, 125.313, 125.619, 126.831, 0, 81.846, 62.5819, 45.9407, 12.2599
18, 0.00000, 125.372, 125.656, 126.952, 0, 81.0308, 62.6647, 42.9263, 12.6889
18, 900.00000, 124.583, 124.781, 126.299, 0, 93.501, 76.1036, 51.9051, 13.9759
18, 1800.00000, 124.271, 124.576, 126.204, 0, 103.135, 82.1007, 54.5858, 19.9308
18, 2700.00000, 123.122, 122.208, 124.999, 0, 113.808, 127.232, 67.2536, 50.517
19, 0.00000, 122.755, 121.78, 124.75, 0, 120.379, 135.339, 70.6956, 54.6451
19, 900.00000, 123.01, 122.099, 124.955, 0, 114.998, 128.371, 66.5348, 52.3087
19, 1800.00000, 122.298, 120.951, 124.381, 0, 128.879, 156.176, 76.4659, 70.4327
19, 2700.00000, 122.227, 120.9, 124.312, 0, 126.615, 153.264, 75.0901, 69.1393
20, 0.00000, 122.549, 121.197, 124.495, 0, 119.91, 147.263, 71.9901, 66.2638
20, 900.00000, 122.212, 120.888, 124.267, 0, 123.967, 150.42, 74.1306, 67.431
20, 1800.00000, 122.305, 120.97, 124.479, 0, 127.207, 153.931, 72.4949, 72.1673
20, 2700.00000, 122.202, 120.884, 124.437, 0, 128.272, 154.468, 71.9835, 73.2774
21, 0.00000, 122.137, 120.821, 124.433, 0, 125.775, 151.082, 67.8215, 74.2075
21, 900.00000, 122.431, 121.044, 124.559, 0, 123.462, 151.404, 70.388, 71.5347
21, 1800.00000, 122.447, 121.151, 124.706, 0, 125.463, 150.522, 68.018, 73.5198
21, 2700.00000, 122.499, 121.184, 124.672, 0, 123.75, 149.7, 69.0821, 71.5395
22, 0.00000, 122.724, 121.456, 124.826, 0, 122.169, 146.856, 69.0429, 69.129
22, 900.00000, 122.647, 121.366, 124.861, 0, 122.594, 147.435, 65.9181, 72.5945
22, 1800.00000, 122.446, 121.145, 124.615, 0, 127.879, 153.381, 72.7598, 71.6384
22, 2700.00000, 123.026, 121.767, 125.118, 0, 116.022, 140.517, 63.0096, 68.841
23, 0.00000, 123.041, 121.765, 125.167, 0, 113.157, 137.924, 59.6449, 69.5153
23, 900.00000, 123.266, 122.068, 125.403, 0, 111.988, 134.823, 57.4497, 69.0591
23, 1800.00000, 122.968, 121.764, 125.25, 0, 116.431, 139.063, 57.7421, 72.9086
23, 2700.00000, 123.369, 122.15, 125.472, 0, 107.105, 130.584, 53.6365, 68.4814
24, 0.00000, 123.326, 122.064, 125.418, 0, 106.761, 131.42, 53.9139, 68.759
24, 900.00000, 123.201, 122.013, 125.6, 0, 114.386, 137.272, 51.4924, 77.0751
