hour, t(sec), |V|1 (volts), |V|2 (volts), |V|3 (volts), |V|4 (volts), |I|1 (amps), |I|2 (amps), |I|3 (amps), |I|4 (amps)
0, 900.00000, 121.939, 121.745, 122.849, 0, 250.673, 236.736, 195.34, 50.3954
0, 1800.00000, 122.05, 121.889, 122.964, 0, 250.094, 234.11, 194.205, 50.3727
0, 2700.00000, 124.587, 124.44, 125.517, 0, 247.85, 229.442, 188.955, 52.6504
1, 0.00000, 124.457, 124.293, 125.37, 0, 251.488, 234.758, 194.157, 51.5486
1, 900.00000, 124.498, 124.337, 125.403, 0, 251.04, 234.514, 194.356, 50.9718
1, 1800.00000, 126.373, 126.218, 127.267, 0, 247.98, 229.956, 190.653, 51.2
1, 2700.00000, 126.371, 126.193, 127.247, 0, 244.992, 228.526, 188.845, 50.4189
2, 0.00000, 126.267, 126.142, 127.167, 0, 251.231, 230.119, 193.6, 50.889
2, 900.00000, 126.413, 126.256, 127.301, 0, 245.213, 227.061, 188.34, 50.7307
2, 1800.00000, 126.375, 126.196, 127.24, 0, 244.2, 227.276, 189.408, 49.0099
2, 2700.00000, 126.828, 126.67, 127.688, 0, 241.481, 223.399, 186.683, 48.7505
3, 0.00000, 127.034, 126.872, 127.906, 0, 234.527, 218.103, 178.213, 50.5676
3, 900.00000, 126.949, 126.769, 127.789, 0, 235.29, 219.726, 182.055, 47.8139
3, 1800.00000, 125.745, 125.612, 126.628, 0, 236.705, 218.755, 180.238, 50.3807
3, 2700.00000, 125.442, 125.314, 126.335, 0, 247.582, 227.93, 191.341, 49.8489
4, 0.00000, 125.552, 125.425, 126.428, 0, 242.446, 222.935, 187.435, 48.7006
4, 900.00000, 125.653, 125.524, 126.538, 0, 238.325, 219.185, 182.576, 49.4658
4, 1800.00000, 125.358, 125.239, 126.285, 0, 251.426, 229.641, 193.004, 51.5535
4, 2700.00000, 125.124, 125.016, 125.998, 0, 235.223, 214.363, 180.531, 48.1702
5, 0.00000, 125.026, 124.868, 125.884, 0, 236.137, 218.538, 183.339, 46.9717
5, 900.00000, 125.027, 124.91, 125.92, 0, 239.466, 218.767, 183.396, 49.4975
5, 1800.00000, 124.411, 124.34, 125.314, 0, 245.148, 221.354, 188.557, 49.5732
5, 2700.00000, 124.587, 124.459, 125.419, 0, 232.207, 212.963, 181.51, 44.6813
6, 0.00000, 124.912, 124.772, 125.689, 0, 216.298, 198.344, 169.401, 41.291
6, 900.00000, 124.665, 124.505, 125.487, 0, 226.406, 207.776, 177.46, 43.1405
6, 1800.00000, 124.747, 124.532, 125.565, 0, 219.459, 204.423, 171.904, 42.5115
6, 2700.00000, 124.962, 124.832, 125.75, 0, 199.941, 188.335, 157.24, 38.8899
7, 0.00000, 124.77, 124.647, 125.572, 0, 205.113, 190.753, 162.823, 37.7484
7, 900.00000, 124.793, 124.692, 125.633, 0, 202.188, 184.564, 156.116, 40.6324
7, 1800.00000, 126.362, 126.336, 127.138, 0, 177.582, 164.443, 138.676, 34.8604
7, 2700.00000, 126.401, 126.396, 127.173, 0, 176.386, 161.375, 137.705, 34.1243
8, 0.00000, 126.311, 126.271, 127.09, 0, 176.242, 162.853, 137.113, 34.9978
8, 900.00000, 126.476, 126.454, 127.275, 0, 173.183, 159.267, 132.599, 36.2614
8, 1800.00000, 126.311, 126.295, 127.162, 0, 181.791, 167.075, 137.335, 39.8428
8, 2700.00000, 125.529, 125.616, 126.397, 0, 178.359, 162.592, 135.42, 38.1819
9, 0.00000, 125.366, 125.464, 126.236, 0, 181.853, 164.404, 138.667, 37.9618
9, 900.00000, 125.273, 125.417, 126.215, 0, 192.326, 171.707, 143.115, 43.0447
9, 1800.00000, 126.805, 127.169, 127.682, 0, 168.117, 147.243, 127.911, 34.1355
9, 2700.00000, 126.999, 127.366, 127.886, 0, 161.882, 141.915, 120.378, 35.5748
10, 0.00000, 127.037, 127.413, 127.91, 0, 158.636, 138.398, 118.091, 34.5522
10, 900.00000, 126.836, 127.242, 127.757, 0, 168.882, 145.379, 124.313, 37.7525
10, 1800.00000, 126.923, 127.375, 127.852, 0, 166.558, 139.634, 121.226, 37.9202
10, 2700.00000, 127.2, 127.955, 128.126, 0, 159.685, 133.844, 121.531, 30.4401
11, 0.00000, 127.27, 127.997, 128.201, 0, 156.473, 132.817, 117.459, 31.7579
11, 900.00000, 127.591, 128.304, 128.47, 0, 138.372, 117.059, 102.448, 29.1254
11, 1800.00000, 127.283, 128.112, 128.218, 0, 157.136, 133.754, 118.644, 31.2021
11, 2700.00000, 127.623, 128.405, 128.456, 0, 135.772, 116.975, 104.642, 25.1174
12, 0.00000, 127.684, 128.511, 128.575, 0, 137.899, 116.114, 101.592, 29.2033
12, 900.00000, 127.324, 128.148, 128.214, 0, 150.729, 127.141, 116.037, 27.2481
12, 1800.00000, 127.442, 128.201, 128.305, 0, 143.403, 125.099, 110.571, 27.2278
12, 2700.00000, 128.015, 128.858, 128.878, 0, 146.928, 127.798, 115.953, 25.0601
13, 0.00000, 128.185, 128.991, 129.014, 0, 137.65, 120.417, 109.389, 23.0012
13, 900.00000, 128.063, 128.837, 128.88, 0, 141.472, 126.282, 114.657, 22.7599
13, 1800.00000, 128.795, 129.568, 129.603, 0, 139.925, 124.905, 113.801, 22.1078
13, 2700.00000, 128.186, 128.974, 129.093, 0, 169.07, 149.848, 137.288, 26.2792
14, 0.00000, 128.171, 129.018, 129.155, 0, 176.904, 153.124, 138.55, 31.232
14, 900.00000, 128.235, 129.093, 129.213, 0, 175.203, 151.296, 137.331, 30.6914
14, 1800.00000, 128.563, 129.381, 129.458, 0, 156.232, 136.768, 124.43, 25.9527
14, 2700.00000, 129.547, 130.369, 130.391, 0, 144.423, 126.546, 116.345, 22.6644
15, 0.00000, 129.469, 130.262, 130.33, 0, 147.329, 130.302, 118.453, 23.9676
15, 900.00000, 129.642, 130.472, 130.49, 0, 141.087, 121.95, 113.093, 21.9099
15, 1800.00000, 129.809, 130.563, 130.64, 0, 144.183, 128.373, 117.255, 22.532
15, 2700.00000, 129.793, 130.598, 130.676, 0, 148.194, 128.781, 116.483, 25.7274
16, 0.00000, 129.634, 130.443, 130.532, 0, 156.353, 136.108, 123.981, 26.213
16, 900.00000, 129.68, 130.486, 130.55, 0, 153.927, 134.884, 124.154, 24.0549
16, 1800.00000, 129.737, 130.545, 130.595, 0, 149.753, 130.812, 120.295, 23.6927
16, 2700.00000, 128.269, 128.914, 129.158, 0, 162.074, 138.731, 125.603, 29.6105
17, 0.00000, 128.159, 128.765, 129.05, 0, 164.823, 144.303, 128.33, 30.4302
17, 900.00000, 128.207, 128.897, 129.082, 0, 163.124, 137.956, 126.055, 29.8311
17, 1800.00000, 125.625, 126, 126.536, 0, 191.991, 165.516, 144.663, 40.1287
17, 2700.00000, 125.554, 125.943, 126.474, 0, 197.999, 171.47, 149.401, 41.3221
18, 0.00000, 125.645, 126.039, 126.522, 0, 193.152, 166.761, 147.18, 38.8909
18, 900.00000, 125.054, 125.501, 125.995, 0, 221.586, 190.467, 170.975, 42.8624
18, 1800.00000, 125.061, 125.438, 125.999, 0, 220.505, 195.538, 169.7, 43.7191
18, 2700.00000, 122.982, 123.068, 123.949, 0, 245.981, 216.384, 186.879, 51.2711
19, 0.00000, 122.749, 122.843, 123.734, 0, 257.129, 226.711, 197.39, 51.8259
19, 900.00000, 122.749, 122.844, 123.755, 0, 262.161, 232.544, 200.227, 53.852
19, 1800.00000, 121.741, 121.711, 122.739, 0, 268.966, 241.04, 205.732, 55.2968
19, 2700.00000, 121.325, 121.359, 122.426, 0, 295.159, 261.759, 225.264, 61.0112
20, 0.00000, 121.463, 121.523, 122.524, 0, 289.507, 253.8, 221.868, 58.9617
20, 900.00000, 120.93, 121.016, 122.143, 0, 322.486, 284.664, 244.852, 67.7933
20, 1800.00000, 124.177, 124.131, 125.208, 0, 290.303, 260.255, 224.676, 57.313
20, 2700.00000, 124.111, 124.02, 125.15, 0, 292.563, 266.177, 227.046, 57.5964
21, 0.00000, 123.795, 123.726, 124.931, 0, 309.967, 279.71, 236.917, 64.1227
21, 900.00000, 124.256, 124.196, 125.267, 0, 283.748, 253.776, 220.58, 55.1072
21, 1800.00000, 124.359, 124.22, 125.358, 0, 278.35, 254.735, 215.798, 55.1986
21, 2700.00000, 124.34, 124.214, 125.342, 0, 280.04, 256.106, 217.541, 55.1096
22, 0.00000, 124.658, 124.5, 125.588, 0, 263.481, 242.579, 205.874, 50.9595
22, 900.00000, 124.594, 124.434, 125.507, 0, 265.037, 243.901, 208.471, 49.9331
22, 1800.00000, 124.559, 124.4, 125.461, 0, 266.444, 245.469, 210.827, 49.0697
22, 2700.00000, 124.645, 124.544, 125.582, 0, 267.834, 242.173, 209.318, 51.1696
23, 0.00000, 124.568, 124.419, 125.505, 0, 270.229, 247.864, 213.1, 50.3041
23, 900.00000, 124.777, 124.638, 125.715, 0, 263.134, 240.939, 204.782, 51.4481
23, 1800.00000, 124.618, 124.467, 125.588, 0, 271.772, 249.734, 211.258, 53.5272
23, 2700.00000, 124.842, 124.685, 125.755, 0, 259.089, 238.249, 203.043, 49.4959
24, 0.00000, 124.727, 124.584, 125.663, 0, 266.256, 243.981, 208.655, 50.7453
24, 900.00000, 125.013, 124.785, 125.903, 0, 249.523, 235.65, 194.493, 50.0814
