hour, t(sec), |V|1 (volts), |V|2 (volts), |V|3 (volts), |V|4 (volts), |I|1 (amps), |I|2 (amps), |I|3 (amps), |I|4 (amps)
0, 900.00000, 128.682, 128.597, 131.13, 0, 321.333, 285.939, 135.15, 172.683
0, 1800.00000, 128.903, 128.824, 131.271, 0, 312.246, 277.344, 132.778, 166.175
0, 2700.00000, 122.647, 122.683, 125.031, 0, 305.901, 269.194, 131.309, 160.897
1, 0.00000, 122.461, 122.5, 124.872, 0, 314.173, 277.485, 137.024, 163.439
1, 900.00000, 122.532, 122.57, 124.931, 0, 311.816, 275.705, 135.471, 162.814
1, 1800.00000, 118.116, 118.215, 120.378, 0, 299.067, 263.418, 134.176, 151.751
1, 2700.00000, 118.055, 118.112, 120.322, 0, 301.017, 268.514, 135.283, 153.582
2, 0.00000, 118.019, 118.075, 120.29, 0, 301.249, 268.873, 135.678, 153.478
2, 900.00000, 118.118, 118.194, 120.369, 0, 299.267, 265.119, 135.559, 151.068
2, 1800.00000, 118.011, 118.061, 120.319, 0, 304.109, 271.678, 135.728, 156.258
2, 2700.00000, 118.481, 118.545, 120.746, 0, 297.581, 264.397, 132.58, 152.631
3, 0.00000, 124.636, 124.64, 126.831, 0, 288.381, 255.15, 126.696, 149.14
3, 900.00000, 124.47, 124.462, 126.765, 0, 295.738, 263.132, 125.865, 157.454
3, 1800.00000, 124.621, 124.611, 126.853, 0, 289.426, 257.552, 124.705, 152.579
3, 2700.00000, 124.246, 124.244, 126.588, 0, 304.885, 271.023, 132.066, 160.005
4, 0.00000, 124.412, 124.398, 126.7, 0, 295.432, 262.81, 126.922, 156.121
4, 900.00000, 124.552, 124.538, 126.776, 0, 288.043, 255.392, 125.289, 150.415
4, 1800.00000, 124.161, 124.14, 126.522, 0, 307.381, 273.36, 134.743, 159.832
4, 2700.00000, 130.398, 130.29, 132.518, 0, 281.776, 250.475, 122.217, 147.571
5, 0.00000, 130.179, 130.05, 132.395, 0, 292.635, 261.906, 125.635, 155.163
5, 900.00000, 130.26, 130.126, 132.438, 0, 289.266, 259.683, 125.006, 152.817
5, 1800.00000, 134.015, 133.883, 136.071, 0, 288.577, 255.583, 129.559, 146.623
5, 2700.00000, 134.087, 133.917, 136.169, 0, 284.565, 254.518, 123.174, 149.919
6, 0.00000, 134.397, 134.204, 136.396, 0, 268.933, 241.081, 114.486, 143.743
6, 900.00000, 134.13, 133.918, 136.231, 0, 280.437, 250.612, 119.719, 149.398
6, 1800.00000, 124.603, 124.497, 126.827, 0, 277.937, 247.392, 120.327, 146.121
6, 2700.00000, 124.844, 124.708, 127.024, 0, 265.995, 238.015, 112.539, 142.842
7, 0.00000, 124.553, 124.394, 126.893, 0, 277.637, 249.023, 113.136, 153.672
7, 900.00000, 124.594, 124.435, 126.874, 0, 272.639, 242.453, 113.49, 147.83
7, 1800.00000, 125.023, 124.79, 127.147, 0, 249.033, 226.026, 103.507, 136.742
7, 2700.00000, 125.157, 124.902, 127.245, 0, 240.176, 219.146, 97.6991, 134.406
8, 0.00000, 124.965, 124.688, 127.118, 0, 247.582, 226.726, 100.162, 139.433
8, 900.00000, 125.31, 125.041, 127.336, 0, 230.244, 209.404, 94.3315, 127.946
8, 1800.00000, 125.133, 124.871, 127.228, 0, 239.129, 217.562, 98.0469, 132.861
8, 2700.00000, 124.953, 124.657, 127.102, 0, 243.358, 222.416, 99.2411, 136.166
9, 0.00000, 124.754, 124.434, 126.872, 0, 247.961, 228.233, 106.702, 133.805
9, 900.00000, 124.741, 124.441, 126.901, 0, 252.123, 231.689, 107.139, 137.254
9, 1800.00000, 124.808, 124.522, 126.995, 0, 248.516, 227.228, 101.026, 139.408
9, 2700.00000, 125.119, 124.846, 127.129, 0, 233.856, 212.461, 101.102, 124.654
10, 0.00000, 125.146, 124.863, 127.208, 0, 232.042, 212.161, 94.0349, 130.41
10, 900.00000, 124.986, 124.712, 127.031, 0, 237.58, 216.27, 101.264, 128.227
10, 1800.00000, 125.239, 124.943, 127.203, 0, 221.899, 202.894, 92.3363, 122.304
10, 2700.00000, 124.794, 124.531, 126.958, 0, 246.771, 224.281, 101.531, 136.724
11, 0.00000, 124.863, 124.604, 127.008, 0, 243.857, 220.82, 100.093, 135.044
11, 900.00000, 125.208, 124.897, 127.21, 0, 224.783, 207.167, 91.8002, 126.243
11, 1800.00000, 124.617, 124.417, 126.804, 0, 258.938, 232.442, 110.008, 138.966
11, 2700.00000, 124.983, 124.738, 127.057, 0, 236.923, 214.953, 95.869, 132.641
12, 0.00000, 125.182, 124.932, 127.143, 0, 227.872, 207.023, 96.3492, 123.545
12, 900.00000, 124.728, 124.462, 126.842, 0, 245.684, 224.212, 102.909, 134.603
12, 1800.00000, 124.686, 124.417, 126.878, 0, 252.043, 230.457, 102.357, 141.454
12, 2700.00000, 124.745, 124.513, 126.892, 0, 246.679, 223.149, 101.029, 136.71
13, 0.00000, 124.819, 124.539, 126.985, 0, 245.163, 224.158, 98.8255, 138.339
13, 900.00000, 124.652, 124.384, 126.848, 0, 251.65, 229.082, 103.383, 139.716
13, 1800.00000, 124.66, 124.401, 126.791, 0, 249.622, 226.157, 106.687, 134.083
13, 2700.00000, 123.993, 123.737, 126.373, 0, 278.678, 251.908, 118.232, 150.491
14, 0.00000, 124.036, 123.807, 126.425, 0, 282.484, 253.909, 121.402, 150.508
14, 900.00000, 124.102, 123.898, 126.514, 0, 281.826, 251.946, 118.432, 152.34
14, 1800.00000, 124.545, 124.294, 126.751, 0, 255.009, 230.017, 107.844, 137.807
14, 2700.00000, 124.713, 124.467, 126.825, 0, 245.096, 220.423, 104.477, 131.356
15, 0.00000, 124.479, 124.245, 126.672, 0, 259.755, 232.233, 114.092, 135.478
15, 900.00000, 124.808, 124.54, 126.917, 0, 242.01, 218.515, 102.914, 130.275
15, 1800.00000, 124.576, 124.316, 126.772, 0, 253.796, 229.227, 107.003, 137.574
15, 2700.00000, 124.675, 124.442, 126.792, 0, 248.316, 222.247, 107.742, 130.854
16, 0.00000, 124.466, 124.219, 126.669, 0, 259.959, 234.661, 112.612, 137.888
16, 900.00000, 124.562, 124.311, 126.745, 0, 254.389, 230.376, 108.36, 137.004
16, 1800.00000, 124.607, 124.314, 126.798, 0, 251.524, 231.577, 103.695, 140.264
16, 2700.00000, 124.8, 124.528, 126.92, 0, 242.047, 220.377, 100.044, 133.778
17, 0.00000, 124.552, 124.271, 126.764, 0, 255.237, 233.86, 105.485, 141.647
17, 900.00000, 124.677, 124.413, 126.82, 0, 248.662, 228.986, 100.955, 140.141
17, 1800.00000, 124.608, 124.39, 126.705, 0, 255.835, 233.406, 109.434, 137.774
17, 2700.00000, 124.461, 124.319, 126.61, 0, 269.099, 241.699, 117.123, 141.555
18, 0.00000, 124.566, 124.442, 126.707, 0, 264.281, 236.388, 110.885, 142.733
18, 900.00000, 123.888, 123.829, 126.246, 0, 298.157, 265.207, 126.005, 159.688
18, 1800.00000, 123.735, 123.7, 126.122, 0, 310.442, 275.526, 135.371, 161.954
18, 2700.00000, 123.653, 123.628, 126.119, 0, 313.6, 277.934, 131.393, 168.76
19, 0.00000, 123.42, 123.382, 126.009, 0, 324.541, 289.949, 132.175, 179.209
19, 900.00000, 123.417, 123.475, 125.969, 0, 330.896, 289.283, 141.01, 174.508
19, 1800.00000, 117.309, 117.404, 119.756, 0, 321.841, 284.474, 141.768, 166.284
19, 2700.00000, 117.029, 117.169, 119.576, 0, 336.042, 294.637, 149.613, 171.408
20, 0.00000, 117.192, 117.329, 119.654, 0, 328.571, 287.502, 148.339, 165.364
20, 900.00000, 116.609, 116.778, 119.383, 0, 365.097, 321.253, 161.327, 187.888
20, 1800.00000, 117.115, 117.241, 119.641, 0, 334.307, 294.001, 149.06, 170.556
20, 2700.00000, 114.416, 114.551, 116.893, 0, 331.263, 292.494, 150.954, 166.195
21, 0.00000, 113.942, 114.172, 116.558, 0, 361.267, 312.645, 170.844, 173.454
21, 900.00000, 114.541, 114.631, 117.015, 0, 322.649, 286.62, 143.411, 166.01
21, 1800.00000, 123.206, 123.225, 125.843, 0, 341.606, 300.696, 147.751, 178.759
21, 2700.00000, 123.199, 123.221, 125.811, 0, 342.25, 301.947, 150.866, 176.515
22, 0.00000, 123.469, 123.48, 125.994, 0, 330.87, 291.725, 145.411, 170.962
22, 900.00000, 123.374, 123.396, 125.92, 0, 334.848, 294.544, 146.98, 172.973
22, 1800.00000, 123.298, 123.337, 125.889, 0, 339.84, 298.47, 147.891, 176.675
22, 2700.00000, 126.353, 126.336, 128.802, 0, 325.563, 285.828, 143.179, 167.656
23, 0.00000, 126.246, 126.201, 128.781, 0, 330.419, 291.868, 142.454, 173.589
23, 900.00000, 126.496, 126.447, 128.888, 0, 320.22, 283.075, 143.356, 163.018
23, 1800.00000, 128.358, 128.287, 130.869, 0, 336.136, 297.499, 147.057, 174.601
23, 2700.00000, 128.613, 128.506, 131.01, 0, 320.989, 286.09, 141.429, 166.352
24, 0.00000, 128.499, 128.404, 130.972, 0, 328.268, 292.161, 142.467, 172.154
24, 900.00000, 128.683, 128.598, 131.131, 0, 321.328, 285.934, 135.147, 172.681
