hour, t(sec), |V|1 (volts), |V|2 (volts), |V|3 (volts), |V|4 (volts), |I|1 (amps), |I|2 (amps), |I|3 (amps), |I|4 (amps)
0, 900.00000, 126.815, 126.91, 128.238, 0, 156.704, 135.747, 88.0451, 61.3386
0, 1800.00000, 127, 127.091, 128.373, 0, 151.592, 131.151, 85.4684, 59.0077
0, 2700.00000, 132.014, 132.044, 133.28, 0, 142.881, 123.863, 79.9654, 56.1866
1, 0.00000, 131.708, 131.792, 133.077, 0, 156.249, 134.332, 87.731, 60.9512
1, 900.00000, 131.776, 131.864, 133.12, 0, 154.089, 132.203, 86.9401, 59.6472
1, 1800.00000, 125.828, 125.98, 127.255, 0, 156.997, 134.703, 87.8194, 61.5492
1, 2700.00000, 125.723, 125.878, 127.179, 0, 160.964, 138.409, 90.1263, 63.0848
2, 0.00000, 125.665, 125.838, 127.125, 0, 162.856, 139.281, 92.1039, 62.809
2, 900.00000, 125.809, 125.959, 127.249, 0, 158.379, 136.032, 88.4655, 62.2415
2, 1800.00000, 125.755, 125.902, 127.189, 0, 159.319, 136.914, 89.8607, 61.798
2, 2700.00000, 125.909, 126.059, 127.295, 0, 154.724, 132.479, 87.7319, 59.4701
3, 0.00000, 126.403, 126.477, 127.667, 0, 132.976, 115.502, 72.307, 54.4006
3, 900.00000, 126.389, 126.454, 127.605, 0, 130.658, 113.461, 72.9023, 51.6591
3, 1800.00000, 126.419, 126.506, 127.634, 0, 132.265, 114.098, 74.3957, 51.5535
3, 2700.00000, 126.049, 126.159, 127.375, 0, 144.734, 124.727, 81.3088, 56.5078
4, 0.00000, 126.219, 126.313, 127.486, 0, 137.57, 118.636, 77.3578, 53.6477
4, 900.00000, 126.428, 126.481, 127.665, 0, 128.165, 111.596, 69.4539, 52.7297
4, 1800.00000, 125.957, 126.056, 127.34, 0, 147.903, 127.901, 81.6614, 59.2207
4, 2700.00000, 126.214, 126.315, 127.52, 0, 141.183, 121.625, 78.6174, 55.7716
5, 0.00000, 126.028, 126.149, 127.365, 0, 147.58, 126.538, 83.6777, 56.7588
5, 900.00000, 126.088, 126.207, 127.407, 0, 146.166, 125.369, 83.0368, 56.0652
5, 1800.00000, 125.858, 126.023, 127.268, 0, 156.526, 133.431, 88.5198, 60.2812
5, 2700.00000, 125.992, 126.131, 127.339, 0, 150.395, 128.57, 85.7639, 57.3035
6, 0.00000, 126.306, 126.412, 127.539, 0, 139.349, 119.403, 80.5402, 52.1042
6, 900.00000, 126.133, 126.22, 127.424, 0, 143.194, 123.188, 82.0745, 54.3092
6, 1800.00000, 126.146, 126.208, 127.489, 0, 141.824, 122.608, 78.2367, 56.8441
6, 2700.00000, 126.618, 126.597, 127.814, 0, 120.402, 105.766, 64.8025, 50.2086
7, 0.00000, 126.352, 126.353, 127.587, 0, 129.216, 112.406, 72.324, 50.9439
7, 900.00000, 126.189, 126.173, 127.513, 0, 137.252, 120.659, 75.1181, 56.0759
7, 1800.00000, 126.484, 126.467, 127.736, 0, 127.629, 111.637, 69.3244, 52.4995
7, 2700.00000, 126.423, 126.425, 127.712, 0, 132.342, 115.353, 72.0026, 54.2272
8, 0.00000, 126.054, 126.102, 127.436, 0, 148.407, 128.142, 83.1271, 58.2543
8, 900.00000, 126.331, 126.372, 127.653, 0, 139.241, 119.765, 77.3121, 55.2005
8, 1800.00000, 126.437, 126.426, 127.739, 0, 130.542, 113.89, 69.8948, 54.6137
8, 2700.00000, 125.427, 125.443, 126.815, 0, 141.719, 123.114, 77.1701, 57.9386
9, 0.00000, 124.587, 124.743, 126.283, 0, 181.507, 154.893, 100.222, 72.3326
9, 900.00000, 124.833, 124.954, 126.443, 0, 169.896, 145.536, 93.2792, 68.3063
9, 1800.00000, 125.635, 125.734, 127.21, 0, 166.073, 142.593, 90.8987, 67.0945
9, 2700.00000, 125.765, 125.861, 127.365, 0, 164.471, 141.533, 87.4227, 69.0048
10, 0.00000, 125.8, 125.925, 127.321, 0, 162.687, 138.484, 90.1315, 64.4326
10, 900.00000, 125.456, 125.599, 127.142, 0, 177.411, 151.909, 95.8205, 72.8288
10, 1800.00000, 125.477, 125.663, 127.125, 0, 179.24, 151.6, 99.8391, 70.329
10, 2700.00000, 127.166, 127.348, 128.816, 0, 184.054, 155.171, 104.397, 70.364
11, 0.00000, 125.37, 125.546, 127.021, 0, 180.525, 152.994, 101.49, 70.0134
11, 900.00000, 125.503, 125.682, 127.158, 0, 177.979, 150.864, 98.0927, 70.8814
11, 1800.00000, 123.348, 123.522, 125.1, 0, 182.478, 156.655, 98.3287, 75.2465
11, 2700.00000, 123.627, 123.783, 125.252, 0, 171.457, 146.95, 93.8256, 69.2457
12, 0.00000, 123.687, 123.864, 125.313, 0, 172.153, 146.788, 94.1896, 69.3841
12, 900.00000, 123.231, 123.441, 124.975, 0, 186.784, 158.932, 103.401, 74.1134
12, 1800.00000, 123.514, 123.657, 125.163, 0, 173.182, 148.792, 94.7074, 70.0918
12, 2700.00000, 123.233, 123.387, 124.962, 0, 174.661, 150.412, 92.1797, 73.9895
13, 0.00000, 123.244, 123.404, 124.945, 0, 177.298, 152.026, 96.2749, 72.3616
13, 900.00000, 123.051, 123.219, 124.834, 0, 183.957, 158.049, 98.6849, 76.3242
13, 1800.00000, 122.269, 122.499, 124.182, 0, 198.945, 170.007, 106.832, 82.2733
13, 2700.00000, 121.672, 121.956, 123.751, 0, 218.651, 186.001, 119.188, 88.6349
14, 0.00000, 121.766, 122.051, 123.831, 0, 217.623, 184.931, 118.713, 88.09
14, 900.00000, 122.065, 122.315, 124.001, 0, 203.982, 173.401, 111.908, 81.9441
14, 1800.00000, 122.197, 122.457, 124.117, 0, 201.572, 170.829, 109.905, 81.5108
14, 2700.00000, 117.71, 118.014, 119.555, 0, 199.081, 168.925, 111.089, 78.1759
15, 0.00000, 124.662, 124.891, 126.669, 0, 211.076, 179.855, 113.101, 87.4242
15, 900.00000, 124.956, 125.183, 126.834, 0, 200.3, 169.66, 109.25, 80.9014
15, 1800.00000, 124.957, 125.151, 126.822, 0, 196.259, 167.223, 106.005, 80.4501
15, 2700.00000, 124.868, 125.092, 126.791, 0, 202.298, 171.935, 108.631, 83.4537
16, 0.00000, 124.769, 124.99, 126.728, 0, 204.933, 174.581, 109.653, 85.0128
16, 900.00000, 124.956, 125.168, 126.829, 0, 195.813, 166.438, 105.34, 80.5965
16, 1800.00000, 125.015, 125.224, 126.834, 0, 193.045, 163.993, 105.296, 78.0478
16, 2700.00000, 125.149, 125.336, 126.944, 0, 189.001, 161.098, 102.261, 77.299
17, 0.00000, 125, 125.199, 126.828, 0, 193.293, 164.619, 104.903, 78.732
17, 900.00000, 124.856, 125.12, 126.719, 0, 202.207, 171.148, 111.156, 80.8097
17, 1800.00000, 126.481, 126.718, 128.316, 0, 203.427, 173.09, 112.372, 80.9145
17, 2700.00000, 126.465, 126.7, 128.334, 0, 204.336, 174.631, 111.056, 83.1594
18, 0.00000, 126.597, 126.823, 128.388, 0, 198.812, 169.919, 109.417, 79.5904
18, 900.00000, 126.004, 126.279, 128.007, 0, 219.263, 187.846, 118.889, 89.6327
18, 1800.00000, 125.87, 126.158, 127.959, 0, 226.084, 193.974, 120.732, 94.2753
18, 2700.00000, 130.154, 130.411, 132.157, 0, 226.123, 193.35, 122.918, 92.0119
19, 0.00000, 130.229, 130.449, 132.158, 0, 218.049, 187.2, 119.267, 88.168
19, 900.00000, 130.318, 130.519, 132.263, 0, 215.585, 186.156, 115.467, 89.7542
19, 1800.00000, 129.828, 130.033, 131.803, 0, 215.712, 186.455, 114.348, 91.0076
19, 2700.00000, 129.559, 129.82, 131.615, 0, 226.156, 193.62, 121.374, 93.6093
20, 0.00000, 129.282, 129.616, 131.429, 0, 244.594, 207.989, 134.396, 97.9888
20, 900.00000, 123.855, 124.2, 126.008, 0, 232.255, 198.013, 126.374, 94.4197
20, 1800.00000, 123.982, 124.317, 126.097, 0, 230.942, 197.358, 126.087, 93.5407
20, 2700.00000, 123.82, 124.132, 125.92, 0, 224.737, 192.472, 121.109, 92.6381
21, 0.00000, 123.138, 123.507, 125.534, 0, 256.3, 219.832, 136.908, 106.966
21, 900.00000, 123.892, 124.211, 125.898, 0, 222.855, 189.668, 124.403, 87.499
21, 1800.00000, 120.186, 120.499, 122.158, 0, 216.455, 185.863, 120.767, 85.2596
21, 2700.00000, 120.439, 120.701, 122.358, 0, 202.62, 175.115, 109.872, 83.0993
22, 0.00000, 120.513, 120.788, 122.407, 0, 203.682, 175.484, 111.764, 82.1663
22, 900.00000, 120.296, 120.602, 122.224, 0, 213.293, 183.225, 119.464, 83.5578
22, 1800.00000, 120.247, 120.572, 122.162, 0, 215.44, 184.424, 122.288, 82.725
22, 2700.00000, 121.746, 122.095, 123.665, 0, 216.83, 183.741, 123.424, 82.724
23, 0.00000, 121.96, 122.262, 123.772, 0, 203.417, 172.651, 116.423, 77.0441
23, 900.00000, 122.035, 122.351, 123.861, 0, 204.551, 173.273, 116.236, 78.1959
23, 1800.00000, 125.825, 126.095, 127.592, 0, 205.089, 173.722, 118.34, 76.6639
23, 2700.00000, 126.023, 126.273, 127.752, 0, 197.5, 167.551, 112.555, 75.1808
24, 0.00000, 126.095, 126.325, 127.773, 0, 192.496, 163.587, 110.573, 72.4967
24, 900.00000, 126.815, 126.91, 128.238, 0, 156.703, 135.746, 88.044, 61.3391
