hour, t(sec), |V|1 (volts), |V|2 (volts), |V|3 (volts), |V|4 (volts), |I|1 (amps), |I|2 (amps), |I|3 (amps), |I|4 (amps)
0, 900.00000, 76.5833, 76.3183, 76.7189, 0, 2.27374E-013, 2.27374E-013, 7.03114E-013, 1.13687E-013
0, 1800.00000, 76.6437, 76.3848, 76.7785, 0, 3.21555E-013, 2.27374E-013, 1.13687E-013, 4.09904E-013
0, 2700.00000, 73.0204, 72.8101, 73.1777, 0, 3.21555E-013, 2.27374E-013, 1.13687E-013, 4.54747E-013
1, 0.00000, 72.9728, 72.7642, 73.1294, 0, 2.27374E-013, 2.54212E-013, 4.58286E-013, 2.54212E-013
1, 900.00000, 72.9953, 72.7897, 73.1513, 0, 2.27374E-013, 2.27374E-013, 0, 4.68743E-013
1, 1800.00000, 70.3641, 70.1944, 70.5205, 0, 3.21555E-013, 5.08423E-013, 0, 4.54747E-013
1, 2700.00000, 70.3439, 70.1719, 70.4981, 0, 4.54747E-013, 2.27374E-013, 0, 6.9153E-013
2, 0.00000, 70.3266, 70.1546, 70.484, 0, 3.21555E-013, 6.9153E-013, 4.58286E-013, 2.27374E-013
2, 900.00000, 70.3679, 70.1957, 70.5248, 0, 3.21555E-013, 2.27374E-013, 4.54747E-013, 2.27374E-013
2, 1800.00000, 70.3412, 70.1661, 70.4992, 0, 2.27374E-013, 6.82121E-013, 5.68434E-014, 3.21555E-013
2, 2700.00000, 70.5642, 70.392, 70.7205, 0, 6.82121E-013, 0, 4.54747E-013, 3.41061E-013
3, 0.00000, 74.0288, 73.8248, 74.1734, 0, 5.08423E-013, 2.27374E-013, 4.8567E-013, 0
3, 900.00000, 73.9862, 73.7789, 74.1329, 0, 2.27374E-013, 4.68743E-013, 5.68434E-014, 3.41061E-013
3, 1800.00000, 74.0277, 73.8244, 74.1732, 0, 4.54747E-013, 5.08423E-013, 2.34371E-013, 5.08423E-013
3, 2700.00000, 73.9265, 73.7141, 74.0777, 0, 5.08423E-013, 2.54212E-013, 4.8567E-013, 6.4311E-013
4, 0.00000, 73.9551, 73.7445, 74.1054, 0, 3.21555E-013, 2.27374E-013, 4.54747E-013, 1.13687E-013
4, 900.00000, 73.9844, 73.7747, 74.1361, 0, 2.27374E-013, 2.27374E-013, 0, 2.54212E-013
4, 1800.00000, 73.9008, 73.6783, 74.0596, 0, 2.27374E-013, 6.9153E-013, 4.8567E-013, 3.41061E-013
4, 2700.00000, 77.2856, 77.0358, 77.4139, 0, 0, 1.13687E-013, 1.13687E-013, 2.27374E-013
5, 0.00000, 77.2382, 76.9808, 77.3699, 0, 8.19807E-013, 0, 2.54212E-013, 6.4311E-013
5, 900.00000, 77.2597, 77.006, 77.3893, 0, 6.4311E-013, 2.54212E-013, 1.14254E-012, 5.08423E-013
5, 1800.00000, 79.4083, 79.1344, 79.5167, 0, 6.4311E-013, 4.68743E-013, 2.27374E-013, 1.13687E-013
5, 2700.00000, 79.4229, 79.1464, 79.5302, 0, 3.21555E-013, 1.13687E-013, 0, 4.54747E-013
6, 0.00000, 79.4933, 79.219, 79.5982, 0, 2.27374E-013, 3.21555E-013, 5.08423E-013, 2.27374E-013
6, 900.00000, 79.4257, 79.1294, 79.5416, 0, 5.08423E-013, 4.68743E-013, 0, 4.68743E-013
6, 1800.00000, 73.9599, 73.717, 74.1321, 0, 6.4311E-013, 7.19019E-013, 9.09495E-013, 5.08423E-013
6, 2700.00000, 74.0144, 73.7719, 74.1887, 0, 3.21555E-013, 5.08423E-013, 4.58286E-013, 2.54212E-013
7, 0.00000, 73.9364, 73.6782, 74.1228, 0, 5.08423E-013, 4.68743E-013, 4.09904E-013, 2.54212E-013
7, 900.00000, 73.9285, 73.6606, 74.1136, 0, 5.08423E-013, 2.54212E-013, 3.63975E-013, 2.27374E-013
7, 1800.00000, 74.0117, 73.7505, 74.1981, 0, 5.08423E-013, 6.9153E-013, 4.09904E-013, 1.13687E-013
7, 2700.00000, 74.0271, 73.7663, 74.2136, 0, 2.27374E-013, 0, 2.34371E-013, 2.27374E-013
8, 0.00000, 73.9727, 73.7018, 74.161, 0, 3.21555E-013, 3.21555E-013, 4.58286E-013, 5.08423E-013
8, 900.00000, 74.0486, 73.7837, 74.2405, 0, 8.19807E-013, 6.82121E-013, 3.21555E-013, 4.68743E-013
8, 1800.00000, 74.01, 73.7434, 74.2056, 0, 2.27374E-013, 2.54212E-013, 2.27374E-013, 4.68743E-013
8, 2700.00000, 73.9436, 73.6631, 74.1461, 0, 3.21555E-013, 6.82121E-013, 5.68434E-013, 1.13687E-013
9, 0.00000, 73.8684, 73.5828, 74.0706, 0, 0, 3.21555E-013, 2.27374E-013, 2.27374E-013
9, 900.00000, 73.8859, 73.6064, 74.0884, 0, 5.08423E-013, 4.68743E-013, 4.58286E-013, 2.54212E-013
9, 1800.00000, 73.8984, 73.6205, 74.1002, 0, 6.4311E-013, 6.9153E-013, 1.7053E-013, 5.08423E-013
9, 2700.00000, 73.9729, 73.702, 74.1715, 0, 2.27374E-013, 4.68743E-013, 4.8567E-013, 2.27374E-013
10, 0.00000, 73.9739, 73.7075, 74.1705, 0, 3.21555E-013, 1.13687E-013, 1.13687E-013, 2.54212E-013
10, 900.00000, 73.9237, 73.6523, 74.1206, 0, 4.54747E-013, 1.13687E-013, 1.13687E-013, 4.54747E-013
10, 1800.00000, 73.9601, 73.6919, 74.1568, 0, 2.27374E-013, 5.08423E-013, 7.03114E-013, 6.12222E-013
10, 2700.00000, 73.8779, 73.6049, 74.0828, 0, 2.27374E-013, 2.27374E-013, 1.7053E-013, 5.68434E-013
11, 0.00000, 73.8968, 73.6221, 74.1, 0, 4.54747E-013, 2.27374E-013, 2.54212E-013, 4.54747E-013
11, 900.00000, 73.9622, 73.6948, 74.1579, 0, 2.27374E-013, 0, 4.68743E-013, 6.4311E-013
11, 1800.00000, 73.8565, 73.5907, 74.0525, 0, 4.54747E-013, 4.68743E-013, 5.68434E-014, 5.08423E-013
11, 2700.00000, 73.912, 73.6506, 74.1003, 0, 3.21555E-013, 4.68743E-013, 2.54212E-013, 2.27374E-013
12, 0.00000, 73.9632, 73.7064, 74.1497, 0, 5.08423E-013, 6.82121E-013, 2.34371E-013, 2.54212E-013
12, 900.00000, 73.834, 73.5641, 74.0302, 0, 2.27374E-013, 1.13687E-013, 1.7053E-013, 1.13687E-013
12, 1800.00000, 73.8519, 73.5801, 74.0465, 0, 3.21555E-013, 5.68434E-013, 3.21555E-013, 4.68743E-013
12, 2700.00000, 73.8474, 73.5832, 74.0446, 0, 6.4311E-013, 4.54747E-013, 2.34371E-013, 2.27374E-013
13, 0.00000, 73.8809, 73.6075, 74.0806, 0, 5.08423E-013, 6.9153E-013, 2.27374E-013, 3.41061E-013
13, 900.00000, 73.8332, 73.5562, 74.0359, 0, 3.21555E-013, 4.68743E-013, 4.58286E-013, 3.41061E-013
13, 1800.00000, 73.8254, 73.5478, 74.0262, 0, 2.27374E-013, 7.19019E-013, 0, 5.08423E-013
13, 2700.00000, 73.6559, 73.359, 73.875, 0, 3.21555E-013, 4.54747E-013, 0, 4.54747E-013
14, 0.00000, 73.7029, 73.4092, 73.9221, 0, 3.21555E-013, 4.54747E-013, 5.68434E-014, 4.68743E-013
14, 900.00000, 73.7325, 73.4439, 73.9506, 0, 8.19807E-013, 2.54212E-013, 2.54212E-013, 4.54747E-013
14, 1800.00000, 73.7994, 73.5174, 74.0115, 0, 6.82121E-013, 1.13687E-013, 1.7053E-013, 4.68743E-013
14, 2700.00000, 73.8253, 73.5479, 74.03, 0, 3.21555E-013, 3.21555E-013, 1.7053E-013, 3.41061E-013
15, 0.00000, 73.796, 73.5077, 74.0076, 0, 2.27374E-013, 2.27374E-013, 1.13687E-013, 5.08423E-013
15, 900.00000, 73.8592, 73.5778, 74.0688, 0, 4.54747E-013, 4.54747E-013, 0, 4.68743E-013
15, 1800.00000, 73.8081, 73.5244, 74.0173, 0, 5.08423E-013, 2.54212E-013, 2.54212E-013, 2.54212E-013
15, 2700.00000, 73.8266, 73.5475, 74.0326, 0, 3.21555E-013, 7.19019E-013, 4.58286E-013, 2.27374E-013
16, 0.00000, 73.7875, 73.5054, 73.997, 0, 0, 6.9153E-013, 3.21555E-013, 2.27374E-013
16, 900.00000, 73.8018, 73.5255, 74.0109, 0, 5.08423E-013, 7.19019E-013, 3.63975E-013, 4.54747E-013
16, 1800.00000, 73.8068, 73.5332, 74.0114, 0, 4.54747E-013, 5.08423E-013, 5.68434E-013, 1.13687E-013
16, 2700.00000, 73.8504, 73.5772, 74.053, 0, 4.54747E-013, 4.68743E-013, 5.08423E-013, 2.27374E-013
17, 0.00000, 73.8014, 73.5255, 74.0046, 0, 0, 5.08423E-013, 5.3626E-013, 3.41061E-013
17, 900.00000, 73.821, 73.5629, 74.0073, 0, 2.27374E-013, 2.54212E-013, 3.21555E-013, 2.54212E-013
17, 1800.00000, 73.8233, 73.5713, 73.997, 0, 2.27374E-013, 4.68743E-013, 7.03114E-013, 4.09904E-013
17, 2700.00000, 73.8251, 73.5815, 73.9933, 0, 5.08423E-013, 2.54212E-013, 2.34371E-013, 4.54747E-013
18, 0.00000, 73.8464, 73.6083, 74.0058, 0, 2.27374E-013, 7.19019E-013, 4.58286E-013, 5.68434E-013
18, 900.00000, 73.6945, 73.4568, 73.8545, 0, 7.19019E-013, 5.08423E-013, 1.13687E-013, 1.13687E-013
18, 1800.00000, 73.6903, 73.4532, 73.8469, 0, 7.19019E-013, 1.13687E-013, 2.27374E-013, 4.54747E-013
18, 2700.00000, 73.6662, 73.4288, 73.8211, 0, 0, 4.54747E-013, 2.54212E-013, 3.21555E-013
19, 0.00000, 73.6094, 73.3708, 73.7675, 0, 3.21555E-013, 5.08423E-013, 2.34371E-013, 2.27374E-013
19, 900.00000, 73.6454, 73.4135, 73.7996, 0, 6.4311E-013, 0, 2.27374E-013, 3.21555E-013
19, 1800.00000, 70.0738, 69.8893, 70.2345, 0, 4.54747E-013, 4.54747E-013, 3.63975E-013, 2.27374E-013
19, 2700.00000, 70.0153, 69.8297, 70.1878, 0, 5.08423E-013, 5.08423E-013, 2.27374E-013, 5.08423E-013
20, 0.00000, 70.0541, 69.8684, 70.2202, 0, 2.27374E-013, 1.13687E-013, 2.54212E-013, 2.54212E-013
20, 900.00000, 69.9764, 69.7902, 70.159, 0, 2.27374E-013, 1.13687E-013, 4.09904E-013, 4.09904E-013
20, 1800.00000, 70.0494, 69.8629, 70.2183, 0, 3.21555E-013, 2.27374E-013, 4.8567E-013, 2.27374E-013
20, 2700.00000, 68.4696, 68.2991, 68.6433, 0, 4.54747E-013, 9.11269E-013, 3.63975E-013, 3.41061E-013
21, 0.00000, 68.4097, 68.2278, 68.5894, 0, 5.08423E-013, 6.84485E-013, 4.8567E-013, 5.08423E-013
21, 900.00000, 68.4848, 68.3081, 68.6616, 0, 4.54747E-013, 1.13687E-013, 0, 6.9153E-013
21, 1800.00000, 73.6077, 73.3607, 73.7764, 0, 2.27374E-013, 1.13687E-013, 2.27374E-013, 2.27374E-013
21, 2700.00000, 73.6089, 73.367, 73.7792, 0, 4.54747E-013, 2.27374E-013, 9.16573E-013, 2.54212E-013
22, 0.00000, 73.68, 73.4404, 73.8429, 0, 2.27374E-013, 4.68743E-013, 5.08423E-013, 4.68743E-013
22, 900.00000, 73.6534, 73.4118, 73.813, 0, 2.27374E-013, 0, 4.58286E-013, 0
22, 1800.00000, 73.6436, 73.4038, 73.8024, 0, 3.21555E-013, 1.13687E-013, 1.7053E-013, 4.54747E-013
22, 2700.00000, 75.2896, 75.0322, 75.4392, 0, 0, 2.27374E-013, 2.27374E-013, 2.54212E-013
23, 0.00000, 75.2652, 75.0011, 75.4243, 0, 5.08423E-013, 4.54747E-013, 1.7053E-013, 4.54747E-013
23, 900.00000, 75.3345, 75.0774, 75.4871, 0, 5.08423E-013, 4.68743E-013, 7.62634E-013, 2.27374E-013
23, 1800.00000, 76.5067, 76.2286, 76.6518, 0, 6.4311E-013, 5.08423E-013, 4.68743E-013, 2.54212E-013
23, 2700.00000, 76.549, 76.2755, 76.693, 0, 0, 2.27374E-013, 2.84217E-013, 0
24, 0.00000, 76.5328, 76.2581, 76.6786, 0, 2.27374E-013, 4.68743E-013, 5.08423E-013, 2.27374E-013
24, 900.00000, 76.5838, 76.3187, 76.7194, 0, 5.08423E-013, 1.13687E-013, 3.63975E-013, 4.54747E-013
