hour, t(sec), |V|1 (volts), |V|2 (volts), |V|3 (volts), |V|4 (volts), |I|1 (amps), |I|2 (amps), |I|3 (amps), |I|4 (amps)
0, 900.00000, 128.638, 127.86, 130.116, 0, 278.5, 301.4, 188.223, 104.791
0, 1800.00000, 128.844, 128.082, 130.338, 0, 275.657, 298.01, 182.97, 106.746
0, 2700.00000, 121.679, 121.018, 123.127, 0, 254.797, 276.389, 170.628, 97.8926
1, 0.00000, 121.357, 120.669, 122.855, 0, 270.429, 294.474, 182.825, 102.961
1, 900.00000, 121.404, 120.725, 122.933, 0, 271.038, 294.791, 180.572, 105.552
1, 1800.00000, 116.506, 115.933, 117.859, 0, 246.276, 267.279, 168.114, 91.7366
1, 2700.00000, 116.341, 115.756, 117.719, 0, 255.554, 276.98, 175.294, 94.1261
2, 0.00000, 116.259, 115.664, 117.657, 0, 258.519, 280.809, 177.295, 95.6738
2, 900.00000, 116.449, 115.869, 117.821, 0, 252.163, 273.393, 172.377, 93.5087
2, 1800.00000, 116.169, 115.584, 117.648, 0, 268.667, 289.696, 180.422, 101.782
2, 2700.00000, 116.785, 116.206, 118.218, 0, 256.806, 277.869, 171.72, 98.6087
3, 0.00000, 123.897, 123.275, 125.29, 0, 248.31, 268.043, 164.979, 95.72
3, 900.00000, 123.444, 122.815, 125.036, 0, 274.018, 293.416, 175.224, 110.871
3, 1800.00000, 123.795, 123.166, 125.288, 0, 257.04, 277.192, 165.444, 104.147
3, 2700.00000, 123.305, 122.638, 124.89, 0, 273.957, 295.635, 176.903, 110.63
4, 0.00000, 123.464, 122.81, 125.008, 0, 267.215, 288.239, 173.114, 107.265
4, 900.00000, 123.7, 123.072, 125.157, 0, 254.959, 274.322, 167.693, 99.4199
4, 1800.00000, 123.305, 122.62, 124.852, 0, 269.506, 291.345, 176.472, 106.801
4, 2700.00000, 130.612, 129.881, 131.969, 0, 250.371, 272.106, 165.533, 98.4341
5, 0.00000, 130.233, 129.471, 131.707, 0, 270.818, 294.007, 177.241, 108.06
5, 900.00000, 130.397, 129.634, 131.818, 0, 262.815, 286.487, 173.141, 104.506
5, 1800.00000, 134.981, 134.186, 136.261, 0, 258.406, 282.295, 176.293, 97.458
5, 2700.00000, 134.894, 134.109, 136.249, 0, 267.705, 290.372, 178.833, 103.296
6, 0.00000, 135.201, 134.437, 136.531, 0, 258.762, 280.028, 170.738, 101.472
6, 900.00000, 134.924, 134.129, 136.311, 0, 266.815, 287.51, 175.823, 104.147
6, 1800.00000, 123.672, 122.962, 125.095, 0, 254.296, 276.088, 171.615, 96.5764
6, 2700.00000, 123.823, 123.167, 125.3, 0, 254.346, 272.053, 166.676, 98.8307
7, 0.00000, 123.442, 122.743, 125.042, 0, 267.679, 286.575, 172.148, 107.468
7, 900.00000, 123.532, 122.791, 125.02, 0, 259.557, 280.143, 172.574, 100.088
7, 1800.00000, 123.829, 123.077, 125.244, 0, 255.976, 279.149, 174.078, 96.7562
7, 2700.00000, 123.901, 123.107, 125.279, 0, 253.418, 280.202, 174.418, 96.3833
8, 0.00000, 123.705, 122.819, 125.04, 0, 258.539, 291.222, 183.817, 96.5516
8, 900.00000, 124.038, 123.116, 125.275, 0, 248.962, 286.232, 181.86, 92.7499
8, 1800.00000, 123.818, 122.879, 125.089, 0, 258.524, 296.885, 189.823, 95.1678
8, 2700.00000, 123.564, 122.569, 124.83, 0, 265.357, 306.231, 198.61, 95.4302
9, 0.00000, 123.295, 122.218, 124.498, 0, 273.112, 319.82, 211.881, 95.1948
9, 900.00000, 123.355, 122.292, 124.594, 0, 272.165, 318.559, 207.983, 97.5659
9, 1800.00000, 123.422, 122.375, 124.672, 0, 266.758, 312.093, 201.505, 97.6322
9, 2700.00000, 123.772, 122.738, 124.913, 0, 255.595, 301.229, 197.705, 91.1319
10, 0.00000, 123.66, 122.639, 124.887, 0, 263.823, 309.178, 198.866, 97.2886
10, 900.00000, 123.609, 122.553, 124.744, 0, 257.512, 304.572, 200.618, 91.4657
10, 1800.00000, 123.859, 122.805, 124.945, 0, 246.279, 294.016, 193.046, 88.7244
10, 2700.00000, 123.304, 122.215, 124.593, 0, 271.462, 320.886, 203.807, 103.157
11, 0.00000, 123.501, 122.432, 124.723, 0, 260.803, 308.459, 197.981, 97.2908
11, 900.00000, 123.873, 122.806, 124.912, 0, 245.35, 294.616, 196.052, 86.6175
11, 1800.00000, 123.187, 122.128, 124.463, 0, 275.37, 322.84, 207.817, 101.472
11, 2700.00000, 123.371, 122.344, 124.61, 0, 271.262, 317.015, 205.447, 98.439
12, 0.00000, 123.883, 122.862, 124.917, 0, 244.339, 290.704, 194.383, 84.6503
12, 900.00000, 123.179, 122.091, 124.377, 0, 271.034, 320.21, 210.496, 96.5921
12, 1800.00000, 123.199, 122.125, 124.411, 0, 274.05, 322.284, 212.121, 97.0562
12, 2700.00000, 123.214, 122.187, 124.457, 0, 270.013, 315.51, 205.908, 96.7389
13, 0.00000, 123.334, 122.32, 124.628, 0, 269.828, 312.994, 200.838, 99.3153
13, 900.00000, 123.167, 122.149, 124.48, 0, 273.252, 315.967, 203.435, 99.7748
13, 1800.00000, 123.252, 122.158, 124.411, 0, 265.78, 314.893, 208.448, 93.6873
13, 2700.00000, 122.606, 121.429, 123.874, 0, 281.568, 334.34, 219.755, 100.982
14, 0.00000, 122.853, 121.685, 124.097, 0, 273.149, 325.835, 212.609, 99.6969
14, 900.00000, 122.873, 121.726, 124.176, 0, 277.127, 328.907, 211.405, 103.523
14, 1800.00000, 123.216, 122.08, 124.37, 0, 263.877, 316.276, 208.969, 94.4047
14, 2700.00000, 123.317, 122.173, 124.405, 0, 261.059, 314.735, 210.299, 91.8947
15, 0.00000, 123.105, 121.939, 124.267, 0, 271.52, 325.142, 215.312, 96.6281
15, 900.00000, 123.34, 122.209, 124.503, 0, 266.108, 318.238, 209.15, 95.927
15, 1800.00000, 122.998, 121.843, 124.214, 0, 280.969, 334.616, 220.6, 100.324
15, 2700.00000, 123.409, 122.301, 124.457, 0, 253.757, 304.514, 206.33, 86.4723
16, 0.00000, 123.023, 121.879, 124.189, 0, 274.288, 327.198, 218.368, 95.7923
16, 900.00000, 122.918, 121.83, 124.202, 0, 284.356, 333.458, 218.699, 101.239
16, 1800.00000, 122.876, 121.817, 124.231, 0, 288.999, 335.787, 216.936, 105.177
16, 2700.00000, 123.248, 122.217, 124.498, 0, 268.361, 312.992, 203.906, 96.3672
17, 0.00000, 122.993, 121.956, 124.283, 0, 278.543, 323.354, 211.582, 98.8812
17, 900.00000, 123.273, 122.265, 124.44, 0, 259.413, 304.262, 200.636, 91.3187
17, 1800.00000, 123.181, 122.163, 124.37, 0, 265.489, 310.698, 203.513, 94.4882
17, 2700.00000, 123.158, 122.174, 124.382, 0, 265.938, 309.381, 200.372, 96.2835
18, 0.00000, 123.289, 122.317, 124.464, 0, 257.911, 301.051, 195.688, 92.9276
18, 900.00000, 122.66, 121.649, 123.893, 0, 271.234, 316.793, 207.061, 96.8176
18, 1800.00000, 122.703, 121.69, 123.845, 0, 267.487, 313.74, 210.423, 90.9842
18, 2700.00000, 122.61, 121.621, 123.809, 0, 267.026, 311.087, 205.412, 93.2588
19, 0.00000, 122.212, 121.231, 123.599, 0, 284.861, 327.49, 209.472, 104.906
19, 900.00000, 122.427, 121.496, 123.792, 0, 275.279, 314.436, 200.335, 101.725
19, 1800.00000, 115.41, 114.641, 116.661, 0, 266.32, 300.465, 200.206, 89.7553
19, 2700.00000, 115.315, 114.544, 116.597, 0, 262.87, 297.331, 196.291, 90.466
20, 0.00000, 115.432, 114.628, 116.706, 0, 262.306, 298.936, 194.749, 92.9952
20, 900.00000, 115.012, 114.251, 116.519, 0, 280.541, 314.005, 196.873, 106.123
20, 1800.00000, 115.34, 114.594, 116.721, 0, 269.743, 301.547, 193.904, 97.3016
20, 2700.00000, 112.198, 111.512, 113.59, 0, 272.845, 302.305, 196.395, 96.2242
21, 0.00000, 112.191, 111.465, 113.516, 0, 262.419, 293.445, 192.036, 91.5319
21, 900.00000, 112.289, 111.606, 113.731, 0, 271.51, 299.89, 190.758, 99.6131
21, 1800.00000, 122.269, 121.409, 123.842, 0, 287.91, 319.406, 197.152, 111.326
21, 2700.00000, 122.171, 121.351, 123.803, 0, 295.503, 324.467, 200.297, 113.941
22, 0.00000, 122.482, 121.673, 124.059, 0, 285.992, 314.438, 193.197, 111.128
22, 900.00000, 122.446, 121.605, 123.974, 0, 282.99, 313.413, 194.268, 108.533
22, 1800.00000, 122.32, 121.476, 123.909, 0, 290.665, 321.535, 197.056, 113.607
22, 2700.00000, 126.087, 125.212, 127.488, 0, 265.353, 296.779, 183.951, 102.018
23, 0.00000, 125.765, 124.898, 127.331, 0, 284.805, 314.567, 191.569, 112.426
23, 900.00000, 126.181, 125.321, 127.575, 0, 267.909, 298.605, 187.202, 100.843
23, 1800.00000, 128.479, 127.583, 129.948, 0, 277.596, 307.949, 189.177, 108.057
23, 2700.00000, 128.553, 127.679, 130.019, 0, 280.295, 309.706, 191.416, 107.837
24, 0.00000, 128.37, 127.503, 129.944, 0, 290.475, 318.882, 193.336, 115.239
24, 900.00000, 128.639, 127.861, 130.117, 0, 278.495, 301.395, 188.22, 104.79
