hour, t(sec), |V|1 (volts), |V|2 (volts), |V|3 (volts), |V|4 (volts), |I|1 (amps), |I|2 (amps), |I|3 (amps), |I|4 (amps)
0, 900.00000, 126.684, 125.931, 127.97, 0, 24.6707, 29.9019, 13.0293, 14.9653
0, 1800.00000, 126.804, 126.146, 128.064, 0, 24.1124, 28.4329, 12.7111, 14.0796
0, 2700.00000, 126.922, 126.276, 128.113, 0, 22.6284, 26.9133, 11.8926, 13.412
1, 0.00000, 126.562, 125.946, 127.887, 0, 25.7825, 29.765, 13.7017, 14.5025
1, 900.00000, 126.589, 126.042, 127.911, 0, 25.7502, 29.0583, 13.6822, 14.0365
1, 1800.00000, 126.599, 126.118, 127.93, 0, 26.035, 28.7056, 13.8383, 13.7507
1, 2700.00000, 126.551, 126.004, 127.89, 0, 26.2982, 29.5994, 13.998, 14.2586
2, 0.00000, 126.426, 125.932, 127.814, 0, 27.3798, 30.1356, 14.6312, 14.3504
2, 900.00000, 126.607, 126.093, 127.931, 0, 26.0079, 28.9821, 13.8705, 13.8862
2, 1800.00000, 126.572, 126.063, 127.9, 0, 26.0655, 28.9475, 13.9062, 13.849
2, 2700.00000, 126.691, 126.274, 128.005, 0, 25.8452, 27.8484, 13.8087, 13.1797
3, 0.00000, 127.262, 126.574, 128.361, 0, 20.7472, 25.6253, 10.8548, 13.0377
3, 900.00000, 127.247, 126.619, 128.335, 0, 20.4388, 24.6684, 10.684, 12.4293
3, 1800.00000, 127.2, 126.686, 128.325, 0, 21.449, 24.5492, 11.2861, 12.0312
3, 2700.00000, 126.9, 126.36, 128.116, 0, 23.4272, 26.6894, 12.4239, 12.9633
4, 0.00000, 127.043, 126.475, 128.209, 0, 22.265, 25.8458, 11.7589, 12.6951
4, 900.00000, 127.325, 126.59, 128.382, 0, 19.6849, 24.9919, 10.2948, 12.8921
4, 1800.00000, 126.878, 126.269, 128.097, 0, 23.4, 27.2618, 12.4197, 13.3519
4, 2700.00000, 127.039, 126.56, 128.231, 0, 22.936, 25.5778, 12.1467, 12.3445
5, 0.00000, 126.83, 126.394, 128.094, 0, 24.5498, 26.6774, 13.0655, 12.7085
5, 900.00000, 126.878, 126.456, 128.131, 0, 24.3023, 26.3181, 12.9138, 12.5445
5, 1800.00000, 126.663, 126.324, 128.023, 0, 26.8069, 27.9885, 14.3369, 13.1349
5, 2700.00000, 126.817, 126.472, 128.114, 0, 25.4002, 26.615, 13.5477, 12.536
6, 0.00000, 127.102, 126.784, 128.301, 0, 23.3106, 24.2757, 12.3881, 11.4649
6, 900.00000, 127.011, 126.601, 128.233, 0, 23.4537, 25.1833, 12.425, 12.0157
6, 1800.00000, 127.094, 126.457, 128.284, 0, 22.5634, 26.5183, 11.9361, 13.0773
6, 2700.00000, 127.641, 126.868, 128.622, 0, 17.5908, 22.9789, 9.09936, 12.1237
7, 0.00000, 127.34, 126.745, 128.424, 0, 19.8923, 23.2714, 10.4481, 11.5314
7, 900.00000, 127.351, 126.721, 128.421, 0, 19.6434, 23.2833, 10.3129, 11.6053
7, 1800.00000, 127.451, 126.887, 128.502, 0, 19.0875, 22.1393, 9.94149, 11.0141
7, 2700.00000, 127.367, 126.959, 128.458, 0, 20.1255, 21.568, 10.5603, 10.3907
8, 0.00000, 126.953, 126.699, 128.206, 0, 23.7862, 23.5382, 12.5888, 11.1177
8, 900.00000, 127.107, 126.95, 128.334, 0, 23.0264, 21.858, 12.102, 10.4329
8, 1800.00000, 127.366, 126.978, 128.465, 0, 19.9314, 21.1147, 10.3518, 10.2535
8, 2700.00000, 127.03, 126.657, 128.225, 0, 22.0329, 22.9297, 11.5516, 10.9943
9, 0.00000, 126.105, 126.034, 127.665, 0, 30.6711, 28.4197, 16.4961, 13.261
9, 900.00000, 126.361, 126.261, 127.819, 0, 28.2487, 26.348, 15.1054, 12.3633
9, 1800.00000, 126.465, 126.491, 127.883, 0, 27.3231, 24.1488, 14.5775, 11.5507
9, 2700.00000, 126.598, 126.578, 127.987, 0, 26.7395, 24.1223, 14.2413, 11.4725
10, 0.00000, 126.45, 126.652, 127.911, 0, 28.262, 23.4141, 15.0271, 11.6562
10, 900.00000, 126.259, 126.398, 127.78, 0, 29.6652, 25.4028, 15.8255, 12.3413
10, 1800.00000, 126.071, 126.441, 127.69, 0, 31.9838, 25.3902, 17.1506, 12.9388
10, 2700.00000, 125.877, 126.343, 127.566, 0, 33.415, 25.7964, 17.9658, 13.4485
11, 0.00000, 126.044, 126.422, 127.668, 0, 31.9032, 25.1575, 17.0838, 12.9176
11, 900.00000, 126.156, 126.461, 127.754, 0, 31.4547, 25.5432, 16.825, 12.8143
11, 1800.00000, 126.202, 126.405, 127.729, 0, 29.8601, 24.9781, 15.9716, 12.2677
11, 2700.00000, 126.396, 126.571, 127.858, 0, 28.4534, 23.9202, 15.1639, 11.7602
12, 0.00000, 126.358, 126.523, 127.858, 0, 29.4028, 25.0187, 15.694, 12.1885
12, 900.00000, 125.96, 126.183, 127.587, 0, 32.0982, 26.9862, 17.2214, 13.1644
12, 1800.00000, 126.343, 126.343, 127.81, 0, 28.3684, 25.5229, 15.0901, 12.1698
12, 2700.00000, 126.368, 126.427, 127.838, 0, 28.2605, 24.8848, 14.9936, 12.0041
13, 0.00000, 126.305, 126.501, 127.814, 0, 29.3146, 24.4306, 15.6277, 12.077
13, 900.00000, 126.183, 126.337, 127.729, 0, 30.0359, 25.5554, 16.0161, 12.4692
13, 1800.00000, 125.847, 126.054, 127.523, 0, 33.2052, 28.1827, 17.8601, 13.6279
13, 2700.00000, 125.276, 125.536, 127.148, 0, 37.2562, 31.5002, 20.1321, 15.1889
14, 0.00000, 125.318, 125.68, 127.195, 0, 37.3512, 30.587, 20.1598, 15.094
14, 900.00000, 125.576, 125.937, 127.351, 0, 35.0394, 28.336, 18.8699, 14.1543
14, 1800.00000, 125.629, 125.97, 127.404, 0, 35.2008, 28.7788, 18.9729, 14.239
14, 2700.00000, 125.567, 125.932, 127.367, 0, 35.9487, 29.3264, 19.3998, 14.5116
15, 0.00000, 125.546, 125.885, 127.347, 0, 35.8707, 29.4006, 19.3494, 14.5054
15, 900.00000, 125.673, 126.102, 127.447, 0, 35.2649, 27.9542, 18.9967, 14.1923
15, 1800.00000, 125.833, 126.052, 127.533, 0, 33.5154, 28.3086, 18.0045, 13.7519
15, 2700.00000, 125.71, 125.941, 127.469, 0, 34.9517, 29.6766, 18.8221, 14.3287
16, 0.00000, 125.67, 125.867, 127.437, 0, 34.9823, 30.0203, 18.8136, 14.4322
16, 900.00000, 125.791, 125.969, 127.511, 0, 33.9025, 29.1975, 18.2133, 14.0273
16, 1800.00000, 125.817, 126.06, 127.53, 0, 33.6778, 28.3315, 18.0135, 13.8715
16, 2700.00000, 126.044, 126.283, 127.693, 0, 32.3663, 27.0486, 17.3044, 13.3046
17, 0.00000, 125.919, 126.047, 127.598, 0, 33.1214, 28.9175, 17.7789, 13.81
17, 900.00000, 125.678, 126.006, 127.459, 0, 35.7342, 29.678, 19.2492, 14.5264
17, 1800.00000, 125.74, 125.968, 127.493, 0, 35.1549, 30.1723, 18.8468, 14.5555
17, 2700.00000, 125.813, 126.02, 127.529, 0, 34.4247, 29.7317, 18.4504, 14.298
18, 0.00000, 125.922, 126.118, 127.595, 0, 33.558, 29.0286, 17.9508, 13.9801
18, 900.00000, 125.504, 125.651, 127.296, 0, 36.218, 32.1851, 19.5022, 15.1906
18, 1800.00000, 125.428, 125.389, 127.249, 0, 36.9686, 34.8416, 19.9272, 16.1599
18, 2700.00000, 125.302, 125.385, 127.168, 0, 37.9391, 34.5747, 20.4558, 16.152
19, 0.00000, 125.442, 125.466, 127.23, 0, 35.9226, 33.1305, 19.2576, 15.5373
19, 900.00000, 125.633, 125.578, 127.348, 0, 34.3322, 32.4089, 18.3716, 15.1599
19, 1800.00000, 125.622, 125.358, 127.323, 0, 34.0598, 34.2758, 18.255, 15.9693
19, 2700.00000, 125.21, 125.086, 127.075, 0, 37.616, 36.368, 20.2963, 16.8073
20, 0.00000, 124.821, 125.067, 126.864, 0, 42.0082, 37.0121, 22.8244, 17.3419
20, 900.00000, 125.022, 125.087, 126.96, 0, 39.1356, 35.9324, 21.1854, 16.6764
20, 1800.00000, 125.171, 125.159, 127.062, 0, 38.4186, 36.0164, 20.78, 16.6524
20, 2700.00000, 125.248, 124.994, 127.08, 0, 36.9596, 36.9994, 19.9616, 17.0841
21, 0.00000, 124.73, 124.636, 126.763, 0, 41.503, 39.7663, 22.5332, 18.2552
21, 900.00000, 125.168, 125.133, 127.044, 0, 37.971, 35.7179, 20.5354, 16.509
21, 1800.00000, 125.376, 125.279, 127.159, 0, 35.8225, 34.1759, 19.279, 15.8589
21, 2700.00000, 125.737, 125.38, 127.362, 0, 32.1365, 33.204, 17.2156, 15.5316
22, 0.00000, 125.755, 125.544, 127.395, 0, 32.7175, 32.3163, 17.5456, 15.0332
22, 900.00000, 125.503, 125.362, 127.231, 0, 35.002, 33.8516, 18.9238, 15.6017
22, 1800.00000, 125.382, 125.337, 127.16, 0, 36.1247, 34.0209, 19.542, 15.7117
22, 2700.00000, 125.301, 125.366, 127.147, 0, 37.649, 34.4451, 20.396, 15.9787
23, 0.00000, 125.521, 125.453, 127.269, 0, 35.1628, 33.2397, 18.9741, 15.3917
23, 900.00000, 125.543, 125.402, 127.305, 0, 35.6928, 34.5933, 19.2903, 15.9496
23, 1800.00000, 125.498, 125.392, 127.271, 0, 35.9585, 34.4356, 19.4703, 15.8542
23, 2700.00000, 125.699, 125.517, 127.4, 0, 34.3764, 33.6794, 18.5948, 15.5079
24, 0.00000, 125.794, 125.622, 127.448, 0, 33.2387, 32.4248, 17.952, 14.9584
24, 900.00000, 126.684, 125.931, 127.97, 0, 24.6712, 29.9023, 13.0294, 14.9655
