hour, t(sec), |V|1 (volts), |V|2 (volts), |V|3 (volts), |V|4 (volts), |I|1 (amps), |I|2 (amps), |I|3 (amps), |I|4 (amps)
0, 900.00000, 123.741, 123.188, 125.531, 0, 89.5425, 93.2309, 49.6336, 42.3044
0, 1800.00000, 124.197, 123.597, 125.905, 0, 80.9253, 86.3308, 43.0134, 41.2486
0, 2700.00000, 124.957, 124.325, 126.501, 0, 75.9517, 82.8387, 42.5476, 37.6534
1, 0.00000, 124.676, 124.07, 126.356, 0, 80.3858, 86.541, 42.9147, 41.2443
1, 900.00000, 124.732, 124.131, 126.424, 0, 80.3692, 86.5442, 42.4049, 41.7402
1, 1800.00000, 124.38, 123.751, 125.98, 0, 77.9393, 85.1564, 42.491, 39.875
1, 2700.00000, 124.232, 123.643, 125.924, 0, 80.6573, 86.3682, 42.2815, 41.8635
2, 0.00000, 124.158, 123.607, 125.905, 0, 81.3023, 85.7395, 41.5059, 42.5417
2, 900.00000, 124.398, 123.795, 126.027, 0, 77.8018, 84.0356, 41.3349, 40.2722
2, 1800.00000, 124.217, 123.677, 125.949, 0, 80.4854, 84.4533, 41.0504, 41.9102
2, 2700.00000, 124.19, 123.641, 125.85, 0, 78.4092, 83.0423, 40.8984, 40.359
3, 0.00000, 124.639, 124.12, 126.156, 0, 71.086, 75.4539, 37.5274, 36.2313
3, 900.00000, 124.386, 123.896, 126.011, 0, 74.1436, 77.3192, 37.724, 38.4231
3, 1800.00000, 124.618, 124.155, 126.213, 0, 71.8214, 74.3245, 35.8197, 37.6147
3, 2700.00000, 124.172, 123.636, 125.847, 0, 76.4324, 80.6438, 38.8346, 40.201
4, 0.00000, 124.309, 123.798, 125.963, 0, 74.67, 78.262, 37.5787, 39.3327
4, 900.00000, 124.458, 123.925, 126.013, 0, 72.9476, 77.3928, 38.7709, 36.912
4, 1800.00000, 124.058, 123.502, 125.74, 0, 78.3317, 82.6375, 40.8696, 40.1395
4, 2700.00000, 124.108, 123.583, 125.701, 0, 74.0968, 77.9671, 38.5404, 37.9545
5, 0.00000, 123.755, 123.273, 125.497, 0, 80.4379, 82.6554, 40.7129, 41.2373
5, 900.00000, 123.93, 123.47, 125.654, 0, 77.3139, 78.8997, 37.8559, 40.6149
5, 1800.00000, 123.17, 122.574, 124.826, 0, 77.4321, 83.4111, 40.3323, 40.7484
5, 2700.00000, 123.084, 122.593, 124.819, 0, 80.7224, 83.3105, 41.1316, 41.3023
6, 0.00000, 123.538, 123.062, 125.177, 0, 73.8323, 76.0315, 36.5083, 38.7834
6, 900.00000, 123.244, 122.688, 124.929, 0, 76.3369, 80.173, 38.6299, 40.1055
6, 1800.00000, 123.18, 122.559, 124.826, 0, 79.1288, 84.7481, 42.94, 39.6587
6, 2700.00000, 123.038, 122.466, 124.66, 0, 73.2284, 77.4183, 37.6121, 38.2159
7, 0.00000, 122.419, 121.899, 124.204, 0, 85.2536, 87.0135, 45.6961, 40.8921
7, 900.00000, 122.64, 121.836, 124.185, 0, 78.1776, 88.0425, 45.7401, 38.701
7, 1800.00000, 123.128, 122.534, 124.784, 0, 78.9334, 82.8372, 42.4172, 38.9836
7, 2700.00000, 123.2, 122.63, 124.883, 0, 78.1143, 81.2429, 40.5657, 39.5676
8, 0.00000, 122.834, 122.26, 124.611, 0, 85.1517, 87.7678, 44.9286, 41.9978
8, 900.00000, 123.306, 122.68, 124.987, 0, 77.6222, 82.369, 39.9911, 40.5637
8, 1800.00000, 123.218, 122.635, 124.949, 0, 76.8823, 80.1836, 38.1142, 40.879
8, 2700.00000, 122.922, 122.301, 124.724, 0, 79.2366, 82.9013, 38.8378, 42.7344
9, 0.00000, 122.417, 121.737, 124.359, 0, 89.3526, 94.4728, 44.669, 47.8789
9, 900.00000, 122.612, 122.016, 124.542, 0, 84.8603, 87.6839, 40.4941, 46.2583
9, 1800.00000, 122.249, 121.713, 124.125, 0, 91.0581, 92.1686, 48.6135, 43.4722
9, 2700.00000, 122.781, 122.043, 124.465, 0, 81.6556, 89.51, 44.3158, 42.1896
10, 0.00000, 122.521, 121.994, 124.372, 0, 89.2177, 90.8488, 46.8381, 43.6473
10, 900.00000, 122.434, 121.703, 124.198, 0, 87.8736, 95.3397, 48.3216, 44.169
10, 1800.00000, 122.58, 121.916, 124.449, 0, 87.2576, 92.8386, 44.1064, 46.5883
10, 2700.00000, 122.566, 121.901, 124.558, 0, 92.0033, 97.2691, 46.0453, 49.2465
11, 0.00000, 122.779, 122.072, 124.67, 0, 87.6829, 94.2089, 44.5553, 47.1419
11, 900.00000, 122.768, 122.289, 124.747, 0, 94.1755, 94.2257, 47.5757, 47.0792
11, 1800.00000, 123.128, 122.314, 124.918, 0, 88.5458, 98.7434, 48.5182, 46.3771
11, 2700.00000, 123.314, 122.586, 125.107, 0, 87.0519, 94.9074, 46.4052, 45.4749
12, 0.00000, 123.623, 122.944, 125.373, 0, 83.7313, 90.3921, 43.7621, 44.0409
12, 900.00000, 122.896, 122.113, 124.816, 0, 93.8669, 102.776, 49.9743, 49.3869
12, 1800.00000, 123.014, 122.449, 124.951, 0, 91.8973, 94.1528, 47.395, 46.1251
12, 2700.00000, 123.42, 122.701, 125.254, 0, 90.7395, 98.2215, 49.6021, 45.7692
13, 0.00000, 123.555, 122.966, 125.452, 0, 90.3026, 93.2582, 46.9304, 45.3624
13, 900.00000, 123.37, 122.678, 125.265, 0, 92.0116, 97.9684, 49.095, 46.628
13, 1800.00000, 123.288, 122.492, 125.138, 0, 92.0081, 101.145, 50.2402, 47.4285
13, 2700.00000, 122.548, 121.707, 124.613, 0, 100.41, 109.724, 53.8352, 52.3755
14, 0.00000, 122.835, 122.075, 124.848, 0, 96.2692, 103.267, 50.8783, 49.7586
14, 900.00000, 122.994, 122.307, 124.962, 0, 93.3626, 98.4705, 49.3595, 47.2548
14, 1800.00000, 123.19, 122.484, 125.155, 0, 93.2846, 99.4766, 48.6315, 48.5072
14, 2700.00000, 123.37, 122.604, 125.265, 0, 91.0897, 99.4125, 48.034, 48.184
15, 0.00000, 123.205, 122.303, 125.017, 0, 93.34, 105.284, 53.3025, 47.5935
15, 900.00000, 123.459, 122.73, 125.367, 0, 90.9193, 97.9334, 47.5002, 47.7456
15, 1800.00000, 122.933, 122.216, 124.905, 0, 94.3857, 100.908, 49.5068, 48.9324
15, 2700.00000, 123.072, 122.325, 124.951, 0, 92.9818, 100.732, 50.5486, 47.2316
16, 0.00000, 122.813, 122.093, 124.805, 0, 96.3999, 103.033, 51.0086, 49.5197
16, 900.00000, 122.854, 122.147, 124.89, 0, 95.5528, 102.179, 48.8424, 50.8171
16, 1800.00000, 122.759, 122.198, 124.911, 0, 98.9307, 101.088, 48.4287, 52.118
16, 2700.00000, 122.993, 122.312, 124.946, 0, 93.2235, 99.0948, 48.5165, 48.3604
17, 0.00000, 122.629, 122.06, 124.734, 0, 100.257, 102.583, 51.207, 50.7656
17, 900.00000, 122.506, 122.106, 124.646, 0, 105.791, 103.665, 54.9589, 50.344
17, 1800.00000, 123.419, 122.634, 125.338, 0, 95.4188, 105.122, 50.7687, 50.6108
17, 2700.00000, 123.423, 122.569, 125.206, 0, 94.692, 106.979, 54.1679, 48.2542
18, 0.00000, 123.524, 122.734, 125.289, 0, 92.5869, 103.155, 52.3714, 46.7927
18, 900.00000, 122.545, 121.708, 124.444, 0, 107.897, 119.612, 64.9479, 50.342
18, 1800.00000, 122.416, 121.618, 124.34, 0, 111.855, 122.592, 67.9263, 50.6766
18, 2700.00000, 122.578, 121.881, 124.554, 0, 123.314, 131.005, 78.1902, 50.0223
19, 0.00000, 122.347, 121.655, 124.434, 0, 124.595, 131.86, 76.7812, 52.461
19, 900.00000, 122.785, 121.791, 124.575, 0, 114.242, 131.16, 75.0972, 50.3315
19, 1800.00000, 122.432, 121.541, 124.348, 0, 120.209, 133.992, 77.3658, 51.7155
19, 2700.00000, 122.165, 121.289, 124.211, 0, 123.682, 136.928, 77.7892, 54.3666
20, 0.00000, 122.513, 121.481, 124.454, 0, 116.891, 134.72, 73.3626, 55.186
20, 900.00000, 121.945, 121.316, 124.229, 0, 127.133, 132.636, 74.6661, 56.1188
20, 1800.00000, 122.675, 121.758, 124.705, 0, 111.718, 126.029, 65.6308, 55.1715
20, 2700.00000, 121.889, 120.953, 123.995, 0, 114.253, 129.186, 66.2964, 57.4339
21, 0.00000, 121.651, 120.507, 123.538, 0, 116.769, 137.228, 75.9577, 54.6295
21, 900.00000, 122.068, 121.283, 124.223, 0, 111.662, 121.449, 61.9434, 55.8069
21, 1800.00000, 122.795, 121.851, 124.746, 0, 104.004, 118.665, 60.189, 53.1636
21, 2700.00000, 122.845, 121.89, 124.743, 0, 102.216, 117.537, 60.1934, 51.8844
22, 0.00000, 123.126, 122.168, 124.925, 0, 99.7533, 115.292, 59.9705, 49.8511
22, 900.00000, 123.033, 122.006, 124.813, 0, 100.378, 117.775, 61.1993, 50.6198
22, 1800.00000, 122.993, 122.027, 124.791, 0, 100.425, 116.067, 60.8235, 49.7604
22, 2700.00000, 123.51, 122.632, 125.285, 0, 96.6862, 109.73, 57.3663, 47.6382
23, 0.00000, 123.34, 122.472, 125.209, 0, 98.856, 111.346, 57.3755, 49.3905
23, 900.00000, 123.72, 122.879, 125.519, 0, 94.0647, 106.171, 53.8457, 47.8511
23, 1800.00000, 123.381, 122.639, 125.261, 0, 95.336, 104.01, 53.037, 47.6806
23, 2700.00000, 123.475, 122.759, 125.349, 0, 95.8811, 104.065, 53.4323, 47.516
24, 0.00000, 123.459, 122.732, 125.334, 0, 94.2799, 102.66, 52.1384, 47.3358
24, 900.00000, 123.74, 123.188, 125.53, 0, 89.5461, 93.2352, 49.6346, 42.3073
