hour, t(sec), |V|1 (volts), |V|2 (volts), |V|3 (volts), |V|4 (volts), |I|1 (amps), |I|2 (amps), |I|3 (amps), |I|4 (amps)
0, 900.00000, 126.314, 125.617, 126.808, 0, 224.005, 247.283, 206.282, 36.6288
0, 1800.00000, 126.582, 125.896, 127.068, 0, 210.532, 233.882, 193.306, 36.2059
0, 2700.00000, 131.521, 130.84, 131.973, 0, 206.564, 227.311, 189.148, 33.9404
1, 0.00000, 131.476, 130.777, 131.931, 0, 203.282, 225.989, 185.451, 36.0194
1, 900.00000, 131.578, 130.895, 132.027, 0, 197.71, 219.582, 180.254, 34.9265
1, 1800.00000, 125.697, 125.063, 126.173, 0, 197.358, 219.418, 180.175, 34.8912
1, 2700.00000, 125.614, 124.991, 126.085, 0, 201.21, 221.885, 184.123, 33.5845
2, 0.00000, 125.521, 124.912, 125.997, 0, 206.231, 225.652, 189.243, 32.4183
2, 900.00000, 125.729, 125.114, 126.205, 0, 195.122, 215.099, 178.111, 32.8793
2, 1800.00000, 125.67, 125.052, 126.14, 0, 195.842, 215.517, 179.453, 32.1068
2, 2700.00000, 125.836, 125.237, 126.299, 0, 189.22, 208.212, 173.234, 31.1153
3, 0.00000, 126.049, 125.516, 126.524, 0, 182.13, 196.741, 164.592, 28.5833
3, 900.00000, 125.967, 125.413, 126.431, 0, 182.677, 198.577, 166.347, 28.6448
3, 1800.00000, 126.082, 125.558, 126.545, 0, 179.147, 193.07, 162.762, 26.9746
3, 2700.00000, 125.764, 125.192, 126.242, 0, 190.837, 207.433, 174.031, 29.7164
4, 0.00000, 125.819, 125.254, 126.293, 0, 190.504, 206.831, 173.925, 29.2799
4, 900.00000, 125.893, 125.373, 126.379, 0, 188.687, 201.222, 171.307, 26.7699
4, 1800.00000, 125.632, 125.073, 126.132, 0, 198.046, 211.98, 180.696, 27.992
4, 2700.00000, 125.922, 125.364, 126.384, 0, 188.179, 203.417, 172.884, 27.2303
5, 0.00000, 125.849, 125.269, 126.316, 0, 186.697, 202.817, 171.658, 27.8019
5, 900.00000, 125.845, 125.293, 126.311, 0, 190.517, 204.723, 175.201, 26.3773
5, 1800.00000, 125.754, 125.161, 126.217, 0, 194.517, 212.628, 179.327, 29.7105
5, 2700.00000, 125.83, 125.235, 126.275, 0, 190.382, 208.3, 176.649, 28.3201
6, 0.00000, 126.091, 125.489, 126.511, 0, 180.257, 199.041, 168.046, 27.8275
6, 900.00000, 125.832, 125.182, 126.291, 0, 190.537, 210.754, 177.346, 30.0485
6, 1800.00000, 125.877, 125.232, 126.374, 0, 185.982, 204.087, 171.311, 29.3509
6, 2700.00000, 126.087, 125.48, 126.585, 0, 176.362, 191.323, 161.937, 26.3077
7, 0.00000, 125.794, 125.161, 126.298, 0, 189.345, 204.047, 176.55, 24.8394
7, 900.00000, 125.752, 125.023, 126.242, 0, 191.703, 213.175, 180.077, 30.1592
7, 1800.00000, 126.041, 125.428, 126.521, 0, 179.669, 192.199, 169.167, 20.9473
7, 2700.00000, 126.072, 125.44, 126.533, 0, 179.418, 193.655, 170.567, 21.1767
8, 0.00000, 125.884, 125.196, 126.338, 0, 187.117, 204.572, 179.313, 23.4975
8, 900.00000, 126.237, 125.564, 126.691, 0, 168.516, 185.643, 161.227, 22.6936
8, 1800.00000, 126.119, 125.479, 126.6, 0, 172.734, 186.719, 163.631, 21.1382
8, 2700.00000, 125.096, 124.392, 125.591, 0, 188.721, 206.644, 179.919, 24.7491
9, 0.00000, 124.901, 124.155, 125.377, 0, 193.764, 214.502, 186.643, 26.2953
9, 900.00000, 124.954, 124.262, 125.443, 0, 192.055, 209.113, 183.793, 23.5474
9, 1800.00000, 125.65, 124.987, 126.109, 0, 195.746, 209.9, 189.712, 19.1648
9, 2700.00000, 126.054, 125.391, 126.51, 0, 172.55, 187.89, 166.231, 20.3376
10, 0.00000, 126.028, 125.369, 126.457, 0, 175.009, 190.652, 170.618, 19.3025
10, 900.00000, 125.788, 125.102, 126.228, 0, 187.866, 205.042, 182.636, 21.4536
10, 1800.00000, 125.888, 125.162, 126.312, 0, 184.908, 206.082, 181.098, 24.4482
10, 2700.00000, 127.564, 126.809, 128.001, 0, 190.143, 211.342, 185.649, 24.9623
11, 0.00000, 125.691, 124.929, 126.141, 0, 192.033, 215.304, 187.029, 27.3395
11, 900.00000, 125.845, 125.172, 126.271, 0, 188.935, 205.591, 184.707, 20.2763
11, 1800.00000, 123.682, 122.999, 124.135, 0, 193.691, 213.016, 187.707, 24.0777
11, 2700.00000, 123.834, 123.113, 124.251, 0, 189.463, 212.72, 185.335, 26.6942
12, 0.00000, 123.894, 123.225, 124.326, 0, 192.179, 211.644, 186.548, 23.9204
12, 900.00000, 123.455, 122.743, 123.901, 0, 209.506, 230.729, 204.303, 25.5307
12, 1800.00000, 123.514, 122.824, 123.97, 0, 207.275, 226.256, 200.885, 24.117
12, 2700.00000, 123.297, 122.619, 123.756, 0, 204.515, 223.846, 198.283, 24.3175
13, 0.00000, 123.399, 122.717, 123.848, 0, 200.928, 219.188, 196.073, 22.361
13, 900.00000, 123.275, 122.569, 123.738, 0, 204.041, 223.906, 198.499, 24.4228
13, 1800.00000, 122.807, 122.06, 123.269, 0, 201.295, 224.954, 195.715, 28.1499
13, 2700.00000, 122.175, 121.354, 122.695, 0, 228.87, 256.33, 221.4, 33.3977
14, 0.00000, 122.314, 121.543, 122.84, 0, 224.18, 247.796, 216.232, 29.9307
14, 900.00000, 122.439, 121.69, 122.959, 0, 218.222, 240.576, 210.479, 28.5059
14, 1800.00000, 122.659, 121.906, 123.154, 0, 209.913, 233.5, 203.375, 28.8028
14, 2700.00000, 118.302, 117.596, 118.75, 0, 198.195, 223.804, 193.811, 29.1099
15, 0.00000, 125.472, 124.667, 125.941, 0, 195.163, 219.857, 189.85, 29.0177
15, 900.00000, 125.622, 124.835, 126.074, 0, 192.086, 216.306, 187.863, 27.8298
15, 1800.00000, 125.497, 124.701, 125.963, 0, 194.938, 219.593, 189.414, 29.0924
15, 2700.00000, 125.438, 124.645, 125.91, 0, 202.88, 227.896, 196.376, 30.1096
16, 0.00000, 125.327, 124.561, 125.809, 0, 206.369, 228.634, 199.521, 27.6876
16, 900.00000, 125.434, 124.671, 125.911, 0, 199.437, 222.447, 192.873, 28.1618
16, 1800.00000, 125.412, 124.685, 125.868, 0, 202.191, 222.49, 196.73, 24.7779
16, 2700.00000, 125.477, 124.729, 125.924, 0, 203.307, 225.522, 198.317, 26.357
17, 0.00000, 125.34, 124.601, 125.805, 0, 207.477, 228.461, 201.052, 26.1255
17, 900.00000, 125.234, 124.553, 125.65, 0, 219.753, 238.443, 214.677, 22.9616
17, 1800.00000, 127.002, 126.237, 127.394, 0, 210.582, 236.283, 204.731, 30.2391
17, 2700.00000, 127.076, 126.342, 127.466, 0, 204.606, 228.99, 197.885, 29.4353
18, 0.00000, 127.014, 126.234, 127.381, 0, 213.274, 242.457, 207.019, 33.8585
18, 900.00000, 126.346, 125.593, 126.735, 0, 247.372, 274.243, 239.2, 33.0158
18, 1800.00000, 126.386, 125.649, 126.797, 0, 243.266, 268.885, 232.634, 33.4764
18, 2700.00000, 130.6, 129.833, 130.958, 0, 248.877, 273.955, 240.05, 31.6829
19, 0.00000, 130.403, 129.641, 130.772, 0, 257.644, 281.945, 248.205, 31.414
19, 900.00000, 130.642, 129.859, 131.022, 0, 242.443, 269.837, 231.398, 35.4171
19, 1800.00000, 130.054, 129.318, 130.449, 0, 250.626, 274.303, 238.403, 32.7719
19, 2700.00000, 129.841, 129.086, 130.285, 0, 259.256, 283.832, 244.835, 35.3886
20, 0.00000, 130.022, 129.186, 130.418, 0, 250.056, 281.869, 238.69, 39.9752
20, 900.00000, 124.208, 123.566, 124.733, 0, 259.252, 277.859, 242.897, 31.587
20, 1800.00000, 124.454, 123.659, 124.922, 0, 250.91, 282.725, 236.943, 41.8763
20, 2700.00000, 124.205, 123.463, 124.711, 0, 247.939, 275.327, 231.773, 39.354
21, 0.00000, 123.995, 123.196, 124.523, 0, 255.128, 284.94, 238.129, 42.366
21, 900.00000, 124.228, 123.465, 124.71, 0, 249.04, 277.039, 235.288, 38.1334
21, 1800.00000, 120.551, 119.804, 121.04, 0, 238.325, 269.183, 224.361, 41.0327
21, 2700.00000, 120.616, 119.963, 121.129, 0, 233.073, 256.561, 217.181, 35.6195
22, 0.00000, 120.865, 120.184, 121.346, 0, 222.218, 248.165, 208.226, 36.2924
22, 900.00000, 120.689, 119.955, 121.161, 0, 233.215, 263.57, 219.462, 40.3779
22, 1800.00000, 120.692, 119.945, 121.157, 0, 231.657, 263.373, 218.284, 41.3775
22, 2700.00000, 122.212, 121.435, 122.687, 0, 232.841, 264.883, 219.296, 41.7025
23, 0.00000, 122.186, 121.421, 122.687, 0, 230.981, 261.229, 216.67, 40.586
23, 900.00000, 122.412, 121.683, 122.913, 0, 222.376, 250.476, 207.103, 39.1963
23, 1800.00000, 126.137, 125.35, 126.629, 0, 226.711, 255.925, 210.983, 40.6221
23, 2700.00000, 126.326, 125.6, 126.803, 0, 217.364, 242.025, 202.599, 35.5586
24, 0.00000, 126.256, 125.524, 126.738, 0, 220.78, 245.843, 205.931, 36.0247
24, 900.00000, 126.314, 125.618, 126.809, 0, 224.003, 247.281, 206.28, 36.6283
