hour, t(sec), |V|1 (volts), |V|2 (volts), |V|3 (volts), |V|4 (volts), |I|1 (amps), |I|2 (amps), |I|3 (amps), |I|4 (amps)
0, 900.00000, 130.288, 129.445, 131.027, 0, 269.463, 301.779, 225.651, 67.0799
0, 1800.00000, 130.463, 129.655, 131.191, 0, 264.141, 294.508, 221.006, 64.8379
0, 2700.00000, 123.213, 122.502, 123.989, 0, 246.1, 275.262, 203.1, 63.7051
1, 0.00000, 122.947, 122.226, 123.719, 0, 260.881, 290.969, 218.391, 64.0576
1, 900.00000, 122.993, 122.291, 123.762, 0, 260.278, 289.234, 217.983, 62.953
1, 1800.00000, 117.884, 117.289, 118.613, 0, 244.864, 270.646, 205.516, 57.7069
1, 2700.00000, 117.785, 117.168, 118.473, 0, 250.094, 277.362, 213.951, 56.0217
2, 0.00000, 117.709, 117.098, 118.4, 0, 253.919, 280.614, 217.998, 55.3785
2, 900.00000, 117.877, 117.277, 118.571, 0, 246.161, 272.136, 209.781, 55.1656
2, 1800.00000, 117.687, 117.077, 118.378, 0, 257.948, 284.217, 222.009, 55.0687
2, 2700.00000, 118.225, 117.64, 118.92, 0, 249.355, 274.004, 212.772, 54.2876
3, 0.00000, 125.44, 124.772, 126.104, 0, 229.701, 256.491, 193.927, 55.1084
3, 900.00000, 125.129, 124.457, 125.828, 0, 248.858, 275.276, 210.697, 57.0529
3, 1800.00000, 125.36, 124.711, 126.037, 0, 236.414, 261.629, 199.721, 54.6818
3, 2700.00000, 124.951, 124.263, 125.666, 0, 254.949, 281.912, 216.144, 58.1309
4, 0.00000, 125.08, 124.4, 125.788, 0, 248.559, 275.178, 210.031, 57.5652
4, 900.00000, 125.321, 124.647, 125.993, 0, 233.017, 259.513, 197.528, 54.656
4, 1800.00000, 124.959, 124.248, 125.66, 0, 250.73, 278.332, 213.897, 56.8957
4, 2700.00000, 132.107, 131.383, 132.727, 0, 236.071, 261.14, 200.605, 53.4243
5, 0.00000, 131.831, 131.087, 132.464, 0, 252.184, 277.792, 216.184, 54.4348
5, 900.00000, 131.957, 131.218, 132.572, 0, 244.985, 270.62, 210.223, 53.3016
5, 1800.00000, 136.434, 135.682, 137.026, 0, 251.904, 275.941, 215.511, 53.6125
5, 2700.00000, 136.394, 135.64, 136.979, 0, 257.475, 281.332, 221.457, 53.1487
6, 0.00000, 136.633, 135.896, 137.203, 0, 248.364, 271.156, 213.027, 51.6165
6, 900.00000, 136.415, 135.625, 137.024, 0, 256.744, 280.964, 219.353, 54.752
6, 1800.00000, 125.203, 124.475, 125.884, 0, 240.342, 267.08, 205.983, 53.9733
6, 2700.00000, 125.437, 124.724, 126.097, 0, 229.178, 254.98, 196.624, 51.5351
7, 0.00000, 125.101, 124.369, 125.814, 0, 245.616, 270.66, 210.248, 53.5744
7, 900.00000, 125.133, 124.369, 125.843, 0, 242.098, 268.365, 206.409, 54.8536
7, 1800.00000, 125.473, 124.759, 126.077, 0, 226.809, 250.323, 200.008, 44.5715
7, 2700.00000, 125.492, 124.793, 126.099, 0, 227.549, 249.874, 200.343, 43.9243
8, 0.00000, 125.268, 124.54, 125.889, 0, 238.248, 261.404, 210.032, 45.5895
8, 900.00000, 125.565, 124.891, 126.175, 0, 225.033, 244.961, 197.999, 41.7766
8, 1800.00000, 125.497, 124.802, 126.112, 0, 224.852, 246.204, 197.995, 42.8171
8, 2700.00000, 125.252, 124.511, 125.896, 0, 235.465, 258.705, 207.091, 45.8415
9, 0.00000, 124.937, 124.184, 125.531, 0, 250.781, 274.232, 226.589, 42.4628
9, 900.00000, 125.041, 124.307, 125.652, 0, 244.69, 267.339, 219.2, 42.8567
9, 1800.00000, 125.093, 124.39, 125.712, 0, 241.92, 262.105, 215.574, 41.5166
9, 2700.00000, 125.408, 124.735, 125.967, 0, 226.903, 245.944, 204.929, 36.5807
10, 0.00000, 125.289, 124.642, 125.88, 0, 237.023, 254.327, 212.165, 37.7375
10, 900.00000, 125.219, 124.538, 125.794, 0, 235.174, 254.51, 211.754, 38.1461
10, 1800.00000, 125.312, 124.657, 125.912, 0, 233.143, 250.919, 207.5, 38.8177
10, 2700.00000, 124.9, 124.237, 125.574, 0, 254.59, 272.17, 224.278, 43.0793
11, 0.00000, 125.04, 124.362, 125.722, 0, 246.058, 264.638, 214.582, 44.8927
11, 900.00000, 125.363, 124.703, 125.938, 0, 229.331, 247.655, 205.676, 37.4613
11, 1800.00000, 124.924, 124.253, 125.569, 0, 248.859, 267.876, 219.948, 42.8771
11, 2700.00000, 125.046, 124.382, 125.679, 0, 246.971, 266.091, 217.956, 43.0104
12, 0.00000, 125.406, 124.75, 125.991, 0, 225.388, 244.669, 200, 39.7476
12, 900.00000, 124.85, 124.152, 125.477, 0, 251.746, 272.332, 224.385, 42.7869
12, 1800.00000, 124.916, 124.198, 125.553, 0, 249.327, 271.461, 220.847, 45.054
12, 2700.00000, 124.939, 124.258, 125.592, 0, 245.96, 266.155, 216.663, 44.172
13, 0.00000, 124.996, 124.307, 125.633, 0, 247.181, 266.77, 219.117, 42.5839
13, 900.00000, 124.856, 124.149, 125.508, 0, 251.435, 272.026, 222.706, 44.0443
13, 1800.00000, 124.845, 124.13, 125.481, 0, 251.377, 272.54, 223.579, 43.6743
13, 2700.00000, 124.248, 123.464, 124.997, 0, 275.374, 299.394, 240.86, 52.2972
14, 0.00000, 124.445, 123.687, 125.189, 0, 266.564, 288.939, 232.325, 50.6558
14, 900.00000, 124.507, 123.778, 125.277, 0, 265.669, 286.413, 229.206, 51.3845
14, 1800.00000, 124.774, 124.063, 125.476, 0, 253.531, 273.882, 221.771, 46.6453
14, 2700.00000, 124.813, 124.113, 125.497, 0, 254.095, 274.249, 222.8, 46.0317
15, 0.00000, 124.715, 124, 125.376, 0, 257.93, 277.781, 229.321, 43.4049
15, 900.00000, 124.887, 124.203, 125.545, 0, 253.273, 271.682, 224.622, 42.2279
15, 1800.00000, 124.68, 123.964, 125.357, 0, 262.308, 282.882, 232.29, 45.279
15, 2700.00000, 124.912, 124.2, 125.579, 0, 246.127, 267.131, 216.259, 45.3878
16, 0.00000, 124.683, 123.956, 125.344, 0, 258.784, 280.425, 230.126, 44.916
16, 900.00000, 124.642, 123.935, 125.312, 0, 263.831, 284.677, 234.61, 44.7823
16, 1800.00000, 124.621, 123.916, 125.264, 0, 266.392, 287.211, 238.949, 43.1625
16, 2700.00000, 124.863, 124.168, 125.514, 0, 252.898, 273.056, 224.233, 43.6316
17, 0.00000, 124.678, 123.953, 125.33, 0, 260.835, 283.103, 232.389, 45.2315
17, 900.00000, 124.781, 124.091, 125.398, 0, 254.989, 276.493, 227.544, 43.5931
17, 1800.00000, 124.699, 123.99, 125.31, 0, 261.357, 284.861, 232.968, 46.0944
17, 2700.00000, 124.703, 124.015, 125.325, 0, 260.755, 283.558, 230.948, 46.7342
18, 0.00000, 124.724, 124.033, 125.394, 0, 261.885, 285.506, 227.067, 51.8892
18, 900.00000, 124.217, 123.489, 124.934, 0, 279.808, 306.035, 241.886, 56.9249
18, 1800.00000, 124.255, 123.502, 124.944, 0, 276.016, 304.604, 240.11, 57.0285
18, 2700.00000, 124.108, 123.363, 124.827, 0, 284.2, 311.873, 245.62, 58.7019
19, 0.00000, 123.847, 123.082, 124.611, 0, 296.621, 325.417, 255.154, 62.3114
19, 900.00000, 124.027, 123.282, 124.81, 0, 286.864, 314.995, 243.214, 63.6851
19, 1800.00000, 116.939, 116.294, 117.644, 0, 278.347, 305.713, 241.967, 56.5108
19, 2700.00000, 116.778, 116.138, 117.565, 0, 283.1, 310.054, 241.554, 60.9443
20, 0.00000, 116.758, 116.137, 117.538, 0, 290.722, 315.892, 248.652, 60.0258
20, 900.00000, 116.554, 115.929, 117.398, 0, 296.187, 321.765, 251.306, 63.0472
20, 1800.00000, 116.74, 116.092, 117.551, 0, 291.675, 318.952, 247.474, 63.673
20, 2700.00000, 113.71, 113.088, 114.471, 0, 282.817, 310.535, 243.541, 59.4652
21, 0.00000, 113.581, 112.937, 114.387, 0, 285.362, 313.326, 242.768, 62.7534
21, 900.00000, 113.708, 113.092, 114.479, 0, 286.185, 312.552, 246.139, 59.1189
21, 1800.00000, 123.838, 123.04, 124.692, 0, 298.398, 328.967, 250.515, 69.6322
21, 2700.00000, 123.921, 123.134, 124.719, 0, 291.422, 322.02, 248.629, 64.9994
22, 0.00000, 124.118, 123.352, 124.891, 0, 286.15, 315.298, 244.185, 63.0043
22, 900.00000, 123.993, 123.207, 124.799, 0, 292.481, 322.794, 247.366, 66.8287
22, 1800.00000, 123.871, 123.093, 124.705, 0, 301.07, 330.84, 253.634, 68.5476
22, 2700.00000, 127.443, 126.654, 128.235, 0, 284.958, 313.551, 238.818, 66.3118
23, 0.00000, 127.3, 126.497, 128.117, 0, 292.869, 321.743, 246.071, 67.2227
23, 900.00000, 127.622, 126.829, 128.365, 0, 277.016, 306.269, 235.37, 62.7178
23, 1800.00000, 129.937, 129.097, 130.717, 0, 287.701, 317.728, 241.538, 67.4866
23, 2700.00000, 130.087, 129.271, 130.791, 0, 281.552, 310.399, 241.62, 60.8394
24, 0.00000, 129.974, 129.157, 130.718, 0, 288.311, 316.944, 245.426, 63.3815
24, 900.00000, 130.289, 129.446, 131.028, 0, 269.456, 301.772, 225.646, 67.0786
