hour, t(sec), |V|1 (volts), |V|2 (volts), |V|3 (volts), |V|4 (volts), |I|1 (amps), |I|2 (amps), |I|3 (amps), |I|4 (amps)
0, 900.00000, 125.412, 124.555, 125.446, 0, 130.495, 156.038, 145.324, 22.791
0, 1800.00000, 125.603, 124.776, 125.657, 0, 126.377, 150.783, 139.846, 21.7278
0, 2700.00000, 125.414, 124.616, 125.474, 0, 122.525, 146.089, 135.32, 20.9543
1, 0.00000, 125.224, 124.354, 125.211, 0, 127.798, 155.561, 144.729, 24.7637
1, 900.00000, 125.254, 124.396, 125.251, 0, 128.433, 155.791, 144.656, 24.3585
1, 1800.00000, 125.335, 124.462, 125.283, 0, 125.537, 154.031, 144.184, 25.5547
1, 2700.00000, 125.281, 124.402, 125.219, 0, 126.271, 154.784, 145.253, 25.6335
2, 0.00000, 125.207, 124.302, 125.129, 0, 128.379, 158.311, 148.629, 26.957
2, 900.00000, 125.38, 124.507, 125.316, 0, 123.494, 151.759, 142.754, 25.483
2, 1800.00000, 125.321, 124.461, 125.278, 0, 123.615, 150.762, 141.813, 24.443
2, 2700.00000, 125.45, 124.598, 125.399, 0, 122.175, 149.493, 140.591, 24.5946
3, 0.00000, 125.734, 125.013, 125.832, 0, 114.157, 135.153, 123.89, 18.6699
3, 900.00000, 125.621, 124.936, 125.767, 0, 115.525, 134.094, 122.852, 16.6947
3, 1800.00000, 126, 125.279, 126.101, 0, 114.578, 135.534, 124.121, 18.6455
3, 2700.00000, 125.668, 124.889, 125.73, 0, 122.253, 145.518, 134.739, 20.6735
4, 0.00000, 125.764, 125.014, 125.862, 0, 119.919, 141.768, 130.277, 19.4404
4, 900.00000, 125.876, 125.179, 126.026, 0, 117.033, 136.085, 124.408, 17.1479
4, 1800.00000, 125.605, 124.8, 125.656, 0, 123.429, 147.231, 137.087, 21.2074
4, 2700.00000, 126.171, 125.39, 126.19, 0, 115.388, 138.787, 129.926, 20.9097
5, 0.00000, 126, 125.187, 126.005, 0, 119.594, 144.205, 135.321, 22.0588
5, 900.00000, 126.067, 125.256, 126.075, 0, 118.36, 143.055, 133.63, 22.0571
5, 1800.00000, 125.947, 125.064, 125.853, 0, 123.161, 152.121, 144.275, 26.3916
5, 2700.00000, 126.048, 125.216, 126.002, 0, 118.928, 144.781, 137.168, 23.4506
6, 0.00000, 126.379, 125.608, 126.364, 0, 108.829, 131.574, 124.766, 20.6139
6, 900.00000, 126.143, 125.343, 126.161, 0, 114.18, 136.917, 129.518, 20.5398
6, 1800.00000, 126.143, 125.326, 126.163, 0, 114.545, 137.502, 130.404, 20.8196
6, 2700.00000, 126.646, 126.068, 126.861, 0, 101.254, 118.215, 105.329, 14.6232
7, 0.00000, 126.393, 125.749, 126.554, 0, 107.48, 126.671, 115.685, 15.7867
7, 900.00000, 126.469, 125.806, 126.545, 0, 102.557, 121.867, 115.261, 15.8638
7, 1800.00000, 126.846, 126.317, 126.976, 0, 93.5059, 113.481, 102.227, 15.0363
7, 2700.00000, 126.912, 126.362, 127.003, 0, 91.3809, 112.567, 102.225, 15.8704
8, 0.00000, 126.753, 126.097, 126.717, 0, 94.8161, 120.974, 112.922, 20.4441
8, 900.00000, 126.975, 126.353, 126.968, 0, 90.3518, 115.451, 106.951, 19.378
8, 1800.00000, 126.927, 126.382, 127.05, 0, 89.0651, 109.629, 98.7411, 15.4339
8, 2700.00000, 126.843, 126.306, 126.938, 0, 89.5821, 114.64, 100.846, 18.2444
9, 0.00000, 126.554, 125.784, 126.326, 0, 98.4303, 136.124, 127.73, 30.0217
9, 900.00000, 126.625, 125.929, 126.515, 0, 96.2041, 130.258, 118.962, 25.9481
9, 1800.00000, 127.176, 126.701, 127.103, 0, 86.6838, 121.747, 106.363, 24.0184
9, 2700.00000, 127.376, 126.919, 127.276, 0, 83.1257, 118.084, 103.839, 23.8919
10, 0.00000, 127.386, 126.921, 127.271, 0, 82.4331, 118.293, 103.968, 24.6656
10, 900.00000, 127.208, 126.678, 127.007, 0, 87.4911, 126.374, 113.87, 27.4633
10, 1800.00000, 127.292, 126.705, 127.042, 0, 86.6179, 129.067, 115.653, 30.6456
10, 2700.00000, 127.705, 127.367, 127.572, 0, 86.1739, 133.322, 108.576, 31.5995
11, 0.00000, 127.808, 127.494, 127.705, 0, 82.4766, 128.127, 103.022, 30.6819
11, 900.00000, 128.049, 127.746, 127.907, 0, 75.6266, 121.561, 97.7393, 30.6508
11, 1800.00000, 127.945, 127.779, 127.879, 0, 80.1716, 123.618, 98.1388, 28.6897
11, 2700.00000, 128.156, 128.039, 128.123, 0, 73.5711, 114.706, 89.1071, 27.5305
12, 0.00000, 128.26, 128.092, 128.185, 0, 73.3197, 117.906, 91.0153, 30.0634
12, 900.00000, 127.792, 127.552, 127.672, 0, 86.665, 133.849, 107.564, 31.2502
12, 1800.00000, 128.006, 127.861, 128.019, 0, 76.5142, 118.172, 90.0432, 28.9572
12, 2700.00000, 127.986, 127.909, 128.024, 0, 80.5454, 122.769, 92.8781, 29.7903
13, 0.00000, 128.164, 128.054, 128.159, 0, 74.1882, 117.426, 88.9828, 29.6751
13, 900.00000, 127.994, 127.856, 127.971, 0, 79.1183, 123.553, 95.082, 30.1851
13, 1800.00000, 127.884, 127.647, 127.727, 0, 81.8517, 131.839, 104.907, 32.9452
13, 2700.00000, 127.29, 126.91, 127.108, 0, 98.7985, 154.594, 124.681, 37.5436
14, 0.00000, 127.46, 127.081, 127.27, 0, 94.0947, 150.241, 120.414, 37.8504
14, 900.00000, 127.589, 127.29, 127.486, 0, 89.5471, 141.743, 111.05, 35.4727
14, 1800.00000, 127.743, 127.441, 127.602, 0, 87.4133, 140.622, 110.554, 35.9709
14, 2700.00000, 127.932, 127.633, 127.729, 0, 83.3584, 137.794, 109.349, 36.3389
15, 0.00000, 127.875, 127.571, 127.629, 0, 83.7792, 137.451, 112.569, 35.0589
15, 900.00000, 128.073, 127.802, 127.88, 0, 78.8288, 131.355, 104.589, 34.6638
15, 1800.00000, 127.967, 127.717, 127.847, 0, 81.6344, 130.918, 103.539, 32.7685
15, 2700.00000, 127.986, 127.67, 127.785, 0, 82.6809, 136.135, 108.774, 35.6678
16, 0.00000, 127.84, 127.537, 127.674, 0, 86.7023, 139.066, 111.201, 34.9314
16, 900.00000, 127.839, 127.588, 127.745, 0, 87.7662, 137.812, 108.291, 33.8481
16, 1800.00000, 127.883, 127.658, 127.806, 0, 85.7533, 134.552, 104.996, 33.1139
16, 2700.00000, 127.662, 127.275, 127.512, 0, 87.6991, 133.016, 111.208, 30.3904
17, 0.00000, 127.5, 127.084, 127.36, 0, 92.0462, 138.654, 115.068, 31.6367
17, 900.00000, 127.538, 127.071, 127.264, 0, 91.6119, 142.713, 120.938, 35.0176
17, 1800.00000, 126.769, 126.043, 126.384, 0, 104.635, 150.092, 140.395, 35.4573
17, 2700.00000, 126.758, 126.065, 126.367, 0, 105.015, 149.434, 140.789, 34.7337
18, 0.00000, 126.863, 126.195, 126.498, 0, 100.947, 144.352, 134.763, 33.4777
18, 900.00000, 126.255, 125.505, 125.819, 0, 118.916, 166.457, 157.175, 37.5442
18, 1800.00000, 126.223, 125.433, 125.752, 0, 120.374, 170.269, 160.265, 39.6211
18, 2700.00000, 125.295, 124.196, 124.684, 0, 134.181, 180.023, 183.959, 46.5841
19, 0.00000, 125.069, 124.041, 124.603, 0, 140.432, 181.927, 182.629, 40.5469
19, 900.00000, 125.153, 124.164, 124.692, 0, 139.343, 179.312, 180.888, 39.4511
19, 1800.00000, 124.811, 123.716, 124.338, 0, 146.263, 184.827, 189.366, 41.3463
19, 2700.00000, 124.463, 123.254, 123.97, 0, 159.05, 203.593, 204.482, 45.434
20, 0.00000, 124.606, 123.294, 123.906, 0, 155.563, 205.794, 211.605, 53.7345
20, 900.00000, 124.305, 123.074, 123.881, 0, 163.444, 208.93, 206.084, 44.6636
20, 1800.00000, 124.639, 123.419, 124.146, 0, 153.261, 198.21, 198.244, 45.4182
20, 2700.00000, 124.489, 123.303, 124.08, 0, 158.365, 201.38, 199.136, 42.4419
21, 0.00000, 124.328, 122.978, 123.671, 0, 160.606, 211.3, 215.539, 53.3727
21, 900.00000, 124.674, 123.465, 124.233, 0, 150.757, 194.405, 193.37, 43.6177
21, 1800.00000, 124.804, 123.648, 124.418, 0, 146.881, 187.439, 186.175, 40.4129
21, 2700.00000, 124.782, 123.733, 124.527, 0, 148.141, 183.324, 180.344, 34.2777
22, 0.00000, 125.045, 123.988, 124.711, 0, 141.058, 176.977, 176.816, 36.2472
22, 900.00000, 124.923, 123.789, 124.501, 0, 145.054, 184.854, 185.461, 40.5279
22, 1800.00000, 124.905, 123.756, 124.466, 0, 144.829, 185.603, 186.207, 41.5001
22, 2700.00000, 125.081, 123.871, 124.599, 0, 143.636, 188.004, 187.427, 44.5273
23, 0.00000, 124.942, 123.808, 124.619, 0, 148.408, 188.024, 184.213, 38.3733
23, 900.00000, 125.163, 124.001, 124.782, 0, 143.843, 185.769, 182.161, 40.7357
23, 1800.00000, 125.015, 123.844, 124.674, 0, 144.659, 186.399, 181.063, 39.8836
23, 2700.00000, 125.156, 124.043, 124.837, 0, 141.415, 180.55, 176.343, 37.7039
24, 0.00000, 125.103, 124.031, 124.853, 0, 142.334, 179.007, 173.752, 34.8644
24, 900.00000, 125.412, 124.555, 125.446, 0, 130.497, 156.041, 145.327, 22.7922
