hour, t(sec), |V|1 (volts), |V|2 (volts), |V|3 (volts), |V|4 (volts), |I|1 (amps), |I|2 (amps), |I|3 (amps), |I|4 (amps)
0, 900.00000, 130.419, 130.135, 130.965, 0, 167.845, 157.406, 150.28, 15.2778
0, 1800.00000, 130.637, 130.353, 131.183, 0, 161.909, 152.072, 144.168, 15.4089
0, 2700.00000, 123.355, 123.156, 123.936, 0, 152.362, 142.967, 135.179, 14.9927
1, 0.00000, 123.144, 122.961, 123.738, 0, 158.949, 148.751, 141.074, 15.6099
1, 900.00000, 123.132, 122.951, 123.73, 0, 161.778, 151.827, 143.678, 15.7999
1, 1800.00000, 118.022, 117.907, 118.582, 0, 151.824, 141.942, 135.602, 14.4167
1, 2700.00000, 117.962, 117.82, 118.519, 0, 153.099, 144.407, 136.816, 14.4159
2, 0.00000, 117.9, 117.764, 118.466, 0, 154.783, 145.803, 138.308, 14.5934
2, 900.00000, 118.086, 117.952, 118.646, 0, 148.718, 139.694, 132.436, 14.4131
2, 1800.00000, 117.942, 117.797, 118.512, 0, 153.889, 145.123, 137.092, 14.8696
2, 2700.00000, 118.413, 118.277, 118.976, 0, 151.992, 143.042, 135.461, 14.6298
3, 0.00000, 125.629, 125.41, 126.175, 0, 138.873, 131.219, 122.15, 14.625
3, 900.00000, 125.311, 125.094, 125.881, 0, 151.851, 143.676, 134.118, 15.5113
3, 1800.00000, 125.546, 125.32, 126.106, 0, 143.456, 136.233, 126.029, 15.3261
3, 2700.00000, 125.138, 124.915, 125.725, 0, 155.518, 147.189, 137.326, 15.9241
4, 0.00000, 125.234, 125.014, 125.809, 0, 153.201, 144.882, 135.511, 15.4663
4, 900.00000, 125.408, 125.18, 125.97, 0, 146.776, 139.116, 129.863, 14.8119
4, 1800.00000, 125.14, 124.891, 125.732, 0, 153.101, 145.376, 135.155, 15.7646
4, 2700.00000, 132.254, 131.958, 132.756, 0, 145.109, 137.063, 128.762, 14.207
5, 0.00000, 131.98, 131.675, 132.504, 0, 155.525, 147.208, 138.273, 15.0064
5, 900.00000, 132.144, 131.825, 132.662, 0, 148.587, 141.397, 131.458, 15.0032
5, 1800.00000, 136.544, 136.232, 137.012, 0, 157.413, 147.712, 140.874, 14.5443
5, 2700.00000, 136.504, 136.185, 136.966, 0, 161.059, 151.513, 144.679, 14.4024
6, 0.00000, 136.81, 136.487, 137.251, 0, 151.237, 142.21, 135.646, 13.6971
6, 900.00000, 136.567, 136.217, 137.033, 0, 158.114, 148.562, 142.018, 14.169
6, 1800.00000, 125.287, 125.035, 125.845, 0, 151.744, 142.628, 136.234, 13.5405
6, 2700.00000, 125.544, 125.269, 126.099, 0, 143.151, 135.487, 127.856, 13.3529
7, 0.00000, 125.105, 124.822, 125.688, 0, 159.688, 150.959, 143.912, 13.7691
7, 900.00000, 125.176, 124.884, 125.729, 0, 155.199, 146.006, 140.711, 12.6866
7, 1800.00000, 125.466, 125.152, 126.003, 0, 147.997, 140.973, 134.272, 11.9875
7, 2700.00000, 125.488, 125.178, 126.017, 0, 148.298, 141.086, 134.961, 11.638
8, 0.00000, 125.284, 124.968, 125.814, 0, 154.156, 146.295, 140.912, 11.561
8, 900.00000, 125.523, 125.224, 126.049, 0, 148.832, 140.782, 135.955, 11.27
8, 1800.00000, 125.528, 125.21, 126.074, 0, 144.572, 137.438, 130.979, 11.8705
8, 2700.00000, 125.317, 124.987, 125.872, 0, 149.633, 141.819, 136.132, 11.7888
9, 0.00000, 125.014, 124.691, 125.559, 0, 158.984, 150.269, 145.914, 11.4856
9, 900.00000, 125.17, 124.836, 125.733, 0, 152.043, 144.524, 138.09, 12.1839
9, 1800.00000, 125.092, 124.775, 125.639, 0, 157.521, 149.169, 144.361, 11.5297
9, 2700.00000, 125.364, 125.053, 125.89, 0, 150.153, 142.308, 137.709, 10.8981
10, 0.00000, 125.233, 124.951, 125.76, 0, 157.393, 148.304, 144.812, 11.1671
10, 900.00000, 125.14, 124.84, 125.661, 0, 157.499, 148.849, 145.279, 10.8096
10, 1800.00000, 125.227, 124.95, 125.739, 0, 156.512, 146.953, 144.772, 10.6506
10, 2700.00000, 124.801, 124.525, 125.37, 0, 171.304, 161.12, 157.425, 12.3554
11, 0.00000, 124.982, 124.7, 125.537, 0, 163.448, 153.475, 150.075, 11.9307
11, 900.00000, 125.312, 125.025, 125.819, 0, 152.129, 143.253, 140.579, 10.3499
11, 1800.00000, 124.873, 124.593, 125.429, 0, 164.869, 155.457, 151.014, 12.2116
11, 2700.00000, 124.971, 124.714, 125.49, 0, 165.014, 154.674, 152.489, 11.4059
12, 0.00000, 125.365, 125.092, 125.865, 0, 149.016, 140.17, 137.243, 10.5129
12, 900.00000, 124.649, 124.368, 125.189, 0, 175.111, 165.328, 162.2, 11.5377
12, 1800.00000, 124.974, 124.678, 125.514, 0, 159.101, 149.941, 145.954, 11.6114
12, 2700.00000, 124.744, 124.48, 125.291, 0, 171.033, 160.885, 157.929, 11.7717
13, 0.00000, 124.988, 124.692, 125.532, 0, 161.348, 152.232, 148.318, 11.5154
13, 900.00000, 124.786, 124.49, 125.34, 0, 167.653, 158.147, 154.374, 11.7693
13, 1800.00000, 124.78, 124.5, 125.32, 0, 167.275, 156.877, 154.564, 11.5404
13, 2700.00000, 124.135, 123.842, 124.743, 0, 185.57, 173.979, 171.01, 13.1409
14, 0.00000, 124.492, 124.187, 125.103, 0, 170.952, 160.338, 156.022, 13.233
14, 900.00000, 124.584, 124.296, 125.202, 0, 168.697, 157.707, 153.385, 13.5973
14, 1800.00000, 124.707, 124.434, 125.282, 0, 168.789, 157.716, 155.2, 12.3444
14, 2700.00000, 124.774, 124.529, 125.32, 0, 167.643, 155.394, 154.934, 12.1741
15, 0.00000, 124.674, 124.399, 125.236, 0, 170.215, 158.673, 157.09, 12.1575
15, 900.00000, 124.883, 124.619, 125.434, 0, 165.147, 153.699, 152.414, 11.8881
15, 1800.00000, 124.686, 124.421, 125.252, 0, 170.469, 158.773, 157.065, 12.3969
15, 2700.00000, 124.909, 124.655, 125.45, 0, 160.413, 148.534, 148.034, 11.841
16, 0.00000, 124.684, 124.41, 125.253, 0, 168.409, 157.304, 154.94, 12.2671
16, 900.00000, 124.556, 124.302, 125.133, 0, 176.59, 164.956, 162.745, 12.6778
16, 1800.00000, 124.555, 124.282, 125.125, 0, 177.124, 166.714, 163.283, 12.3683
16, 2700.00000, 124.759, 124.494, 125.304, 0, 170.465, 159.657, 157.716, 11.6892
17, 0.00000, 124.614, 124.34, 125.175, 0, 173.413, 162.836, 159.962, 12.1149
17, 900.00000, 124.726, 124.481, 125.244, 0, 169.06, 158.336, 156.702, 11.4069
17, 1800.00000, 124.627, 124.382, 125.138, 0, 174.18, 163.669, 161.311, 11.6807
17, 2700.00000, 124.635, 124.409, 125.15, 0, 173.541, 162.707, 160.101, 12.1758
18, 0.00000, 124.738, 124.545, 125.232, 0, 169.741, 157.451, 156.846, 12.3217
18, 900.00000, 124.069, 123.887, 124.597, 0, 190.434, 177.248, 176.318, 13.3751
18, 1800.00000, 124.204, 124.019, 124.728, 0, 182.604, 169.698, 168.378, 13.348
18, 2700.00000, 123.903, 123.748, 124.419, 0, 196.459, 181.815, 182.63, 13.8407
19, 0.00000, 123.544, 123.367, 124.098, 0, 209.981, 196.265, 194.655, 14.2944
19, 900.00000, 123.72, 123.562, 124.273, 0, 203.882, 189.709, 188.252, 14.6672
19, 1800.00000, 116.628, 116.544, 117.155, 0, 198.636, 185.408, 184.83, 13.5732
19, 2700.00000, 116.414, 116.348, 116.986, 0, 204.703, 190.406, 189.578, 14.8075
20, 0.00000, 116.506, 116.452, 117.059, 0, 203.421, 188.43, 188.685, 14.8715
20, 900.00000, 116.388, 116.297, 117.031, 0, 202.217, 189.325, 184.15, 16.426
20, 1800.00000, 116.626, 116.552, 117.205, 0, 196.399, 182.386, 180.509, 15.1591
20, 2700.00000, 113.522, 113.453, 114.11, 0, 194.744, 182.13, 178.743, 14.8309
21, 0.00000, 113.57, 113.503, 114.169, 0, 186.569, 172.767, 170.291, 15.3564
21, 900.00000, 113.679, 113.599, 114.264, 0, 188.106, 175.581, 172.353, 14.6236
21, 1800.00000, 123.806, 123.608, 124.421, 0, 196.149, 182.894, 178.209, 16.0042
21, 2700.00000, 123.788, 123.571, 124.416, 0, 197.19, 185.605, 178.785, 16.1377
22, 0.00000, 124.031, 123.819, 124.625, 0, 191.216, 179.513, 173.772, 15.3613
22, 900.00000, 123.909, 123.711, 124.498, 0, 195.136, 182.373, 177.837, 15.4197
22, 1800.00000, 123.861, 123.681, 124.459, 0, 196.632, 183.036, 178.825, 15.9777
22, 2700.00000, 127.465, 127.244, 128.025, 0, 184.235, 171.102, 167.24, 15.2525
23, 0.00000, 127.173, 126.935, 127.77, 0, 197.758, 185.032, 179.632, 16.0103
23, 900.00000, 127.612, 127.368, 128.179, 0, 180.844, 169.193, 163.606, 15.1573
23, 1800.00000, 130.058, 129.773, 130.631, 0, 180.362, 168.673, 161.963, 16.0611
23, 2700.00000, 130.114, 129.826, 130.67, 0, 181.596, 170.686, 163.973, 15.3557
24, 0.00000, 130.005, 129.714, 130.582, 0, 185.805, 174.873, 167.332, 16.0697
24, 900.00000, 130.42, 130.135, 130.966, 0, 167.841, 157.402, 150.277, 15.2771
