hour, t(sec), |V|1 (volts), |V|2 (volts), |V|3 (volts), |V|4 (volts), |I|1 (amps), |I|2 (amps), |I|3 (amps), |I|4 (amps)
0, 900.00000, 125.507, 125.254, 126.196, 0, 92.0737, 92.1048, 78.0993, 14.2096
0, 1800.00000, 125.827, 125.579, 126.477, 0, 85.0612, 85.089, 72.1434, 13.129
0, 2700.00000, 126.03, 125.789, 126.681, 0, 83.5461, 83.5722, 70.297, 13.4494
1, 0.00000, 125.859, 125.621, 126.52, 0, 86.5191, 86.5461, 73.1021, 13.6267
1, 900.00000, 125.94, 125.705, 126.569, 0, 85.0489, 85.0749, 72.547, 12.7056
1, 1800.00000, 125.931, 125.699, 126.567, 0, 84.5633, 84.5888, 71.6683, 13.0936
1, 2700.00000, 125.818, 125.584, 126.469, 0, 87.042, 87.0688, 73.6405, 13.6054
2, 0.00000, 125.833, 125.6, 126.474, 0, 85.7292, 85.7555, 72.8611, 13.0734
2, 900.00000, 125.961, 125.726, 126.619, 0, 83.8237, 83.8494, 70.2162, 13.8041
2, 1800.00000, 125.97, 125.73, 126.614, 0, 82.381, 82.4067, 69.2357, 13.3403
2, 2700.00000, 126.08, 125.847, 126.694, 0, 80.1457, 80.1699, 67.8468, 12.4847
3, 0.00000, 126.307, 126.084, 126.929, 0, 76.4342, 76.456, 63.6773, 12.9284
3, 900.00000, 126.354, 126.127, 126.942, 0, 73.1963, 73.2174, 61.6442, 11.7189
3, 1800.00000, 126.428, 126.204, 126.988, 0, 72.8182, 72.8388, 61.9621, 11.0183
3, 2700.00000, 126.119, 125.887, 126.731, 0, 77.6982, 77.7214, 65.651, 12.2305
4, 0.00000, 126.227, 125.998, 126.81, 0, 75.6658, 75.6882, 64.4772, 11.3657
4, 900.00000, 126.253, 126.026, 126.873, 0, 76.1654, 76.1875, 63.7845, 12.5589
4, 1800.00000, 125.97, 125.727, 126.633, 0, 81.2, 81.2256, 67.8108, 13.5886
4, 2700.00000, 126.257, 126.025, 126.855, 0, 74.981, 75.0033, 63.2463, 11.9093
5, 0.00000, 126.121, 125.88, 126.712, 0, 77.0593, 77.0832, 65.6764, 11.5669
5, 900.00000, 126.178, 125.941, 126.758, 0, 76.3274, 76.3507, 65.1999, 11.3071
5, 1800.00000, 125.939, 125.708, 126.551, 0, 79.2042, 79.2281, 67.2817, 12.1118
5, 2700.00000, 126.062, 125.826, 126.632, 0, 76.213, 76.2361, 65.4675, 10.926
6, 0.00000, 126.414, 126.179, 126.944, 0, 68.9176, 68.9381, 59.1166, 9.9577
6, 900.00000, 126.166, 125.913, 126.743, 0, 73.3032, 73.3271, 62.5792, 10.9047
6, 1800.00000, 125.959, 125.694, 126.622, 0, 79.4934, 79.5209, 66.3836, 13.3145
6, 2700.00000, 126.214, 125.949, 126.839, 0, 72.2451, 72.2697, 60.2181, 12.2109
7, 0.00000, 125.985, 125.702, 126.606, 0, 75.9221, 75.95, 64.4858, 11.642
7, 900.00000, 125.913, 125.616, 126.625, 0, 77.4871, 77.5171, 63.0386, 14.6581
7, 1800.00000, 126.264, 125.977, 126.902, 0, 71.6224, 71.6488, 59.3839, 12.4277
7, 2700.00000, 126.386, 126.099, 126.973, 0, 68.5619, 68.5869, 57.8801, 10.8622
8, 0.00000, 126.129, 125.829, 126.733, 0, 73.9934, 74.022, 62.8657, 11.3263
8, 900.00000, 126.473, 126.181, 127.029, 0, 66.8643, 66.8891, 57.2285, 9.81298
8, 1800.00000, 126.416, 126.122, 127.001, 0, 67.0832, 67.1082, 56.7069, 10.5574
8, 2700.00000, 126.196, 125.888, 126.797, 0, 70.7048, 70.7328, 60.1676, 10.7371
9, 0.00000, 125.772, 125.458, 126.433, 0, 79.9393, 79.9724, 67.611, 12.5584
9, 900.00000, 125.956, 125.648, 126.578, 0, 75.3602, 75.3905, 64.2391, 11.3356
9, 1800.00000, 126.008, 125.702, 126.63, 0, 73.4826, 73.5119, 62.3074, 11.3832
9, 2700.00000, 126.173, 125.873, 126.827, 0, 71.6329, 71.6606, 59.1207, 12.708
10, 0.00000, 126.287, 125.993, 126.848, 0, 68.1912, 68.2168, 58.5816, 9.79457
10, 900.00000, 125.956, 125.657, 126.612, 0, 75.8999, 75.9296, 63.4376, 12.6722
10, 1800.00000, 126.099, 125.804, 126.645, 0, 73.1994, 73.2273, 64.1835, 9.21692
10, 2700.00000, 126.005, 125.704, 126.547, 0, 74.4229, 74.452, 65.9144, 8.72151
11, 0.00000, 126.03, 125.726, 126.582, 0, 74.543, 74.5724, 65.5832, 9.17088
11, 900.00000, 126.081, 125.787, 126.63, 0, 75.7507, 75.7796, 66.596, 9.36178
11, 1800.00000, 125.954, 125.658, 126.625, 0, 77.1603, 77.1901, 64.2366, 13.137
11, 2700.00000, 126.2, 125.911, 126.791, 0, 71.9241, 71.9508, 61.3008, 10.816
12, 0.00000, 126.188, 125.905, 126.779, 0, 74.6, 74.6271, 63.8417, 10.9548
12, 900.00000, 125.756, 125.461, 126.381, 0, 82.0352, 82.0671, 70.8355, 11.4318
12, 1800.00000, 125.95, 125.651, 126.576, 0, 77.1262, 77.1563, 65.7481, 11.5935
12, 2700.00000, 125.992, 125.703, 126.612, 0, 77.2556, 77.2847, 66.2474, 11.2258
13, 0.00000, 126.18, 125.878, 126.772, 0, 73.1897, 73.2181, 62.902, 10.4931
13, 900.00000, 125.959, 125.653, 126.591, 0, 77.8272, 77.8582, 66.479, 11.5715
13, 1800.00000, 125.791, 125.484, 126.461, 0, 82.0146, 82.0478, 69.4239, 12.8258
13, 2700.00000, 125.221, 124.895, 125.907, 0, 92.2067, 92.2476, 80.1059, 12.3931
14, 0.00000, 125.43, 125.105, 126.115, 0, 88.079, 88.1175, 75.816, 12.5376
14, 900.00000, 125.703, 125.384, 126.35, 0, 81.1447, 81.179, 69.9713, 11.4227
14, 1800.00000, 125.772, 125.463, 126.381, 0, 81.7665, 81.7999, 71.5909, 10.4203
14, 2700.00000, 125.861, 125.557, 126.475, 0, 80.0824, 80.1143, 69.4691, 10.8464
15, 0.00000, 125.723, 125.404, 126.456, 0, 83.0066, 83.0417, 68.7557, 14.4977
15, 900.00000, 126.052, 125.742, 126.669, 0, 75.8812, 75.9117, 65.1693, 10.9335
15, 1800.00000, 125.846, 125.534, 126.496, 0, 78.9298, 78.9622, 67.3261, 11.8373
15, 2700.00000, 125.716, 125.41, 126.389, 0, 83.6214, 83.6553, 71.2043, 12.6622
16, 0.00000, 125.634, 125.325, 126.323, 0, 84.5186, 84.5534, 71.8104, 12.9612
16, 900.00000, 125.777, 125.477, 126.41, 0, 80.7756, 80.8077, 69.8812, 11.1351
16, 1800.00000, 125.834, 125.537, 126.419, 0, 79.3033, 79.3344, 69.756, 9.77966
16, 2700.00000, 125.922, 125.624, 126.525, 0, 78.1023, 78.1328, 67.8061, 10.5219
17, 0.00000, 125.678, 125.377, 126.295, 0, 83.5242, 83.5576, 72.903, 10.8659
17, 900.00000, 125.639, 125.36, 126.224, 0, 85.1903, 85.2219, 75.1575, 10.2691
17, 1800.00000, 125.628, 125.353, 126.288, 0, 87.8855, 87.9176, 75.0714, 13.0475
17, 2700.00000, 125.613, 125.345, 126.334, 0, 88.3587, 88.3905, 73.4172, 15.1703
18, 0.00000, 125.73, 125.469, 126.402, 0, 85.6818, 85.7114, 72.0593, 13.8387
18, 900.00000, 125, 124.743, 125.777, 0, 101.113, 101.149, 84.7762, 16.6067
18, 1800.00000, 124.747, 124.489, 125.601, 0, 108.676, 108.716, 89.8147, 19.1502
18, 2700.00000, 124.721, 124.464, 125.56, 0, 111.008, 111.048, 92.6205, 18.6826
19, 0.00000, 124.639, 124.381, 125.432, 0, 111.257, 111.298, 94.559, 17.0006
19, 900.00000, 124.682, 124.428, 125.56, 0, 111.418, 111.458, 91.7995, 19.9134
19, 1800.00000, 124.449, 124.198, 125.354, 0, 116.736, 116.778, 96.4244, 20.6248
19, 2700.00000, 124.201, 123.949, 125.072, 0, 121.703, 121.747, 103.123, 18.926
20, 0.00000, 124.412, 124.157, 125.264, 0, 116.903, 116.945, 98.4554, 18.7676
20, 900.00000, 124.257, 123.998, 125.074, 0, 118.815, 118.86, 102.178, 16.985
20, 1800.00000, 124.519, 124.263, 125.325, 0, 113.86, 113.901, 96.9593, 17.2155
20, 2700.00000, 124.255, 124, 125.105, 0, 118.132, 118.175, 100.141, 18.3264
21, 0.00000, 123.846, 123.567, 124.903, 0, 127.354, 127.407, 103.008, 24.7217
21, 900.00000, 124.564, 124.299, 125.34, 0, 109.682, 109.723, 93.9329, 16.0599
21, 1800.00000, 124.719, 124.446, 125.506, 0, 107.81, 107.851, 91.4034, 16.7057
21, 2700.00000, 124.75, 124.486, 125.581, 0, 106.889, 106.929, 89.2024, 17.9832
22, 0.00000, 124.975, 124.71, 125.786, 0, 103.046, 103.083, 85.4642, 17.855
22, 900.00000, 124.817, 124.55, 125.631, 0, 106.507, 106.547, 88.8293, 17.9612
22, 1800.00000, 124.907, 124.642, 125.699, 0, 103.306, 103.344, 86.3278, 17.2514
22, 2700.00000, 125.083, 124.821, 125.824, 0, 101.307, 101.343, 85.9314, 15.6431
23, 0.00000, 125.079, 124.811, 125.784, 0, 100.53, 100.568, 86.6562, 14.1496
23, 900.00000, 125.172, 124.911, 125.904, 0, 100.682, 100.718, 85.6153, 15.3322
23, 1800.00000, 125.136, 124.867, 125.843, 0, 99.7441, 99.7808, 85.5702, 14.4413
23, 2700.00000, 125.289, 125.026, 125.997, 0, 96.9248, 96.9594, 82.5782, 14.6021
24, 0.00000, 125.353, 125.089, 126.042, 0, 94.3608, 94.3944, 80.7031, 13.9087
24, 900.00000, 125.507, 125.254, 126.196, 0, 92.0752, 92.1065, 78.1002, 14.2102
