hour, t(sec), |V|1 (volts), |V|2 (volts), |V|3 (volts), |V|4 (volts), |I|1 (amps), |I|2 (amps), |I|3 (amps), |I|4 (amps)
0, 900.00000, 126.226, 125.265, 126.314, 0, 238.938, 286.41, 253.066, 43.4012
0, 1800.00000, 126.432, 125.498, 126.515, 0, 230.617, 276.765, 245.032, 42.0031
0, 2700.00000, 131.48, 130.541, 131.544, 0, 217.567, 262.522, 230.767, 41.0552
1, 0.00000, 131.301, 130.367, 131.376, 0, 225.815, 270.482, 238.147, 41.021
1, 900.00000, 131.383, 130.463, 131.466, 0, 221.769, 265.792, 233.285, 40.5777
1, 1800.00000, 125.546, 124.682, 125.663, 0, 217.254, 260.456, 228.113, 39.9082
1, 2700.00000, 125.432, 124.539, 125.516, 0, 223.742, 268.862, 237.147, 41.1507
2, 0.00000, 125.338, 124.442, 125.43, 0, 228.93, 274.301, 242.196, 41.454
2, 900.00000, 125.532, 124.644, 125.621, 0, 219.126, 264.033, 232.363, 40.9656
2, 1800.00000, 125.408, 124.499, 125.483, 0, 225.224, 271.319, 239.83, 41.8419
2, 2700.00000, 125.61, 124.744, 125.717, 0, 215.545, 258.835, 227.161, 39.7816
3, 0.00000, 125.874, 125.03, 125.97, 0, 204.05, 246.922, 216.185, 39.164
3, 900.00000, 125.718, 124.862, 125.81, 0, 210.552, 253.834, 223.428, 39.4253
3, 1800.00000, 125.887, 125.044, 125.992, 0, 202.779, 245.63, 214.288, 39.2974
3, 2700.00000, 125.524, 124.634, 125.617, 0, 218.391, 263.74, 231.84, 41.3383
4, 0.00000, 125.62, 124.708, 125.676, 0, 214.556, 262.06, 230.977, 42.7576
4, 900.00000, 125.75, 124.846, 125.805, 0, 208.082, 255.345, 224.729, 42.4565
4, 1800.00000, 125.446, 124.469, 125.484, 0, 221.624, 273.033, 240.559, 46.0895
4, 2700.00000, 125.777, 124.866, 125.817, 0, 207.945, 255.204, 225.56, 42.3046
5, 0.00000, 125.616, 124.694, 125.676, 0, 214.06, 261.25, 230.526, 42.4796
5, 900.00000, 125.666, 124.749, 125.724, 0, 213.26, 260.466, 229.604, 42.5009
5, 1800.00000, 125.594, 124.68, 125.644, 0, 215.546, 262.861, 232.655, 42.4751
5, 2700.00000, 125.635, 124.731, 125.685, 0, 214.105, 260.207, 230.996, 41.3711
6, 0.00000, 125.896, 125.013, 125.919, 0, 203.932, 248.656, 222.366, 39.8297
6, 900.00000, 125.653, 124.718, 125.684, 0, 213.416, 260.181, 232.955, 41.6932
6, 1800.00000, 125.702, 124.781, 125.773, 0, 209.519, 253.807, 226.629, 39.7136
6, 2700.00000, 125.915, 124.99, 125.958, 0, 199.561, 244.496, 219.234, 39.9811
7, 0.00000, 125.682, 124.786, 125.823, 0, 207.923, 248.116, 220.645, 36.6679
7, 900.00000, 125.689, 124.795, 125.789, 0, 206.435, 245.021, 222.193, 34.6725
7, 1800.00000, 125.985, 125.151, 126.117, 0, 194.045, 228.901, 207.033, 31.4935
7, 2700.00000, 126.042, 125.239, 126.187, 0, 191.351, 223.683, 203.115, 29.3061
8, 0.00000, 125.879, 125.027, 126.001, 0, 197.335, 232.294, 211.118, 31.5196
8, 900.00000, 126.202, 125.417, 126.361, 0, 181.178, 211.558, 192.107, 27.5722
8, 1800.00000, 126.076, 125.236, 126.203, 0, 186.146, 221.026, 200.481, 31.3165
8, 2700.00000, 125.112, 124.214, 125.205, 0, 197.494, 235.844, 215.849, 34.2475
9, 0.00000, 124.862, 123.982, 124.976, 0, 207.816, 243.755, 224.188, 32.26
9, 900.00000, 124.94, 124.007, 125.018, 0, 203.768, 245.105, 223.429, 36.8824
9, 1800.00000, 125.741, 124.851, 125.864, 0, 198.155, 235.612, 213.578, 33.6636
9, 2700.00000, 126.044, 125.212, 126.164, 0, 183.502, 217.179, 198.583, 30.1463
10, 0.00000, 126.04, 125.258, 126.217, 0, 183.759, 213.788, 193.807, 27.4221
10, 900.00000, 125.863, 125.04, 125.998, 0, 191.513, 224.169, 205.128, 29.3905
10, 1800.00000, 125.989, 125.167, 126.11, 0, 186.322, 219.454, 201.14, 29.6798
10, 2700.00000, 127.604, 126.759, 127.777, 0, 196.663, 229.378, 207.612, 29.9099
11, 0.00000, 125.795, 124.934, 125.935, 0, 193.214, 228.628, 207.433, 31.8896
11, 900.00000, 125.989, 125.151, 126.116, 0, 186.776, 221.422, 200.937, 31.1225
11, 1800.00000, 123.731, 122.921, 123.893, 0, 198.718, 232.252, 211.032, 30.3982
11, 2700.00000, 123.892, 123.133, 124.043, 0, 193.283, 223.088, 205.486, 26.8942
12, 0.00000, 124.06, 123.265, 124.178, 0, 187.509, 221.184, 202.177, 30.141
12, 900.00000, 123.602, 122.757, 123.723, 0, 206.468, 242.266, 222.374, 32.1064
12, 1800.00000, 123.632, 122.799, 123.781, 0, 206.926, 241.5, 220.226, 31.2758
12, 2700.00000, 123.44, 122.643, 123.609, 0, 201.357, 234.197, 213.506, 29.781
13, 0.00000, 123.524, 122.702, 123.681, 0, 200.051, 233.834, 213.133, 30.5397
13, 900.00000, 123.387, 122.554, 123.548, 0, 204.343, 238.549, 217.608, 30.9441
13, 1800.00000, 122.881, 122.081, 123.057, 0, 205.009, 236.781, 216.753, 28.8953
13, 2700.00000, 122.313, 121.412, 122.505, 0, 227.902, 265.811, 241.062, 34.6382
14, 0.00000, 122.464, 121.529, 122.64, 0, 222.506, 263.681, 236.866, 37.4714
14, 900.00000, 122.578, 121.653, 122.762, 0, 217.099, 258.069, 230.75, 37.3666
14, 1800.00000, 122.809, 121.94, 122.982, 0, 207.53, 244.778, 221.192, 33.763
14, 2700.00000, 118.382, 117.645, 118.537, 0, 201.251, 233.08, 215.083, 28.2581
15, 0.00000, 125.486, 124.643, 125.67, 0, 204.548, 236.558, 215.911, 29.2424
15, 900.00000, 125.656, 124.855, 125.856, 0, 199.606, 229.021, 209.308, 27.0464
15, 1800.00000, 125.474, 124.61, 125.629, 0, 207.046, 241.397, 220.81, 31.0656
15, 2700.00000, 125.548, 124.677, 125.693, 0, 203.956, 239.624, 218.096, 32.2025
16, 0.00000, 125.366, 124.482, 125.521, 0, 213.157, 249.414, 226.991, 32.8581
16, 900.00000, 125.407, 124.574, 125.593, 0, 211.356, 244.047, 222.646, 29.9021
16, 1800.00000, 125.399, 124.568, 125.579, 0, 212.722, 245.462, 223.985, 29.9486
16, 2700.00000, 125.566, 124.744, 125.729, 0, 205.207, 237.332, 217.498, 29.1528
17, 0.00000, 125.388, 124.529, 125.553, 0, 212.993, 247.849, 225.306, 31.7653
17, 900.00000, 125.399, 124.565, 125.554, 0, 214.788, 249.719, 226.052, 31.98
17, 1800.00000, 127.019, 126.175, 127.101, 0, 217.371, 252.487, 232.736, 31.5437
17, 2700.00000, 127.045, 126.231, 127.157, 0, 214.945, 248.663, 227.228, 30.5932
18, 0.00000, 127.045, 126.213, 127.111, 0, 217.919, 253.807, 233.148, 32.2108
18, 900.00000, 126.488, 125.612, 126.586, 0, 242.026, 281.172, 255.177, 35.6845
18, 1800.00000, 126.459, 125.57, 126.566, 0, 243.971, 284.393, 255.981, 37.1488
18, 2700.00000, 130.722, 129.841, 130.858, 0, 245.241, 281.923, 252.09, 34.9912
19, 0.00000, 130.524, 129.615, 130.662, 0, 253.58, 292.122, 260.986, 36.7002
19, 900.00000, 130.691, 129.79, 130.809, 0, 244.225, 283.245, 252.88, 36.6939
19, 1800.00000, 130.109, 129.217, 130.242, 0, 252.131, 290.641, 259.77, 36.5526
19, 2700.00000, 129.933, 129.019, 130.137, 0, 257.976, 297.831, 261.512, 39.5146
20, 0.00000, 130.037, 129.16, 130.217, 0, 255.235, 292.011, 259.613, 36.0611
20, 900.00000, 124.208, 123.281, 124.511, 0, 266.251, 310.301, 265.899, 45.6115
20, 1800.00000, 124.415, 123.502, 124.581, 0, 260.706, 303.857, 269.751, 40.7327
20, 2700.00000, 124.103, 123.188, 124.29, 0, 263.298, 306.661, 271.552, 41.2292
21, 0.00000, 123.918, 122.96, 124.136, 0, 269.446, 314.28, 275.565, 43.5619
21, 900.00000, 124.146, 123.237, 124.337, 0, 263.466, 305.316, 271.34, 39.8923
21, 1800.00000, 120.454, 119.604, 120.607, 0, 253.986, 295.071, 265.097, 37.7246
21, 2700.00000, 120.472, 119.631, 120.632, 0, 252.568, 293.55, 263.285, 37.7139
22, 0.00000, 120.701, 119.887, 120.861, 0, 243.309, 282.2, 253.218, 35.9898
22, 900.00000, 120.586, 119.755, 120.722, 0, 249.256, 289.243, 260.728, 36.5776
22, 1800.00000, 120.545, 119.721, 120.692, 0, 251.254, 290.9, 261.732, 36.4878
22, 2700.00000, 122.155, 121.286, 122.331, 0, 245.325, 286.834, 253.943, 39.1529
23, 0.00000, 122.092, 121.197, 122.275, 0, 246.471, 289.466, 255.713, 40.4545
23, 900.00000, 122.29, 121.416, 122.463, 0, 240.61, 282.635, 249.747, 39.4712
23, 1800.00000, 126.011, 125.06, 126.167, 0, 245.516, 290.521, 255.018, 42.3562
23, 2700.00000, 126.154, 125.257, 126.322, 0, 239.994, 281.081, 248.137, 38.8907
24, 0.00000, 126.09, 125.171, 126.251, 0, 242.653, 285.433, 251.811, 40.2536
24, 900.00000, 126.226, 125.265, 126.315, 0, 238.936, 286.408, 253.064, 43.401
