hour, t(sec), |V|1 (volts), |V|2 (volts), |V|3 (volts), |V|4 (volts), |I|1 (amps), |I|2 (amps), |I|3 (amps), |I|4 (amps)
0, 900.00000, 124.13, 123.545, 125.861, 0, 276.958, 290.666, 157.855, 127.386
0, 1800.00000, 124.393, 123.825, 126.04, 0, 265.84, 278.927, 153.122, 120.621
0, 2700.00000, 124.265, 123.702, 125.881, 0, 256.246, 270.208, 145.492, 119.113
1, 0.00000, 124.058, 123.521, 125.682, 0, 264.678, 276.588, 153.619, 118.279
1, 900.00000, 124.129, 123.605, 125.752, 0, 262.444, 273.815, 151.188, 118.153
1, 1800.00000, 124.25, 123.728, 125.834, 0, 255.486, 267.25, 146.849, 115.724
1, 2700.00000, 124.174, 123.641, 125.764, 0, 258.152, 270.198, 148.632, 116.769
2, 0.00000, 124.098, 123.577, 125.719, 0, 261.169, 272.067, 149.663, 118.124
2, 900.00000, 124.289, 123.771, 125.843, 0, 253.1, 264.022, 146.765, 112.948
2, 1800.00000, 124.172, 123.653, 125.735, 0, 257.436, 267.805, 150.674, 113.088
2, 2700.00000, 124.345, 123.842, 125.887, 0, 252.499, 262.52, 147.032, 111.569
3, 0.00000, 124.704, 124.213, 126.188, 0, 235.529, 246.084, 134.072, 107.792
3, 900.00000, 124.494, 124.006, 126.008, 0, 244.597, 254.141, 141.3, 109.106
3, 1800.00000, 124.948, 124.457, 126.432, 0, 238.221, 248.666, 136.662, 107.839
3, 2700.00000, 124.54, 124.035, 126.114, 0, 254.203, 264.282, 146.585, 113.764
4, 0.00000, 124.667, 124.165, 126.227, 0, 248.584, 258.742, 141.86, 112.889
4, 900.00000, 124.824, 124.333, 126.379, 0, 241.096, 250.742, 134.524, 112.419
4, 1800.00000, 124.475, 123.95, 126.091, 0, 255.873, 266.23, 145.557, 116.64
4, 2700.00000, 125.118, 124.625, 126.622, 0, 239.006, 248.2, 136.292, 108.309
5, 0.00000, 124.893, 124.4, 126.433, 0, 248.992, 257.214, 144.067, 110.033
5, 900.00000, 124.976, 124.47, 126.507, 0, 246.244, 255.962, 141.618, 110.543
5, 1800.00000, 124.897, 124.411, 126.451, 0, 249.672, 257.917, 143.307, 111.476
5, 2700.00000, 124.947, 124.463, 126.477, 0, 247.517, 255.27, 142.922, 109.429
6, 0.00000, 125.303, 124.819, 126.716, 0, 231.755, 239.829, 135.854, 100.858
6, 900.00000, 125.011, 124.487, 126.516, 0, 243.124, 252.211, 141.686, 107.038
6, 1800.00000, 125.094, 124.576, 126.612, 0, 237.14, 244.653, 135.356, 106.516
6, 2700.00000, 125.704, 125.308, 127.097, 0, 204.581, 212.302, 116.067, 93.4059
7, 0.00000, 125.373, 124.958, 126.887, 0, 219.136, 226.128, 122.276, 101.38
7, 900.00000, 125.428, 124.98, 126.86, 0, 213.495, 221.777, 123.09, 95.6856
7, 1800.00000, 126.053, 125.788, 127.376, 0, 176.72, 181.164, 97.8025, 81.9951
7, 2700.00000, 126.133, 125.871, 127.422, 0, 172.578, 176.838, 96.2649, 79.278
8, 0.00000, 125.919, 125.634, 127.229, 0, 181.696, 186.355, 103.938, 80.987
8, 900.00000, 126.259, 126.017, 127.485, 0, 166.494, 168.7, 95.7351, 72.4987
8, 1800.00000, 126.162, 125.903, 127.414, 0, 167.998, 171.354, 95.7835, 74.6557
8, 2700.00000, 126.154, 125.963, 127.406, 0, 158.225, 162.623, 89.6123, 71.8511
9, 0.00000, 125.915, 125.757, 127.174, 0, 166.429, 167.228, 97.0994, 70.2859
9, 900.00000, 125.959, 125.789, 127.222, 0, 165.627, 168.3, 96.1331, 71.6277
9, 1800.00000, 126.679, 126.751, 127.883, 0, 132.689, 133.776, 72.8289, 61.2744
9, 2700.00000, 127.012, 127.125, 128.102, 0, 118.115, 117.109, 66.7648, 51.12
10, 0.00000, 126.97, 127.105, 128.072, 0, 121.257, 119.135, 68.8291, 51.3639
10, 900.00000, 126.8, 126.906, 127.943, 0, 127.18, 126.428, 71.474, 55.7019
10, 1800.00000, 126.941, 127.051, 128.043, 0, 122.1, 121.58, 69.5697, 52.655
10, 2700.00000, 127.577, 127.997, 128.666, 0, 103.106, 102.733, 58.8142, 45.3601
11, 0.00000, 127.685, 128.076, 128.738, 0, 98.7965, 100.257, 56.7798, 45.1806
11, 900.00000, 127.988, 128.423, 128.989, 0, 88.2197, 87.866, 49.7073, 40.4078
11, 1800.00000, 127.866, 128.379, 128.9, 0, 94.78, 94.7997, 54.9032, 42.0829
11, 2700.00000, 128.077, 128.608, 129.039, 0, 88.6638, 88.2228, 52.5678, 37.4696
12, 0.00000, 128.288, 128.811, 129.237, 0, 84.0432, 84.497, 49.2905, 38.6306
12, 900.00000, 127.729, 128.234, 128.84, 0, 100.493, 100.599, 55.9055, 47.4802
12, 1800.00000, 127.865, 128.345, 128.911, 0, 94.6009, 96.0641, 54.1722, 44.89
12, 2700.00000, 127.963, 128.541, 129.047, 0, 93.6876, 93.6615, 52.9612, 44.9195
13, 0.00000, 128.111, 128.666, 129.125, 0, 89.997, 90.3321, 52.7577, 41.0259
13, 900.00000, 127.935, 128.481, 128.994, 0, 94.2799, 94.7949, 54.4573, 43.7096
13, 1800.00000, 127.873, 128.429, 128.902, 0, 94.4469, 94.3715, 55.5756, 41.2079
13, 2700.00000, 127.199, 127.68, 128.435, 0, 115.377, 117.86, 64.5922, 55.9692
14, 0.00000, 127.414, 127.893, 128.599, 0, 107.933, 110.8, 60.8484, 53.1711
14, 900.00000, 127.518, 128.012, 128.675, 0, 104.683, 107.088, 59.4875, 50.8579
14, 1800.00000, 127.776, 128.311, 128.878, 0, 97.3164, 98.0118, 55.5594, 45.8778
14, 2700.00000, 128.016, 128.595, 129.031, 0, 91.5978, 91.0941, 54.3008, 39.1734
15, 0.00000, 127.913, 128.492, 128.936, 0, 93.8939, 92.4566, 56.0717, 37.675
15, 900.00000, 128.144, 128.739, 129.123, 0, 88.5696, 87.1355, 53.4168, 34.9204
15, 1800.00000, 127.928, 128.481, 128.957, 0, 94.7562, 93.5133, 56.3855, 38.4268
15, 2700.00000, 128.011, 128.554, 129.044, 0, 92.7878, 92.5895, 54.3658, 40.6303
16, 0.00000, 127.81, 128.353, 128.9, 0, 99.1029, 98.4828, 57.2951, 43.3039
16, 900.00000, 127.825, 128.398, 128.919, 0, 99.2141, 97.4573, 57.2343, 41.9768
16, 1800.00000, 127.828, 128.399, 128.923, 0, 99.5848, 98.2035, 57.1666, 43.0535
16, 2700.00000, 127.424, 127.77, 128.561, 0, 111.409, 110.86, 62.2671, 49.8385
17, 0.00000, 127.229, 127.563, 128.417, 0, 118.915, 118.917, 66.0094, 54.1059
17, 900.00000, 127.268, 127.627, 128.462, 0, 118.632, 118.862, 63.7362, 56.597
17, 1800.00000, 126.165, 126.171, 127.446, 0, 167.834, 169.415, 97.1307, 72.2169
17, 2700.00000, 126.121, 126.145, 127.402, 0, 170.911, 172.094, 99.7244, 72.4322
18, 0.00000, 126.201, 126.207, 127.454, 0, 166.901, 170.24, 97.3224, 72.2587
18, 900.00000, 125.453, 125.437, 126.962, 0, 202.144, 206.687, 112.449, 93.1396
18, 1800.00000, 125.423, 125.407, 126.922, 0, 204.17, 209.101, 114.966, 92.8902
18, 2700.00000, 124.046, 123.688, 125.792, 0, 272.735, 276.527, 154.912, 120.657
19, 0.00000, 123.721, 123.326, 125.587, 0, 289.004, 295.325, 162.281, 131.002
19, 900.00000, 123.863, 123.475, 125.663, 0, 283.073, 289.836, 161.247, 126.321
19, 1800.00000, 123.38, 122.878, 125.297, 0, 309.228, 315.349, 174.944, 138.501
19, 2700.00000, 123.061, 122.537, 125.119, 0, 325.139, 332.817, 181.465, 148.834
20, 0.00000, 123.251, 122.738, 125.17, 0, 316.718, 323.341, 183.292, 137.967
20, 900.00000, 122.819, 122.264, 124.951, 0, 338.038, 347.932, 190.15, 154.336
20, 1800.00000, 123.25, 122.694, 125.166, 0, 316.062, 326.106, 183.445, 139.015
20, 2700.00000, 123.136, 122.597, 125.114, 0, 320.437, 329.017, 183.475, 142.598
21, 0.00000, 122.913, 122.329, 124.897, 0, 328.117, 338.275, 191.585, 143.097
21, 900.00000, 123.302, 122.744, 125.207, 0, 311.415, 320.476, 180.399, 136.892
21, 1800.00000, 123.425, 122.839, 125.261, 0, 306.72, 318.015, 181.063, 132.743
21, 2700.00000, 123.427, 122.873, 125.309, 0, 306.609, 315.97, 177.208, 135.412
22, 0.00000, 123.706, 123.163, 125.476, 0, 295.932, 304.683, 174.29, 127.253
22, 900.00000, 123.579, 123.01, 125.375, 0, 301.885, 312.313, 178.027, 130.404
22, 1800.00000, 123.51, 122.951, 125.295, 0, 305.403, 315.295, 182.727, 128.948
22, 2700.00000, 123.81, 123.243, 125.573, 0, 294.789, 305.632, 173.536, 128.004
23, 0.00000, 123.655, 123.083, 125.507, 0, 302.605, 313.055, 175.337, 133.857
23, 900.00000, 123.983, 123.432, 125.736, 0, 288.345, 298.281, 167.903, 126.667
23, 1800.00000, 123.743, 123.147, 125.525, 0, 296.505, 309.264, 174.504, 129.855
23, 2700.00000, 123.957, 123.417, 125.705, 0, 286.195, 295.083, 166.283, 125.558
24, 0.00000, 123.853, 123.296, 125.633, 0, 291.295, 301.246, 169.304, 128.251
24, 900.00000, 124.13, 123.545, 125.861, 0, 276.963, 290.673, 157.857, 127.39
