hour, t(sec), |V|1 (volts), |V|2 (volts), |V|3 (volts), |V|4 (volts), |I|1 (amps), |I|2 (amps), |I|3 (amps), |I|4 (amps)
0, 900.00000, 129.075, 128.781, 130.093, 0, 186.916, 175.584, 146.718, 36.3222
0, 1800.00000, 129.408, 129.123, 130.349, 0, 174.702, 163.426, 138.72, 32.2357
0, 2700.00000, 123.198, 122.993, 124.183, 0, 168.702, 158.027, 132.846, 32.3111
1, 0.00000, 122.887, 122.716, 123.882, 0, 180.985, 168.582, 144.426, 32.6182
1, 900.00000, 123.042, 122.877, 124.005, 0, 174.82, 162.434, 139.893, 31.0551
1, 1800.00000, 118.581, 118.487, 119.491, 0, 168.957, 156.296, 136.687, 28.6931
1, 2700.00000, 118.428, 118.33, 119.359, 0, 175.292, 162.646, 141.612, 30.0271
2, 0.00000, 118.401, 118.316, 119.321, 0, 174.986, 161.611, 142.228, 29.0713
2, 900.00000, 118.557, 118.457, 119.473, 0, 170.568, 157.92, 138.075, 28.9126
2, 1800.00000, 118.526, 118.422, 119.434, 0, 169.473, 156.8, 137.56, 28.37
2, 2700.00000, 119.053, 118.96, 119.932, 0, 162.05, 149.064, 131.593, 26.9586
3, 0.00000, 125.068, 124.855, 126.007, 0, 163.591, 153.949, 128.732, 31.5665
3, 900.00000, 125.13, 124.91, 126.032, 0, 155.721, 146.168, 123.063, 29.4432
3, 1800.00000, 125.287, 125.092, 126.158, 0, 151.253, 140.696, 120.22, 27.6435
3, 2700.00000, 124.901, 124.705, 125.812, 0, 162.07, 150.666, 129.471, 28.9954
4, 0.00000, 125.005, 124.802, 125.911, 0, 159.3, 148.434, 126.886, 28.9208
4, 900.00000, 124.996, 124.765, 125.964, 0, 162.727, 153.529, 127.159, 32.3973
4, 1800.00000, 124.73, 124.511, 125.705, 0, 168.504, 157.255, 133.535, 31.3241
4, 2700.00000, 130.901, 130.633, 131.749, 0, 154.755, 143.403, 123.333, 27.8236
5, 0.00000, 130.754, 130.486, 131.61, 0, 157.825, 145.636, 126.462, 27.6367
5, 900.00000, 130.839, 130.576, 131.676, 0, 155.392, 143.321, 124.788, 26.9389
5, 1800.00000, 134.473, 134.208, 135.25, 0, 161.229, 147.366, 131.451, 26.1635
5, 2700.00000, 134.611, 134.327, 135.379, 0, 154.864, 141.801, 125.589, 25.7569
6, 0.00000, 134.985, 134.687, 135.7, 0, 140.961, 128.891, 114.539, 23.2205
6, 900.00000, 134.724, 134.377, 135.501, 0, 148.189, 136.555, 119.868, 25.053
6, 1800.00000, 124.898, 124.617, 125.915, 0, 164.578, 154.415, 129.548, 31.6807
6, 2700.00000, 125.203, 124.867, 126.219, 0, 153.201, 146.091, 118.596, 32.1552
7, 0.00000, 125.12, 124.783, 126.148, 0, 149.255, 140.549, 115.569, 30.7694
7, 900.00000, 125.057, 124.702, 126.1, 0, 151.854, 143.121, 117.482, 31.4419
7, 1800.00000, 125.289, 124.943, 126.317, 0, 147.401, 138.801, 114.206, 30.3231
7, 2700.00000, 125.454, 125.125, 126.431, 0, 139.909, 130.388, 109.63, 27.2289
8, 0.00000, 125.269, 124.96, 126.251, 0, 144.379, 132.658, 114.179, 26.7344
8, 900.00000, 125.614, 125.311, 126.547, 0, 133.068, 121.489, 106.088, 23.744
8, 1800.00000, 125.411, 125.068, 126.411, 0, 140.344, 130.861, 110.027, 27.2968
8, 2700.00000, 125.141, 124.793, 126.171, 0, 148.197, 137.532, 117.215, 27.7087
9, 0.00000, 124.705, 124.44, 125.735, 0, 164.391, 148.556, 133.58, 26.9752
9, 900.00000, 124.884, 124.612, 125.893, 0, 156.345, 141.615, 126.578, 26.0772
9, 1800.00000, 125.101, 124.84, 126.105, 0, 145.66, 130.499, 116.048, 25.9082
9, 2700.00000, 125.238, 124.973, 126.228, 0, 145.878, 131.51, 116.777, 25.4807
10, 0.00000, 125.444, 125.208, 126.369, 0, 134.623, 119.142, 108.8, 22.6506
10, 900.00000, 125.11, 124.874, 126.088, 0, 148.001, 132.076, 119.272, 25.1374
10, 1800.00000, 125.365, 125.155, 126.251, 0, 137.638, 120.561, 114.043, 21.1082
10, 2700.00000, 125.248, 125.051, 126.129, 0, 135.543, 117.316, 113.032, 20.62
11, 0.00000, 125.277, 125.056, 126.168, 0, 135.904, 118.79, 112.68, 20.8411
11, 900.00000, 125.276, 125.055, 126.209, 0, 142.792, 126.409, 116.415, 23.1883
11, 1800.00000, 125.098, 124.859, 126.033, 0, 141.99, 126.963, 115.148, 23.4892
11, 2700.00000, 125.293, 125.05, 126.192, 0, 137.162, 122.748, 111.428, 22.51
12, 0.00000, 125.3, 125.071, 126.207, 0, 141.951, 127.276, 115.691, 22.9718
12, 900.00000, 124.902, 124.678, 125.855, 0, 150.51, 134.229, 122.766, 24.3148
12, 1800.00000, 124.923, 124.653, 125.908, 0, 151.093, 137.152, 121.428, 26.0088
12, 2700.00000, 124.965, 124.71, 125.95, 0, 148.548, 134.593, 119.018, 25.8868
13, 0.00000, 125.178, 124.922, 126.115, 0, 139.805, 124.832, 113.561, 22.9794
13, 900.00000, 124.947, 124.687, 125.921, 0, 147.646, 132.533, 119.672, 24.4788
13, 1800.00000, 124.76, 124.53, 125.739, 0, 157.181, 140.341, 128.827, 24.8697
13, 2700.00000, 124.173, 123.947, 125.223, 0, 171.752, 152.681, 141.653, 26.5236
14, 0.00000, 124.417, 124.202, 125.425, 0, 163.021, 143.675, 135.35, 24.6373
14, 900.00000, 124.677, 124.456, 125.646, 0, 151.82, 133.311, 126.045, 23.0395
14, 1800.00000, 124.731, 124.522, 125.703, 0, 155.907, 137.378, 129.352, 23.6362
14, 2700.00000, 124.768, 124.573, 125.709, 0, 156.788, 137.927, 131.017, 23.1006
15, 0.00000, 124.645, 124.432, 125.647, 0, 160.142, 141.146, 132.09, 24.8725
15, 900.00000, 124.985, 124.776, 125.909, 0, 147.961, 129.435, 123.96, 21.7352
15, 1800.00000, 124.724, 124.484, 125.705, 0, 157.246, 140.258, 129.841, 24.1039
15, 2700.00000, 124.658, 124.434, 125.652, 0, 162.85, 145.474, 134.415, 24.9891
16, 0.00000, 124.537, 124.299, 125.546, 0, 165.519, 148.594, 136.566, 25.3966
16, 900.00000, 124.635, 124.401, 125.624, 0, 161.785, 145.27, 133.691, 24.6489
16, 1800.00000, 124.752, 124.527, 125.718, 0, 155.908, 139.218, 128.517, 24.0636
16, 2700.00000, 124.96, 124.722, 125.909, 0, 148.905, 132.997, 122.287, 23.3557
17, 0.00000, 124.635, 124.392, 125.642, 0, 161.785, 145.805, 131.966, 26.1012
17, 900.00000, 124.702, 124.532, 125.657, 0, 160.66, 142.66, 131.34, 25.7481
17, 1800.00000, 124.646, 124.483, 125.58, 0, 164.544, 146.924, 134.623, 26.1999
17, 2700.00000, 124.662, 124.51, 125.596, 0, 164.116, 146.829, 133.331, 26.9072
18, 0.00000, 124.756, 124.612, 125.652, 0, 161.535, 144.473, 131.623, 26.1412
18, 900.00000, 124.118, 123.997, 125.117, 0, 181.421, 163.367, 145.406, 31.4508
18, 1800.00000, 123.764, 123.639, 124.851, 0, 200.431, 182.679, 159.228, 36.1753
18, 2700.00000, 123.813, 123.702, 124.898, 0, 195.32, 176.77, 153.908, 36.2769
19, 0.00000, 123.804, 123.667, 124.883, 0, 190.078, 172.968, 149.153, 35.9737
19, 900.00000, 123.903, 123.758, 124.972, 0, 188.539, 172.585, 147.625, 36.1064
19, 1800.00000, 117.471, 117.397, 118.58, 0, 200.632, 185.562, 157.69, 38.4405
19, 2700.00000, 117.293, 117.247, 118.397, 0, 204.257, 187.453, 162.919, 36.7129
20, 0.00000, 117.604, 117.608, 118.569, 0, 191.223, 171.673, 156.942, 30.2669
20, 900.00000, 117.411, 117.376, 118.458, 0, 193.507, 176.09, 156.456, 32.7373
20, 1800.00000, 117.555, 117.509, 118.539, 0, 193.434, 176.517, 158.344, 30.974
20, 2700.00000, 114.68, 114.632, 115.729, 0, 201.137, 185.912, 162.906, 34.0402
21, 0.00000, 114.421, 114.396, 115.508, 0, 208.819, 191.144, 169.471, 34.8539
21, 900.00000, 114.982, 114.946, 115.948, 0, 185.798, 169.202, 152.755, 29.1871
21, 1800.00000, 123.813, 123.64, 124.825, 0, 188.956, 172.776, 153.126, 31.4143
21, 2700.00000, 123.72, 123.519, 124.8, 0, 194.122, 180.064, 154.636, 35.1342
22, 0.00000, 124.043, 123.86, 125.054, 0, 183.686, 168.838, 147.291, 32.0649
22, 900.00000, 123.933, 123.777, 124.927, 0, 187.12, 170.659, 151.23, 31.4245
22, 1800.00000, 123.983, 123.849, 124.936, 0, 183.437, 165.893, 149.598, 29.5388
22, 2700.00000, 126.927, 126.779, 127.822, 0, 179.921, 161.19, 148.405, 27.5556
23, 0.00000, 126.888, 126.706, 127.83, 0, 179.291, 161.757, 146.364, 28.7247
23, 900.00000, 126.87, 126.706, 127.823, 0, 187.512, 169.689, 153.26, 29.8792
23, 1800.00000, 128.975, 128.778, 129.888, 0, 184.087, 165.885, 151.192, 28.6731
23, 2700.00000, 129.061, 128.856, 129.992, 0, 183.677, 166.389, 149.719, 29.5991
24, 0.00000, 129.146, 128.935, 130.058, 0, 177.293, 160.235, 144.539, 28.5426
24, 900.00000, 129.076, 128.781, 130.094, 0, 186.912, 175.58, 146.715, 36.3213
