hour, t(sec), |V|1 (volts), |V|2 (volts), |V|3 (volts), |V|4 (volts), |I|1 (amps), |I|2 (amps), |I|3 (amps), |I|4 (amps)
0, 900.00000, 126.202, 126.376, 127.086, 0, 129.233, 104.193, 91.6688, 33.2219
0, 1800.00000, 126.432, 126.572, 127.258, 0, 121.534, 98.7529, 87.0356, 30.4678
0, 2700.00000, 126.613, 126.69, 127.321, 0, 120.006, 101.334, 91.9458, 24.7976
1, 0.00000, 126.496, 126.598, 127.277, 0, 122.383, 102.446, 90.2498, 28.1919
1, 900.00000, 126.575, 126.731, 127.419, 0, 119.768, 96.755, 83.7181, 31.7158
1, 1800.00000, 126.544, 126.621, 127.287, 0, 120.16, 102.051, 89.8004, 26.5524
1, 2700.00000, 126.562, 126.639, 127.246, 0, 117.066, 98.734, 90.0886, 23.9066
2, 0.00000, 126.459, 126.598, 127.184, 0, 121.565, 99.7233, 92.6012, 26.1625
2, 900.00000, 126.613, 126.591, 127.212, 0, 116.494, 103.984, 94.5994, 19.1058
2, 1800.00000, 126.631, 126.615, 127.248, 0, 113.285, 100.156, 90.3919, 19.9777
2, 2700.00000, 126.687, 126.702, 127.346, 0, 112.341, 97.7328, 86.7249, 22.3454
3, 0.00000, 126.929, 126.959, 127.505, 0, 104.597, 89.6772, 83.5142, 18.7971
3, 900.00000, 126.882, 126.959, 127.573, 0, 104.08, 86.1387, 76.4131, 24.3712
3, 1800.00000, 127.036, 127.121, 127.687, 0, 98.6439, 80.4074, 72.9977, 22.8915
3, 2700.00000, 126.673, 126.749, 127.355, 0, 110.935, 92.7961, 84.3105, 23.6046
4, 0.00000, 126.734, 126.905, 127.497, 0, 109.923, 86.322, 78.3697, 28.4572
4, 900.00000, 126.761, 126.904, 127.435, 0, 110.73, 88.9258, 84.5196, 24.293
4, 1800.00000, 126.567, 126.578, 127.136, 0, 114.848, 99.9443, 95.4577, 17.5732
4, 2700.00000, 126.729, 126.785, 127.355, 0, 110.715, 93.714, 87.173, 21.0689
5, 0.00000, 126.683, 126.758, 127.402, 0, 109.223, 90.6288, 80.4708, 25.3212
5, 900.00000, 126.777, 126.866, 127.425, 0, 105.693, 86.4561, 80.9101, 22.5292
5, 1800.00000, 126.368, 126.463, 127.073, 0, 121.078, 101.853, 93.3581, 24.6466
5, 2700.00000, 126.51, 126.647, 127.296, 0, 114.358, 92.4352, 81.5936, 28.9825
6, 0.00000, 126.796, 126.868, 127.502, 0, 104.803, 86.6794, 76.0755, 25.2301
6, 900.00000, 126.56, 126.637, 127.309, 0, 112.201, 92.7331, 82.0813, 26.5246
6, 1800.00000, 126.455, 126.464, 127.139, 0, 117.637, 101.586, 92.0067, 22.4995
6, 2700.00000, 126.716, 126.736, 127.363, 0, 103.853, 87.0936, 80.1882, 21.1015
7, 0.00000, 126.444, 126.494, 127.223, 0, 113.148, 93.6028, 82.58, 26.8903
7, 900.00000, 126.304, 126.04, 126.784, 0, 120.074, 118.21, 106.921, 12.5852
7, 1800.00000, 126.687, 126.587, 127.224, 0, 107.317, 96.3727, 90.5717, 14.7535
7, 2700.00000, 126.742, 126.696, 127.353, 0, 105.552, 91.4088, 84.3284, 18.7464
8, 0.00000, 126.589, 126.473, 127.2, 0, 109.479, 98.7493, 88.3718, 18.3807
8, 900.00000, 126.803, 126.724, 127.477, 0, 104.03, 91.4446, 79.0733, 21.7231
8, 1800.00000, 126.831, 126.73, 127.426, 0, 99.4449, 88.0674, 79.5087, 17.3911
8, 2700.00000, 126.598, 126.541, 127.264, 0, 106.887, 92.1232, 83.4953, 20.5424
9, 0.00000, 126.238, 126.04, 126.803, 0, 120.229, 113.476, 102.973, 15.2297
9, 900.00000, 126.457, 126.298, 127.008, 0, 109.664, 100.985, 93.1806, 14.3711
9, 1800.00000, 126.334, 126.102, 126.858, 0, 116.433, 112.162, 101.499, 13.5294
9, 2700.00000, 126.503, 126.139, 126.875, 0, 112.801, 116.623, 106.233, 9.48818
10, 0.00000, 126.541, 126.337, 127.167, 0, 110.856, 105.649, 89.2402, 19.7558
10, 900.00000, 126.256, 125.929, 126.684, 0, 122.429, 124.111, 112.755, 10.9747
10, 1800.00000, 126.369, 126.276, 127.088, 0, 119.238, 107.407, 92.2772, 23.5706
10, 2700.00000, 126.256, 126.187, 127.072, 0, 122.54, 109, 90.5822, 27.9814
11, 0.00000, 126.343, 126.225, 127.101, 0, 119.146, 108.301, 90.3436, 25.3971
11, 900.00000, 126.515, 126.425, 127.209, 0, 114.286, 102.386, 88.7155, 22.3037
11, 1800.00000, 126.245, 125.811, 126.619, 0, 125.275, 133.452, 118.867, 13.1303
11, 2700.00000, 126.382, 126.161, 127.016, 0, 122.05, 118.1, 99.815, 20.8033
12, 0.00000, 126.518, 126.344, 127.07, 0, 118.292, 111.97, 100.602, 15.6977
12, 900.00000, 126.023, 125.971, 126.754, 0, 135.636, 121.471, 108.655, 23.5156
12, 1800.00000, 126.327, 126.14, 126.907, 0, 120.203, 113.71, 101.798, 16.355
12, 2700.00000, 126.174, 126.132, 126.932, 0, 131.78, 117.41, 103.272, 24.8458
13, 0.00000, 126.441, 126.248, 127.037, 0, 119.706, 113.37, 100.408, 17.2375
13, 900.00000, 126.251, 126.055, 126.865, 0, 126.445, 120.045, 106.436, 17.92
13, 1800.00000, 126.1, 125.835, 126.676, 0, 133.15, 130.85, 115.357, 17.0726
13, 2700.00000, 125.608, 125.563, 126.477, 0, 147.429, 131.1, 114.179, 29.0063
14, 0.00000, 125.846, 125.605, 126.467, 0, 138.089, 133.329, 119.147, 17.3617
14, 900.00000, 125.993, 125.742, 126.635, 0, 132.669, 128.807, 112.298, 19.051
14, 1800.00000, 126.063, 126.013, 126.894, 0, 133.763, 118.653, 101.81, 27.8795
14, 2700.00000, 126.051, 125.931, 126.858, 0, 136.606, 125.878, 105.573, 27.5533
15, 0.00000, 125.957, 125.445, 126.377, 0, 139.421, 150.758, 131.433, 17.3808
15, 900.00000, 126.207, 125.946, 126.861, 0, 130.897, 128.082, 108.905, 21.0451
15, 1800.00000, 126.088, 125.84, 126.781, 0, 131.468, 127.778, 107.42, 22.7472
15, 2700.00000, 126.008, 125.766, 126.656, 0, 137.172, 133.518, 115.622, 20.2913
16, 0.00000, 125.954, 125.72, 126.58, 0, 137.218, 132.882, 117.334, 18.4096
16, 900.00000, 125.993, 125.961, 126.858, 0, 136.389, 120.732, 102.508, 29.5813
16, 1800.00000, 126.129, 126.177, 127.025, 0, 129.065, 108.815, 92.9017, 31.5484
16, 2700.00000, 126.104, 126.064, 126.904, 0, 133.374, 118.345, 102.758, 26.6901
17, 0.00000, 126.072, 126.087, 126.937, 0, 131.037, 112.562, 96.66, 29.9596
17, 900.00000, 125.992, 126.066, 126.842, 0, 136.477, 115.838, 102.254, 29.9701
17, 1800.00000, 125.982, 125.871, 126.622, 0, 141.393, 131.861, 118.761, 19.8639
17, 2700.00000, 125.943, 125.595, 126.362, 0, 143.689, 148.459, 133.704, 13.4881
18, 0.00000, 125.944, 125.696, 126.496, 0, 145.501, 144.81, 127.38, 18.1174
18, 900.00000, 125.267, 125.07, 125.849, 0, 170.802, 167.406, 151.99, 17.7188
18, 1800.00000, 125.303, 124.957, 125.727, 0, 168.022, 173.246, 158.156, 13.8043
18, 2700.00000, 125.161, 124.887, 125.756, 0, 179.001, 180.062, 159.188, 20.8221
19, 0.00000, 125.117, 125.087, 125.933, 0, 177.221, 164.055, 144.92, 28.4071
19, 900.00000, 125.127, 124.784, 125.653, 0, 179.458, 184.722, 163.622, 19.5468
19, 1800.00000, 125.011, 124.813, 125.602, 0, 182.489, 179.515, 163.144, 18.433
19, 2700.00000, 124.809, 124.847, 125.7, 0, 189.023, 172.287, 153.304, 31.2333
20, 0.00000, 124.862, 124.664, 125.569, 0, 189.305, 186.089, 163.609, 24.684
20, 900.00000, 125.072, 125.053, 125.906, 0, 171.691, 157.895, 139.697, 28.0704
20, 1800.00000, 125.124, 125.089, 125.954, 0, 174.745, 161.968, 141.946, 28.9256
20, 2700.00000, 125.002, 125.051, 125.864, 0, 174.442, 156.845, 140.277, 29.8142
21, 0.00000, 124.659, 123.946, 124.832, 0, 187.684, 212.848, 193.869, 23.4412
21, 900.00000, 125.175, 125.195, 126.009, 0, 166.705, 150.209, 134.02, 28.5172
21, 1800.00000, 125.39, 125.264, 126.154, 0, 159.733, 151.286, 130.567, 26.2982
21, 2700.00000, 125.407, 125.31, 126.085, 0, 158.88, 149.19, 134.902, 21.1251
22, 0.00000, 125.598, 125.347, 126.155, 0, 153.679, 152.979, 135.956, 17.7473
22, 900.00000, 125.417, 125.195, 126.04, 0, 161.417, 158.905, 139.797, 20.8363
22, 1800.00000, 125.424, 125.18, 126.079, 0, 160.369, 159.237, 136.876, 23.3268
22, 2700.00000, 125.579, 125.466, 126.305, 0, 157.87, 149.25, 130.243, 24.7585
23, 0.00000, 125.599, 125.723, 126.597, 0, 155.059, 132.219, 112.053, 37.4842
23, 900.00000, 125.798, 125.818, 126.592, 0, 149.159, 132.866, 117.463, 27.6223
23, 1800.00000, 125.851, 125.848, 126.672, 0, 142.26, 126.768, 109.126, 28.9093
23, 2700.00000, 125.921, 125.952, 126.718, 0, 141.884, 124.746, 109.929, 27.8501
24, 0.00000, 125.925, 125.978, 126.76, 0, 140.646, 122.104, 106.606, 29.6736
24, 900.00000, 126.202, 126.376, 127.086, 0, 129.235, 104.195, 91.6699, 33.2226
