hour, t(sec), |V|1 (volts), |V|2 (volts), |V|3 (volts), |V|4 (volts), |I|1 (amps), |I|2 (amps), |I|3 (amps), |I|4 (amps)
0, 900.00000, 128.982, 128.356, 130.67, 0, 88.9547, 92.6049, 49.3478, 41.919
0, 1800.00000, 129.426, 128.757, 131.038, 0, 80.4049, 85.7606, 42.7698, 40.8911
0, 2700.00000, 122.173, 121.547, 123.709, 0, 76.2592, 83.1854, 42.7063, 37.8201
1, 0.00000, 121.891, 121.291, 123.566, 0, 80.7254, 86.9181, 43.0797, 41.4354
1, 900.00000, 121.946, 121.351, 123.634, 0, 80.7074, 86.9199, 42.5671, 41.9334
1, 1800.00000, 116.916, 116.381, 118.44, 0, 75.8014, 82.3424, 41.9918, 37.8895
1, 2700.00000, 116.778, 116.283, 118.389, 0, 78.33, 83.4255, 41.7629, 39.7604
2, 0.00000, 116.713, 116.256, 118.375, 0, 78.9041, 82.7962, 40.9914, 40.4104
2, 900.00000, 116.933, 116.423, 118.486, 0, 75.6798, 81.2934, 40.8685, 38.3123
2, 1800.00000, 116.766, 116.318, 118.416, 0, 78.1525, 81.6071, 40.558, 39.8428
2, 2700.00000, 117.297, 116.834, 118.885, 0, 76.5027, 80.6187, 40.5734, 38.5428
3, 0.00000, 124.477, 123.949, 125.967, 0, 71.1018, 75.4721, 37.5364, 36.2252
3, 900.00000, 124.225, 123.726, 125.823, 0, 74.1607, 77.3386, 37.7333, 38.4172
3, 1800.00000, 124.453, 123.983, 126.023, 0, 71.8379, 74.3429, 35.8283, 37.6101
3, 2700.00000, 124.013, 123.469, 125.661, 0, 76.4502, 80.6642, 38.8441, 40.1949
4, 0.00000, 124.149, 123.63, 125.775, 0, 74.686, 78.2801, 37.5874, 39.3259
4, 900.00000, 124.297, 123.757, 125.825, 0, 72.9642, 77.4118, 38.7803, 36.9053
4, 1800.00000, 123.9, 123.337, 125.555, 0, 78.3499, 82.6582, 40.8797, 40.1323
4, 2700.00000, 131.12, 130.522, 132.612, 0, 73.4903, 77.3121, 38.2614, 37.5487
5, 0.00000, 130.779, 130.217, 132.414, 0, 79.7686, 81.9526, 40.4154, 40.7893
5, 900.00000, 130.949, 130.411, 132.568, 0, 76.6756, 78.2343, 37.5811, 40.1817
5, 1800.00000, 135.437, 134.743, 136.931, 0, 77.7433, 83.2417, 41.0399, 40.0838
5, 2700.00000, 135.353, 134.758, 136.922, 0, 80.9843, 83.1493, 41.8486, 40.6291
6, 0.00000, 135.767, 135.187, 137.256, 0, 74.3473, 76.1812, 37.2537, 38.3708
6, 900.00000, 135.507, 134.842, 137.028, 0, 76.6908, 80.0819, 39.3406, 39.5154
6, 1800.00000, 124.067, 123.437, 125.678, 0, 79.023, 84.6318, 42.8901, 39.575
6, 2700.00000, 124.409, 123.83, 125.995, 0, 73.0816, 77.259, 37.5451, 38.1079
7, 0.00000, 123.8, 123.269, 125.545, 0, 85.0745, 86.8267, 45.6117, 40.7663
7, 900.00000, 124.02, 123.209, 125.527, 0, 78.0151, 87.8522, 45.6554, 38.5811
7, 1800.00000, 124.252, 123.65, 125.873, 0, 78.8013, 82.6949, 42.3548, 38.8865
7, 2700.00000, 124.321, 123.744, 125.97, 0, 77.985, 81.105, 40.5066, 39.4717
8, 0.00000, 123.96, 123.377, 125.702, 0, 85.008, 87.616, 44.8623, 41.8926
8, 900.00000, 124.422, 123.789, 126.071, 0, 77.4952, 82.2304, 39.9335, 40.4681
8, 1800.00000, 124.337, 123.747, 126.036, 0, 76.756, 80.0484, 38.0592, 40.7829
8, 2700.00000, 124.087, 123.46, 125.855, 0, 79.0992, 82.7533, 38.7788, 42.6281
9, 0.00000, 123.587, 122.9, 125.494, 0, 89.1924, 94.2981, 44.5995, 47.7553
9, 900.00000, 123.78, 123.177, 125.676, 0, 84.7157, 87.5328, 40.4336, 46.1474
9, 1800.00000, 123.586, 123.041, 125.424, 0, 90.8711, 91.9749, 48.5261, 43.3417
9, 2700.00000, 124.106, 123.362, 125.757, 0, 81.4932, 89.3256, 44.2378, 42.0703
10, 0.00000, 123.85, 123.313, 125.665, 0, 89.0315, 90.66, 46.7546, 43.5169
10, 900.00000, 123.767, 123.029, 125.495, 0, 87.6952, 95.1393, 48.2351, 44.0392
10, 1800.00000, 123.906, 123.237, 125.741, 0, 87.0821, 92.6459, 44.0288, 46.4572
10, 2700.00000, 123.491, 122.819, 125.451, 0, 91.8719, 97.1262, 45.9888, 49.1418
11, 0.00000, 123.702, 122.987, 125.561, 0, 87.5602, 94.073, 44.5013, 47.0435
11, 900.00000, 123.687, 123.199, 125.633, 0, 94.044, 94.092, 47.5185, 46.9801
11, 1800.00000, 123.528, 122.706, 125.288, 0, 88.4914, 98.6812, 48.4934, 46.3225
11, 2700.00000, 123.711, 122.975, 125.474, 0, 87.0002, 94.85, 46.3822, 45.4231
12, 0.00000, 124.016, 123.329, 125.738, 0, 83.683, 90.3389, 43.7409, 43.9928
12, 900.00000, 123.297, 122.507, 125.187, 0, 93.8097, 102.712, 49.9491, 49.3285
12, 1800.00000, 123.417, 122.842, 125.321, 0, 91.8411, 94.0947, 47.3711, 46.0693
12, 2700.00000, 123.418, 122.691, 125.224, 0, 90.7441, 98.2281, 49.6054, 45.7518
13, 0.00000, 123.552, 122.954, 125.421, 0, 90.303, 93.2598, 46.9323, 45.3428
13, 900.00000, 123.369, 122.667, 125.235, 0, 92.0118, 97.9701, 49.0969, 46.6073
13, 1800.00000, 123.367, 122.562, 125.189, 0, 91.9926, 101.125, 50.2349, 47.3965
13, 2700.00000, 122.635, 121.785, 124.668, 0, 100.397, 109.711, 53.8313, 52.3421
14, 0.00000, 122.919, 122.151, 124.902, 0, 96.2565, 103.254, 50.8744, 49.7272
14, 900.00000, 123.078, 122.383, 125.015, 0, 93.3505, 98.4585, 49.3558, 47.2248
14, 1800.00000, 123.269, 122.554, 125.205, 0, 93.2733, 99.4652, 48.6281, 48.4788
14, 2700.00000, 123.406, 122.631, 125.274, 0, 91.094, 99.4175, 48.036, 48.1675
15, 0.00000, 123.244, 122.332, 125.027, 0, 93.3345, 105.28, 53.3018, 47.569
15, 900.00000, 123.495, 122.757, 125.375, 0, 90.9143, 97.9292, 47.4996, 47.7226
15, 1800.00000, 123.216, 122.489, 125.156, 0, 94.3349, 100.854, 49.4864, 48.8776
15, 2700.00000, 123.354, 122.598, 125.201, 0, 92.9418, 100.688, 50.5313, 47.1843
16, 0.00000, 123.098, 122.369, 125.058, 0, 96.3581, 102.988, 50.991, 49.4701
16, 900.00000, 123.137, 122.421, 125.142, 0, 95.5112, 102.135, 48.8255, 50.7678
16, 1800.00000, 123.042, 122.471, 125.163, 0, 98.8878, 101.043, 48.4119, 52.068
16, 2700.00000, 123.355, 122.666, 125.277, 0, 93.172, 99.0394, 48.4947, 48.306
17, 0.00000, 122.994, 122.414, 125.066, 0, 100.201, 102.526, 51.1837, 50.7071
17, 900.00000, 122.872, 122.462, 124.978, 0, 105.731, 103.606, 54.9336, 50.2823
17, 1800.00000, 123.18, 122.386, 125.071, 0, 95.4602, 105.171, 50.7887, 50.6166
17, 2700.00000, 123.186, 122.322, 124.94, 0, 94.726, 107.021, 54.1876, 48.2532
18, 0.00000, 123.29, 122.489, 125.024, 0, 92.6195, 103.194, 52.3903, 46.7889
18, 900.00000, 122.321, 121.473, 124.184, 0, 107.935, 119.66, 64.972, 50.3318
18, 1800.00000, 122.194, 121.382, 124.081, 0, 111.895, 122.64, 67.9515, 50.6651
18, 2700.00000, 121.718, 121.002, 123.657, 0, 123.483, 131.196, 78.2911, 50.0702
19, 0.00000, 121.487, 120.776, 123.537, 0, 124.77, 132.056, 76.8813, 52.5147
19, 900.00000, 121.925, 120.911, 123.679, 0, 114.398, 131.354, 75.1943, 50.3865
19, 1800.00000, 114.812, 114.059, 116.557, 0, 114.332, 126.366, 74.9947, 47.1628
19, 2700.00000, 114.581, 113.846, 116.438, 0, 117.331, 128.823, 75.3075, 49.4624
20, 0.00000, 114.886, 114.01, 116.66, 0, 111.264, 126.978, 71.191, 50.4162
20, 900.00000, 114.389, 113.879, 116.462, 0, 120.347, 124.83, 72.3026, 51.1725
20, 1800.00000, 115.034, 114.259, 116.899, 0, 106.512, 119.118, 63.8497, 50.7489
20, 2700.00000, 111.956, 111.209, 113.837, 0, 105.685, 118.46, 62.631, 51.2381
21, 0.00000, 111.761, 110.832, 113.432, 0, 107.768, 125.488, 71.437, 48.3198
21, 900.00000, 112.104, 111.491, 114.039, 0, 103.46, 111.726, 58.6482, 50.0546
21, 1800.00000, 122.25, 121.291, 124.168, 0, 104.093, 118.774, 60.2382, 53.1908
21, 2700.00000, 122.3, 121.331, 124.166, 0, 102.304, 117.646, 60.2426, 51.912
22, 0.00000, 122.579, 121.607, 124.347, 0, 99.8383, 115.399, 60.0193, 49.8783
22, 900.00000, 122.486, 121.446, 124.235, 0, 100.464, 117.883, 61.2491, 50.6467
22, 1800.00000, 122.449, 121.469, 124.214, 0, 100.51, 116.174, 60.873, 49.7858
22, 2700.00000, 126.049, 125.129, 127.754, 0, 96.3451, 109.327, 57.1901, 47.3907
23, 0.00000, 125.883, 124.97, 127.682, 0, 98.5061, 110.939, 57.1986, 49.137
23, 900.00000, 126.257, 125.373, 127.989, 0, 93.7325, 105.783, 53.6793, 47.6102
23, 1800.00000, 128.631, 127.818, 130.408, 0, 94.698, 103.29, 52.7281, 47.2397
23, 2700.00000, 128.72, 127.933, 130.493, 0, 95.2357, 103.341, 53.1184, 47.0763
24, 0.00000, 128.705, 127.907, 130.479, 0, 93.6505, 101.952, 51.8345, 46.902
24, 900.00000, 128.983, 128.357, 130.671, 0, 88.9528, 92.6032, 49.3466, 41.9184
