hour, t(sec), kWh,State,kWOut,kWIn,kvarOut,DCkW,kWTotalLosses,kWInvLosses,kWIdlingLosses,kWChDchLosses,kWh Chng,InvEff,InverterON,Vref,Vavg (DRC),VV Oper,VW Oper,DRC Oper,VV_DRC Oper,WP Oper,WV Oper,kWDesired,kW VW Limit,Limit kWOut Function,kVA Exceeded,
0, 900.00000, 30000, 1, 427.5, 0, -7.27596E-015, 456.183, 57.4291, 28.6826, 4.5, 24.2465, -20000, 0.937125, 1, 9999, 9999, 9999, 9999, 9999, 9999, 9999, 9999, 427.5, 9999, 900, 0
0, 1800.00000, 29879, 1, 427.5, 0, 4.54747E-016, 456.183, 57.4291, 28.6826, 4.5, 24.2465, -120.984, 0.937125, 1, 9999, 9999, 9999, 9999, 9999, 9999, 9999, 9999, 427.5, 9999, 900, 0
0, 2700.00000, 29757.8, -1, 0, 697.5, 1.54614E-014, -664.402, 70.5927, 33.0975, 4.5, 32.9951, -121.233, 0.952548, 1, 9999, 9999, 9999, 9999, 9999, 9999, 9999, 9999, -697.5, 9999, 900, 0
1, 0.00000, 29914.9, -1, 0, 697.5, 1.45519E-014, -664.402, 70.5927, 33.0975, 4.5, 32.9951, 157.109, 0.952548, 1, 9999, 9999, 9999, 9999, 9999, 9999, 9999, 9999, -697.5, 9999, 900, 0
1, 900.00000, 30071.6, -1, 0, 697.5, 0, -664.402, 70.5927, 33.0975, 4.5, 32.9951, 156.719, 0.952548, 1, 9999, 9999, 9999, 9999, 9999, 9999, 9999, 9999, -697.5, 9999, 900, 0
1, 1800.00000, 30228.3, -1, 0, 832.5, 1.45519E-014, -801.448, 75.3998, 31.0524, 4.5, 39.8474, 156.727, 0.9627, 1, 9999, 9999, 9999, 9999, 9999, 9999, 9999, 9999, -832.5, 9999, 900, 0
1, 2700.00000, 30417.6, -1, 0, 834.527, -2.50309, -803.528, 75.4508, 30.9994, 4.5, 39.9514, 189.275, 0.962854, 1, 9999, 9999, 9999, 9999, 9999, 9999, 9999, 9999, -832.5, 9999, 900, 0
2, 0.00000, 30606.9, -1, 0, 832.5, 9.09495E-016, -801.448, 75.3998, 31.0524, 4.5, 39.8474, 189.275, 0.9627, 1, 9999, 9999, 9999, 9999, 9999, 9999, 9999, 9999, -832.5, 9999, 900, 0
2, 900.00000, 30796.3, -1, 0, 832.5, 1.54614E-014, -801.448, 75.3998, 31.0524, 4.5, 39.8474, 189.395, 0.9627, 1, 9999, 9999, 9999, 9999, 9999, 9999, 9999, 9999, -832.5, 9999, 900, 0
2, 1800.00000, 30985.6, -1, 0, 832.5, -2.91038E-014, -801.448, 75.3998, 31.0524, 4.5, 39.8474, 189.27, 0.9627, 1, 9999, 9999, 9999, 9999, 9999, 9999, 9999, 9999, -832.5, 9999, 900, 0
2, 2700.00000, 31174.8, -1, 0, 810, -9.09495E-016, -778.404, 74.791, 31.5957, 4.5, 38.6952, 189.289, 0.960993, 1, 9999, 9999, 9999, 9999, 9999, 9999, 9999, 9999, -810, 9999, 900, 0
3, 0.00000, 31358.6, -1, 0, 810, -1.45519E-014, -778.404, 74.791, 31.5957, 4.5, 38.6952, 183.803, 0.960993, 1, 9999, 9999, 9999, 9999, 9999, 9999, 9999, 9999, -810, 9999, 900, 0
3, 900.00000, 31542.4, -1, 0, 810, 1.45519E-014, -778.404, 74.791, 31.5957, 4.5, 38.6952, 183.802, 0.960993, 1, 9999, 9999, 9999, 9999, 9999, 9999, 9999, 9999, -810, 9999, 900, 0
3, 1800.00000, 31726.2, -1, 0, 22.458, 0.0326212, -18.6012, 9.06183, 3.85677, 4.5, 0.705061, 183.802, 0.828267, 1, 9999, 9999, 9999, 9999, 9999, 9999, 9999, 9999, -22.5, 9999, 900, 0
3, 2700.00000, 31729.6, -1, 0, 22.5, -4.68958E-016, -18.6364, 9.07045, 3.86364, 4.5, 0.706818, 3.35739, 0.828283, 1, 9999, 9999, 9999, 9999, 9999, 9999, 9999, 9999, -22.5, 9999, 900, 0
4, 0.00000, 31733, -1, 0, 22.5, 1.42109E-017, -18.6364, 9.07045, 3.86364, 4.5, 0.706818, 3.35751, 0.828283, 1, 9999, 9999, 9999, 9999, 9999, 9999, 9999, 9999, -22.5, 9999, 900, 0
4, 900.00000, 31736.3, -1, 0, 22.5, -4.54747E-016, -18.6364, 9.07045, 3.86364, 4.5, 0.706818, 3.35222, 0.828283, 1, 9999, 9999, 9999, 9999, 9999, 9999, 9999, 9999, -22.5, 9999, 900, 0
4, 1800.00000, 31739.7, -1, 0, 22.5, 4.40536E-016, -18.6364, 9.07045, 3.86364, 4.5, 0.706818, 3.35777, 0.828283, 1, 9999, 9999, 9999, 9999, 9999, 9999, 9999, 9999, -22.5, 9999, 900, 0
4, 2700.00000, 31743, 1, 675, 0, 0, 706.323, 73.2346, 31.3229, 4.5, 37.4117, 3.35737, 0.955654, 1, 9999, 9999, 9999, 9999, 9999, 9999, 9999, 9999, 675, 9999, 900, 0
5, 0.00000, 31555.1, 1, 673.46, 0, -1.92636, 704.795, 73.1662, 31.3349, 4.5, 37.3313, -187.977, 0.95554, 1, 9999, 9999, 9999, 9999, 9999, 9999, 9999, 9999, 675, 9999, 900, 0
5, 900.00000, 31368, 1, 675, 0, 2.91038E-014, 706.323, 73.2346, 31.3229, 4.5, 37.4117, -187.059, 0.955654, 1, 9999, 9999, 9999, 9999, 9999, 9999, 9999, 9999, 675, 9999, 900, 0
5, 1800.00000, 31180.9, 1, 720, 0, 1.50067E-014, 750.821, 75.0752, 30.8214, 4.5, 39.7538, -187.07, 0.95895, 1, 9999, 9999, 9999, 9999, 9999, 9999, 9999, 9999, 720, 9999, 900, 0
5, 2700.00000, 30982.2, 1, 720, 0, 4.54747E-016, 750.821, 75.0752, 30.8214, 4.5, 39.7538, -198.768, 0.95895, 1, 9999, 9999, 9999, 9999, 9999, 9999, 9999, 9999, 720, 9999, 900, 0
6, 0.00000, 30783.4, 1, 720, 0, -2.95586E-014, 750.821, 75.0752, 30.8214, 4.5, 39.7538, -198.77, 0.95895, 1, 9999, 9999, 9999, 9999, 9999, 9999, 9999, 9999, 720, 9999, 900, 0
6, 900.00000, 30584.6, 1, 720, 0, 0, 750.821, 75.0752, 30.8214, 4.5, 39.7538, -198.769, 0.95895, 1, 9999, 9999, 9999, 9999, 9999, 9999, 9999, 9999, 720, 9999, 900, 0
6, 1800.00000, 30385.8, 1, 720, 0, 0, 750.821, 75.0752, 30.8214, 4.5, 39.7538, -198.768, 0.95895, 1, 9999, 9999, 9999, 9999, 9999, 9999, 9999, 9999, 720, 9999, 900, 0
6, 2700.00000, 30187.1, 1, 649.298, 0, -4.29834, 680.777, 72.0455, 31.4783, 4.5, 36.0672, -198.769, 0.953761, 1, 9999, 9999, 9999, 9999, 9999, 9999, 9999, 9999, 652.5, 9999, 900, 0
7, 0.00000, 30005.9, 1, 652.5, 0, -1.45519E-014, 683.964, 72.1991, 31.4642, 4.5, 36.235, -181.175, 0.953997, 1, 9999, 9999, 9999, 9999, 9999, 9999, 9999, 9999, 652.5, 9999, 900, 0
7, 900.00000, 29824.7, 1, 652.5, 0, -1.45519E-014, 683.964, 72.1991, 31.4642, 4.5, 36.235, -181.168, 0.953997, 1, 9999, 9999, 9999, 9999, 9999, 9999, 9999, 9999, 652.5, 9999, 900, 0
7, 1800.00000, 29643.6, 1, 270, 0, 0, 293.808, 44.0083, 23.8078, 4.5, 15.7004, -181.175, 0.918968, 1, 9999, 9999, 9999, 9999, 9999, 9999, 9999, 9999, 270, 9999, 900, 0
7, 2700.00000, 29565.1, 1, 270, 0, 0, 293.808, 44.0083, 23.8078, 4.5, 15.7004, -78.5021, 0.918968, 1, 9999, 9999, 9999, 9999, 9999, 9999, 9999, 9999, 270, 9999, 900, 0
8, 0.00000, 29486.6, 1, 268.188, 0, -2.4365, 291.936, 43.8491, 23.7472, 4.5, 15.6019, -78.5021, 0.918656, 1, 9999, 9999, 9999, 9999, 9999, 9999, 9999, 9999, 270, 9999, 900, 0
8, 900.00000, 29408.1, 1, 267.596, 0, -2.79753, 291.323, 43.7968, 23.7271, 4.5, 15.5696, -78.5021, 0.918554, 1, 9999, 9999, 9999, 9999, 9999, 9999, 9999, 9999, 270, 9999, 900, 0
8, 1800.00000, 29329.6, 1, 267.808, 0, -2.66337, 291.543, 43.8156, 23.7344, 4.5, 15.5812, -78.5021, 0.91859, 1, 9999, 9999, 9999, 9999, 9999, 9999, 9999, 9999, 270, 9999, 900, 0
8, 2700.00000, 29251.1, -1, 0, 67.5, 1.81899E-015, -57.0619, 17.5662, 10.4381, 4.5, 2.62809, -78.5021, 0.845361, 1, 9999, 9999, 9999, 9999, 9999, 9999, 9999, 9999, -67.5, 9999, 900, 0
9, 0.00000, 29263.5, -1, 0, 67.5, 0, -57.0619, 17.5662, 10.4381, 4.5, 2.62809, 12.4834, 0.845361, 1, 9999, 9999, 9999, 9999, 9999, 9999, 9999, 9999, -67.5, 9999, 900, 0
9, 900.00000, 29276, -1, 0, 67.5, -3.58114E-015, -57.0619, 17.5662, 10.4381, 4.5, 2.62809, 12.4829, 0.845361, 1, 9999, 9999, 9999, 9999, 9999, 9999, 9999, 9999, -67.5, 9999, 900, 0
9, 1800.00000, 29288.5, 1, 67.5, 0, -5.68434E-017, 78.9396, 20.3311, 11.4396, 4.5, 4.39156, 12.4839, 0.855084, 1, 9999, 9999, 9999, 9999, 9999, 9999, 9999, 9999, 67.5, 9999, 900, 0
9, 2700.00000, 29266.5, 1, 67.5, 0, 3.63798E-015, 78.9396, 20.3311, 11.4396, 4.5, 4.39156, -21.9578, 0.855084, 1, 9999, 9999, 9999, 9999, 9999, 9999, 9999, 9999, 67.5, 9999, 900, 0
10, 0.00000, 29244.6, 1, 66.7239, 0, -1.02481, 78.0673, 20.1891, 11.3434, 4.5, 4.34565, -21.9319, 0.854697, 1, 9999, 9999, 9999, 9999, 9999, 9999, 9999, 9999, 67.5, 9999, 900, 0
10, 900.00000, 29222.7, 1, 66.8231, 0, -0.962039, 78.1789, 20.2073, 11.3558, 4.5, 4.35152, -21.9578, 0.854746, 1, 9999, 9999, 9999, 9999, 9999, 9999, 9999, 9999, 67.5, 9999, 900, 0
10, 1800.00000, 29200.7, 1, 67.5, 0, 1.76215E-015, 78.9396, 20.3311, 11.4396, 4.5, 4.39156, -21.9578, 0.855084, 1, 9999, 9999, 9999, 9999, 9999, 9999, 9999, 9999, 67.5, 9999, 900, 0
10, 2700.00000, 29178.8, 1, 427.5, 0, 0, 456.183, 57.4291, 28.6826, 4.5, 24.2465, -21.9229, 0.937125, 1, 9999, 9999, 9999, 9999, 9999, 9999, 9999, 9999, 427.5, 9999, 900, 0
11, 0.00000, 29057.5, 1, 427.5, 0, -7.27596E-015, 456.183, 57.4291, 28.6826, 4.5, 24.2465, -121.257, 0.937125, 1, 9999, 9999, 9999, 9999, 9999, 9999, 9999, 9999, 427.5, 9999, 900, 0
11, 900.00000, 28936.3, 1, 421.212, 0, -8.27453, 449.704, 56.8965, 28.4911, 4.5, 23.9054, -121.232, 0.936645, 1, 9999, 9999, 9999, 9999, 9999, 9999, 9999, 9999, 427.5, 9999, 900, 0
11, 1800.00000, 28817.1, 1, 607.5, 0, 1.45519E-014, 639.024, 69.8937, 31.524, 4.5, 33.8697, -119.195, 0.950668, 1, 9999, 9999, 9999, 9999, 9999, 9999, 9999, 9999, 607.5, 9999, 900, 0
11, 2700.00000, 28647.7, 1, 607.5, 0, 1.45519E-014, 639.024, 69.8937, 31.524, 4.5, 33.8697, -169.353, 0.950668, 1, 9999, 9999, 9999, 9999, 9999, 9999, 9999, 9999, 607.5, 9999, 900, 0
12, 0.00000, 28478.4, 1, 607.5, 0, -9.09495E-016, 639.024, 69.8937, 31.524, 4.5, 33.8697, -169.343, 0.950668, 1, 9999, 9999, 9999, 9999, 9999, 9999, 9999, 9999, 607.5, 9999, 900, 0
12, 900.00000, 28309, 1, 596.095, 0, -16.2521, 627.586, 69.2592, 31.4915, 4.5, 33.2677, -169.348, 0.949821, 1, 9999, 9999, 9999, 9999, 9999, 9999, 9999, 9999, 607.5, 9999, 900, 0
12, 1800.00000, 28139.7, 1, 594.492, 0, -17.1547, 625.978, 69.1684, 31.4854, 4.5, 33.183, -169.348, 0.949702, 1, 9999, 9999, 9999, 9999, 9999, 9999, 9999, 9999, 607.5, 9999, 900, 0
12, 2700.00000, 27970.3, 1, 562.5, 0, 2.91038E-014, 593.782, 67.2706, 31.2821, 4.5, 31.4885, -169.348, 0.947317, 1, 9999, 9999, 9999, 9999, 9999, 9999, 9999, 9999, 562.5, 9999, 900, 0
13, 0.00000, 27812.8, 1, 562.5, 0, -1.40972E-014, 593.782, 67.2706, 31.2821, 4.5, 31.4885, -157.505, 0.947317, 1, 9999, 9999, 9999, 9999, 9999, 9999, 9999, 9999, 562.5, 9999, 900, 0
13, 900.00000, 27655.3, 1, 562.5, 0, -4.54747E-016, 593.782, 67.2706, 31.2821, 4.5, 31.4885, -157.579, 0.947317, 1, 9999, 9999, 9999, 9999, 9999, 9999, 9999, 9999, 562.5, 9999, 900, 0
13, 1800.00000, 27497.8, 1, 405, 0, -6.82121E-015, 432.968, 55.4921, 27.9675, 4.5, 23.0246, -157.459, 0.935405, 1, 9999, 9999, 9999, 9999, 9999, 9999, 9999, 9999, 405, 9999, 900, 0
13, 2700.00000, 27382.7, 1, 405, 0, -7.73071E-015, 432.968, 55.4921, 27.9675, 4.5, 23.0246, -115.123, 0.935405, 1, 9999, 9999, 9999, 9999, 9999, 9999, 9999, 9999, 405, 9999, 900, 0
14, 0.00000, 27267.6, 1, 399.863, 0, -8.01794, 427.656, 55.0377, 27.7927, 4.5, 22.745, -115.123, 0.935012, 1, 9999, 9999, 9999, 9999, 9999, 9999, 9999, 9999, 405, 9999, 900, 0
14, 900.00000, 27154.3, 1, 398.108, 0, -10.3008, 425.84, 54.8814, 27.732, 4.5, 22.6495, -113.302, 0.934877, 1, 9999, 9999, 9999, 9999, 9999, 9999, 9999, 9999, 405, 9999, 900, 0
14, 1800.00000, 27039.1, 1, 397.857, 0, -10.4755, 425.58, 54.859, 27.7232, 4.5, 22.6358, -115.123, 0.934858, 1, 9999, 9999, 9999, 9999, 9999, 9999, 9999, 9999, 405, 9999, 900, 0
14, 2700.00000, 26924, 1, 585, 0, 1.45519E-014, 616.441, 68.6223, 31.4412, 4.5, 32.6811, -115.123, 0.948996, 1, 9999, 9999, 9999, 9999, 9999, 9999, 9999, 9999, 585, 9999, 900, 0
15, 0.00000, 26760.6, 1, 585, 0, 1.45519E-014, 616.441, 68.6223, 31.4412, 4.5, 32.6811, -163.407, 0.948996, 1, 9999, 9999, 9999, 9999, 9999, 9999, 9999, 9999, 585, 9999, 900, 0
15, 900.00000, 26597.2, 1, 585, 0, 4.54747E-016, 616.441, 68.6223, 31.4412, 4.5, 32.6811, -163.406, 0.948996, 1, 9999, 9999, 9999, 9999, 9999, 9999, 9999, 9999, 585, 9999, 900, 0
15, 1800.00000, 26433.8, 1, 832.5, 0, 9.09495E-016, 860.823, 78.3661, 28.3228, 4.5, 45.5433, -163.415, 0.967098, 1, 9999, 9999, 9999, 9999, 9999, 9999, 9999, 9999, 832.5, 9999, 900, 0
15, 2700.00000, 26206.1, 1, 832.5, 0, -9.09495E-016, 860.823, 78.3661, 28.3228, 4.5, 45.5433, -227.717, 0.967098, 1, 9999, 9999, 9999, 9999, 9999, 9999, 9999, 9999, 832.5, 9999, 900, 0
16, 0.00000, 25978.4, 1, 832.5, 0, 4.54747E-016, 860.823, 78.3661, 28.3228, 4.5, 45.5433, -227.717, 0.967098, 1, 9999, 9999, 9999, 9999, 9999, 9999, 9999, 9999, 832.5, 9999, 900, 0
16, 900.00000, 25750.6, 1, 832.5, 0, 1.45519E-014, 860.823, 78.3661, 28.3228, 4.5, 45.5433, -227.716, 0.967098, 1, 9999, 9999, 9999, 9999, 9999, 9999, 9999, 9999, 832.5, 9999, 900, 0
16, 1800.00000, 25522.9, 1, 817.554, 0, -21.7932, 846.309, 78.0346, 28.7551, 4.5, 44.7794, -227.717, 0.966023, 1, 9999, 9999, 9999, 9999, 9999, 9999, 9999, 9999, 832.5, 9999, 900, 0
16, 2700.00000, 25299, 1, 877.5, 0, 0, 904.339, 79.1731, 26.8395, 4.5, 47.8337, -223.897, 0.970321, 1, 9999, 9999, 9999, 9999, 9999, 9999, 9999, 9999, 877.5, 9999, 900, 0
17, 0.00000, 25059.9, 1, 877.5, 0, 1.45519E-014, 904.339, 79.1731, 26.8395, 4.5, 47.8337, -239.168, 0.970321, 1, 9999, 9999, 9999, 9999, 9999, 9999, 9999, 9999, 877.5, 9999, 900, 0
17, 900.00000, 24820.7, 1, 877.5, 0, 1.45519E-014, 904.339, 79.1731, 26.8395, 4.5, 47.8337, -239.162, 0.970321, 1, 9999, 9999, 9999, 9999, 9999, 9999, 9999, 9999, 877.5, 9999, 900, 0
17, 1800.00000, 24581.7, 1, 697.5, 0, -1.50067E-014, 728.608, 74.1931, 31.1084, 4.5, 38.5847, -239.004, 0.957304, 1, 9999, 9999, 9999, 9999, 9999, 9999, 9999, 9999, 697.5, 9999, 900, 0
17, 2700.00000, 24388.8, 1, 697.5, 0, 1.45519E-014, 728.608, 74.1931, 31.1084, 4.5, 38.5847, -192.929, 0.957304, 1, 9999, 9999, 9999, 9999, 9999, 9999, 9999, 9999, 697.5, 9999, 900, 0
18, 0.00000, 24195.8, 1, 697.5, 0, 0, 728.608, 74.1931, 31.1084, 4.5, 38.5847, -192.923, 0.957304, 1, 9999, 9999, 9999, 9999, 9999, 9999, 9999, 9999, 697.5, 9999, 900, 0
18, 900.00000, 24002.9, 1, 689.686, 0, -9.88179, 720.877, 73.8689, 31.1912, 4.5, 38.1777, -192.923, 0.956732, 1, 9999, 9999, 9999, 9999, 9999, 9999, 9999, 9999, 697.5, 9999, 900, 0
18, 1800.00000, 23810, 1, 697.5, 0, -1.45519E-014, 728.608, 74.1931, 31.1084, 4.5, 38.5847, -192.923, 0.957304, 1, 9999, 9999, 9999, 9999, 9999, 9999, 9999, 9999, 697.5, 9999, 900, 0
18, 2700.00000, 23617.1, 1, 427.5, 0, -7.27596E-015, 456.183, 57.4291, 28.6826, 4.5, 24.2465, -192.935, 0.937125, 1, 9999, 9999, 9999, 9999, 9999, 9999, 9999, 9999, 427.5, 9999, 900, 0
19, 0.00000, 23495.8, 1, 427.5, 0, 6.82121E-015, 456.183, 57.4291, 28.6826, 4.5, 24.2465, -121.232, 0.937125, 1, 9999, 9999, 9999, 9999, 9999, 9999, 9999, 9999, 427.5, 9999, 900, 0
19, 900.00000, 23374.6, 1, 427.5, 0, 4.54747E-016, 456.183, 57.4291, 28.6826, 4.5, 24.2465, -121.232, 0.937125, 1, 9999, 9999, 9999, 9999, 9999, 9999, 9999, 9999, 427.5, 9999, 900, 0
19, 1800.00000, 23253.4, 1, 517.5, 0, 1.45519E-014, 548.232, 64.3233, 30.7322, 4.5, 29.0912, -121.233, 0.943943, 1, 9999, 9999, 9999, 9999, 9999, 9999, 9999, 9999, 517.5, 9999, 900, 0
19, 2700.00000, 23107.9, 1, 517.5, 0, -1.45519E-014, 548.232, 64.3233, 30.7322, 4.5, 29.0912, -145.456, 0.943943, 1, 9999, 9999, 9999, 9999, 9999, 9999, 9999, 9999, 517.5, 9999, 900, 0
20, 0.00000, 22962.4, 1, 517.5, 0, -2.95586E-014, 548.232, 64.3233, 30.7322, 4.5, 29.0912, -145.456, 0.943943, 1, 9999, 9999, 9999, 9999, 9999, 9999, 9999, 9999, 517.5, 9999, 900, 0
20, 900.00000, 22817, 1, 517.5, 0, 1.45519E-014, 548.232, 64.3233, 30.7322, 4.5, 29.0912, -145.438, 0.943943, 1, 9999, 9999, 9999, 9999, 9999, 9999, 9999, 9999, 517.5, 9999, 900, 0
20, 1800.00000, 22671.5, 1, 517.5, 0, -1.45519E-014, 548.232, 64.3233, 30.7322, 4.5, 29.0912, -145.464, 0.943943, 1, 9999, 9999, 9999, 9999, 9999, 9999, 9999, 9999, 517.5, 9999, 900, 0
20, 2700.00000, 22526.1, 1, 472.5, 0, 2.91038E-014, 502.368, 61.0452, 29.8679, 4.5, 26.6773, -145.456, 0.940546, 1, 9999, 9999, 9999, 9999, 9999, 9999, 9999, 9999, 472.5, 9999, 900, 0
21, 0.00000, 22392.7, 1, 472.5, 0, 4.54747E-016, 502.368, 61.0452, 29.8679, 4.5, 26.6773, -133.386, 0.940546, 1, 9999, 9999, 9999, 9999, 9999, 9999, 9999, 9999, 472.5, 9999, 900, 0
21, 900.00000, 22259.2, 1, 472.5, 0, 1.45519E-014, 502.368, 61.0452, 29.8679, 4.5, 26.6773, -133.464, 0.940546, 1, 9999, 9999, 9999, 9999, 9999, 9999, 9999, 9999, 472.5, 9999, 900, 0
21, 1800.00000, 22125.9, 1, 517.5, 0, -9.09495E-016, 548.232, 64.3233, 30.7322, 4.5, 29.0912, -133.384, 0.943943, 1, 9999, 9999, 9999, 9999, 9999, 9999, 9999, 9999, 517.5, 9999, 900, 0
21, 2700.00000, 21980.4, 1, 517.758, 0, -0.53021, 548.494, 64.3412, 30.7362, 4.5, 29.1049, -145.461, 0.943963, 1, 9999, 9999, 9999, 9999, 9999, 9999, 9999, 9999, 517.5, 9999, 900, 0
22, 0.00000, 21834.9, 1, 517.246, 0, -0.829226, 547.974, 64.3058, 30.7282, 4.5, 29.0776, -145.525, 0.943924, 1, 9999, 9999, 9999, 9999, 9999, 9999, 9999, 9999, 517.5, 9999, 900, 0
22, 900.00000, 21689.5, 1, 517.455, 0, -0.711785, 548.186, 64.3202, 30.7315, 4.5, 29.0888, -145.388, 0.94394, 1, 9999, 9999, 9999, 9999, 9999, 9999, 9999, 9999, 517.5, 9999, 900, 0
22, 1800.00000, 21544, 1, 517.528, 0, -0.672958, 548.26, 64.3253, 30.7326, 4.5, 29.0927, -145.444, 0.943945, 1, 9999, 9999, 9999, 9999, 9999, 9999, 9999, 9999, 517.5, 9999, 900, 0
22, 2700.00000, 21398.6, 1, 629.198, 0, -1.55163, 660.731, 71.0446, 31.5325, 4.5, 35.0121, -145.463, 0.952276, 1, 9999, 9999, 9999, 9999, 9999, 9999, 9999, 9999, 630, 9999, 900, 0
23, 0.00000, 21223.5, 1, 629.42, 0, -1.42569, 660.952, 71.056, 31.5322, 4.5, 35.0238, -175.061, 0.952293, 1, 9999, 9999, 9999, 9999, 9999, 9999, 9999, 9999, 630, 9999, 900, 0
23, 900.00000, 21048.4, 1, 628.797, 0, -1.79768, 660.33, 71.024, 31.533, 4.5, 34.991, -175.119, 0.952247, 1, 9999, 9999, 9999, 9999, 9999, 9999, 9999, 9999, 630, 9999, 900, 0
23, 1800.00000, 20873.4, 1, 427.306, 0, -0.569804, 455.983, 57.4128, 28.6768, 4.5, 24.2359, -174.955, 0.93711, 1, 9999, 9999, 9999, 9999, 9999, 9999, 9999, 9999, 427.5, 9999, 900, 0
23, 2700.00000, 20752.3, 1, 427.029, 0, -0.730541, 455.698, 57.3895, 28.6685, 4.5, 24.2209, -121.18, 0.937089, 1, 9999, 9999, 9999, 9999, 9999, 9999, 9999, 9999, 427.5, 9999, 900, 0
24, 0.00000, 20631.2, 1, 427.122, 0, -0.671097, 455.793, 57.3973, 28.6713, 4.5, 24.226, -121.105, 0.937096, 1, 9999, 9999, 9999, 9999, 9999, 9999, 9999, 9999, 427.5, 9999, 900, 0
24, 900.00000, 20510, 1, 426.82, 0, -0.862411, 455.482, 57.3718, 28.6622, 4.5, 24.2096, -121.13, 0.937073, 1, 9999, 9999, 9999, 9999, 9999, 9999, 9999, 9999, 427.5, 9999, 900, 0
