hour, t(sec), |V|1 (volts), |V|2 (volts), |V|3 (volts), |V|4 (volts), |I|1 (amps), |I|2 (amps), |I|3 (amps), |I|4 (amps)
0, 900.00000, 127.385, 126.912, 127.868, 0, 3.25391E-011, 2.99995E-011, 2.91038E-011, 2.18279E-011
0, 1800.00000, 127.508, 127.044, 127.989, 0, 3.25391E-011, 7.27596E-012, 2.91038E-011, 4.65889E-011
0, 2700.00000, 127.056, 126.606, 127.53, 0, 3.25391E-011, 3.25391E-011, 2.99995E-011, 2.99995E-011
1, 0.00000, 126.967, 126.523, 127.428, 0, 1.45519E-011, 3.25391E-011, 2.99995E-011, 2.18279E-011
1, 900.00000, 127.014, 126.576, 127.472, 0, 4.1159E-011, 3.63798E-011, 3.63798E-011, 0
1, 1800.00000, 127.021, 126.59, 127.474, 0, 1.45519E-011, 7.27596E-012, 2.99995E-011, 1.45519E-011
1, 2700.00000, 126.98, 126.544, 127.423, 0, 3.25391E-011, 2.91038E-011, 2.99995E-011, 5.99991E-011
2, 0.00000, 126.94, 126.503, 127.393, 0, 2.05795E-011, 2.99995E-011, 7.27596E-012, 1.45519E-011
2, 900.00000, 127.022, 126.583, 127.48, 0, 1.45519E-011, 5.82077E-011, 7.27596E-012, 5.09317E-011
2, 1800.00000, 126.963, 126.517, 127.424, 0, 1.45519E-011, 7.27596E-012, 2.99995E-011, 2.99995E-011
2, 2700.00000, 127.076, 126.641, 127.533, 0, 1.45519E-011, 0, 2.91038E-011, 3.25391E-011
3, 0.00000, 127.224, 126.805, 127.675, 0, 0, 2.91038E-011, 3.25391E-011, 2.91038E-011
3, 900.00000, 127.14, 126.715, 127.592, 0, 3.25391E-011, 3.25391E-011, 2.99995E-011, 7.27596E-012
3, 1800.00000, 127.636, 127.217, 128.087, 0, 1.45519E-011, 1.45519E-011, 2.18279E-011, 2.99995E-011
3, 2700.00000, 127.431, 126.995, 127.895, 0, 0, 3.25391E-011, 1.45519E-011, 1.45519E-011
4, 0.00000, 127.488, 127.055, 127.952, 0, 2.05795E-011, 1.45519E-011, 7.27596E-012, 2.99995E-011
4, 900.00000, 127.539, 127.105, 128.015, 0, 1.45519E-011, 5.82077E-011, 3.63798E-011, 1.45519E-011
4, 1800.00000, 127.36, 126.899, 127.86, 0, 1.45519E-011, 2.99995E-011, 2.91038E-011, 7.27596E-012
4, 2700.00000, 127.921, 127.477, 128.404, 0, 0, 2.18279E-011, 1.45519E-011, 0
5, 0.00000, 127.815, 127.356, 128.309, 0, 1.45519E-011, 0, 2.99995E-011, 2.99995E-011
5, 900.00000, 127.863, 127.412, 128.349, 0, 2.05795E-011, 7.27596E-012, 3.63798E-011, 2.99995E-011
5, 1800.00000, 127.844, 127.4, 128.324, 0, 1.45519E-011, 3.25391E-011, 3.25391E-011, 3.63798E-011
5, 2700.00000, 127.87, 127.42, 128.352, 0, 1.45519E-011, 3.63798E-011, 0, 1.45519E-011
6, 0.00000, 128.022, 127.573, 128.504, 0, 1.45519E-011, 7.27596E-012, 2.99995E-011, 3.25391E-011
6, 900.00000, 127.844, 127.355, 128.38, 0, 2.05795E-011, 2.99995E-011, 7.27596E-012, 1.45519E-011
6, 1800.00000, 127.808, 127.288, 128.395, 0, 1.45519E-011, 3.25391E-011, 1.45519E-011, 2.91038E-011
6, 2700.00000, 128.155, 127.84, 128.712, 0, 0, 2.91038E-011, 2.99995E-011, 0
7, 0.00000, 127.981, 127.63, 128.584, 0, 3.25391E-011, 0, 0, 2.91038E-011
7, 900.00000, 127.955, 127.582, 128.57, 0, 4.1159E-011, 0, 3.25391E-011, 1.45519E-011
7, 1800.00000, 128.19, 128.032, 128.777, 0, 4.1159E-011, 2.91038E-011, 2.18279E-011, 4.36557E-011
7, 2700.00000, 128.221, 128.062, 128.811, 0, 2.91038E-011, 7.27596E-012, 0, 3.25391E-011
8, 0.00000, 128.106, 127.925, 128.708, 0, 1.45519E-011, 3.25391E-011, 0, 3.63798E-011
8, 900.00000, 128.244, 128.069, 128.867, 0, 1.45519E-011, 5.99991E-011, 2.99995E-011, 3.63798E-011
8, 1800.00000, 128.171, 127.994, 128.799, 0, 2.91038E-011, 2.99995E-011, 3.25391E-011, 2.91038E-011
8, 2700.00000, 128.097, 128.072, 128.716, 0, 0, 4.1159E-011, 2.91038E-011, 1.45519E-011
9, 0.00000, 127.95, 127.912, 128.569, 0, 2.05795E-011, 7.27596E-012, 7.27596E-012, 0
9, 900.00000, 127.99, 127.968, 128.603, 0, 1.45519E-011, 0, 0, 3.25391E-011
9, 1800.00000, 128.581, 128.945, 129.114, 0, 0, 0, 3.63798E-011, 6.50781E-011
9, 2700.00000, 128.72, 129.096, 129.251, 0, 3.25391E-011, 0, 5.86606E-011, 2.18279E-011
10, 0.00000, 128.731, 129.118, 129.249, 0, 5.82077E-011, 0, 5.86606E-011, 3.63798E-011
10, 900.00000, 128.637, 129.015, 129.155, 0, 4.1159E-011, 2.91038E-011, 1.45519E-011, 2.18279E-011
10, 1800.00000, 128.705, 129.088, 129.226, 0, 2.91038E-011, 2.18279E-011, 7.27596E-012, 3.25391E-011
10, 2700.00000, 129.425, 130.369, 129.844, 0, 4.1159E-011, 0, 3.25391E-011, 2.91038E-011
11, 0.00000, 129.458, 130.398, 129.877, 0, 0, 3.25391E-011, 7.27596E-012, 3.63798E-011
11, 900.00000, 129.58, 130.535, 129.985, 0, 4.36557E-011, 0, 0, 5.86606E-011
11, 1800.00000, 129.687, 130.816, 130.034, 0, 3.25391E-011, 4.1159E-011, 0, 3.63798E-011
11, 2700.00000, 129.795, 130.935, 130.124, 0, 1.45519E-011, 3.25391E-011, 3.25391E-011, 3.63798E-011
12, 0.00000, 129.883, 131.031, 130.212, 0, 0, 3.25391E-011, 2.91038E-011, 7.27596E-012
12, 900.00000, 129.641, 130.76, 129.991, 0, 3.25391E-011, 3.25391E-011, 2.18279E-011, 3.63798E-011
12, 1800.00000, 129.67, 130.787, 130.02, 0, 3.25391E-011, 0, 2.18279E-011, 2.18279E-011
12, 2700.00000, 129.776, 131.016, 130.104, 0, 0, 0, 3.25391E-011, 3.63798E-011
13, 0.00000, 129.813, 131.028, 130.168, 0, 4.36557E-011, 4.1159E-011, 3.25391E-011, 2.18279E-011
13, 900.00000, 129.725, 130.931, 130.085, 0, 1.45519E-011, 1.45519E-011, 2.91038E-011, 5.99991E-011
13, 1800.00000, 129.632, 130.835, 129.989, 0, 2.91038E-011, 0, 2.91038E-011, 1.45519E-011
13, 2700.00000, 129.306, 130.462, 129.71, 0, 4.1159E-011, 3.25391E-011, 2.99995E-011, 7.27596E-012
14, 0.00000, 129.389, 130.552, 129.798, 0, 0, 0, 2.91038E-011, 1.45519E-011
14, 900.00000, 129.448, 130.623, 129.852, 0, 2.91038E-011, 3.25391E-011, 1.45519E-011, 2.99995E-011
14, 1800.00000, 129.572, 130.76, 129.965, 0, 1.45519E-011, 2.91038E-011, 0, 2.18279E-011
14, 2700.00000, 129.745, 130.971, 130.113, 0, 1.45519E-011, 4.1159E-011, 2.99995E-011, 3.25391E-011
15, 0.00000, 129.671, 130.868, 130.071, 0, 2.91038E-011, 1.45519E-011, 2.99995E-011, 3.25391E-011
15, 900.00000, 129.789, 131.001, 130.184, 0, 0, 0, 2.99995E-011, 2.99995E-011
15, 1800.00000, 129.762, 130.918, 130.157, 0, 0, 1.45519E-011, 7.27596E-012, 7.27596E-012
15, 2700.00000, 129.799, 130.966, 130.185, 0, 1.45519E-011, 3.25391E-011, 2.91038E-011, 0
16, 0.00000, 129.73, 130.892, 130.119, 0, 1.45519E-011, 3.25391E-011, 7.27596E-012, 2.91038E-011
16, 900.00000, 129.764, 130.94, 130.145, 0, 3.25391E-011, 5.99991E-011, 2.91038E-011, 4.1159E-011
16, 1800.00000, 129.782, 130.967, 130.144, 0, 0, 1.45519E-011, 2.91038E-011, 2.99995E-011
16, 2700.00000, 129.44, 130.249, 129.878, 0, 2.91038E-011, 1.45519E-011, 5.82077E-011, 1.45519E-011
17, 0.00000, 129.351, 130.156, 129.783, 0, 1.45519E-011, 3.25391E-011, 0, 2.91038E-011
17, 900.00000, 129.428, 130.284, 129.788, 0, 2.91038E-011, 2.91038E-011, 5.86606E-011, 2.91038E-011
17, 1800.00000, 128.632, 128.913, 129.056, 0, 1.45519E-011, 1.45519E-011, 7.27596E-012, 7.27596E-012
17, 2700.00000, 128.655, 128.959, 129.048, 0, 3.25391E-011, 7.27596E-012, 3.25391E-011, 3.25391E-011
18, 0.00000, 128.718, 129.041, 129.076, 0, 2.91038E-011, 2.99995E-011, 2.91038E-011, 2.91038E-011
18, 900.00000, 128.458, 128.794, 128.783, 0, 1.45519E-011, 7.27596E-012, 0, 0
18, 1800.00000, 128.453, 128.792, 128.764, 0, 2.05795E-011, 1.45519E-011, 0, 1.45519E-011
18, 2700.00000, 127.447, 127.173, 127.883, 0, 2.91038E-011, 1.45519E-011, 2.91038E-011, 4.1159E-011
19, 0.00000, 127.344, 127.072, 127.775, 0, 0, 2.99995E-011, 7.27596E-012, 1.45519E-011
19, 900.00000, 127.424, 127.168, 127.838, 0, 1.45519E-011, 2.99995E-011, 0, 5.24677E-011
19, 1800.00000, 127.118, 126.655, 127.574, 0, 0, 3.25391E-011, 2.99995E-011, 7.27596E-012
19, 2700.00000, 126.982, 126.512, 127.471, 0, 0, 1.45519E-011, 0, 3.25391E-011
20, 0.00000, 127.07, 126.601, 127.543, 0, 2.91038E-011, 3.63798E-011, 3.25391E-011, 3.63798E-011
20, 900.00000, 126.888, 126.414, 127.401, 0, 3.25391E-011, 3.63798E-011, 2.99995E-011, 8.23181E-011
20, 1800.00000, 127.058, 126.586, 127.535, 0, 0, 2.99995E-011, 1.45519E-011, 4.65889E-011
20, 2700.00000, 126.979, 126.503, 127.471, 0, 2.05795E-011, 1.45519E-011, 1.45519E-011, 1.45519E-011
21, 0.00000, 126.826, 126.319, 127.348, 0, 2.91038E-011, 3.25391E-011, 2.91038E-011, 2.99995E-011
21, 900.00000, 127.002, 126.506, 127.518, 0, 0, 7.27596E-012, 0, 2.99995E-011
21, 1800.00000, 127.068, 126.565, 127.586, 0, 2.91038E-011, 0, 7.27596E-012, 3.25391E-011
21, 2700.00000, 127.071, 126.578, 127.588, 0, 2.91038E-011, 1.45519E-011, 7.27596E-012, 1.45519E-011
22, 0.00000, 127.21, 126.721, 127.714, 0, 1.45519E-011, 1.45519E-011, 7.27596E-012, 3.25391E-011
22, 900.00000, 127.166, 126.676, 127.657, 0, 2.91038E-011, 7.27596E-012, 2.18279E-011, 2.18279E-011
22, 1800.00000, 127.15, 126.664, 127.633, 0, 2.91038E-011, 7.27596E-012, 0, 4.36557E-011
22, 2700.00000, 127.307, 126.819, 127.809, 0, 0, 2.99995E-011, 3.25391E-011, 1.45519E-011
23, 0.00000, 127.241, 126.737, 127.772, 0, 3.25391E-011, 3.25391E-011, 7.27596E-012, 3.63798E-011
23, 900.00000, 127.382, 126.891, 127.896, 0, 0, 2.99995E-011, 1.45519E-011, 7.27596E-012
23, 1800.00000, 127.209, 126.708, 127.729, 0, 2.05795E-011, 3.63798E-011, 7.27596E-012, 3.25391E-011
23, 2700.00000, 127.294, 126.798, 127.814, 0, 1.45519E-011, 3.25391E-011, 5.99991E-011, 5.86606E-011
24, 0.00000, 127.263, 126.766, 127.784, 0, 2.05795E-011, 7.27596E-012, 2.18279E-011, 3.63798E-011
24, 900.00000, 127.385, 126.912, 127.868, 0, 4.60172E-011, 1.45519E-011, 3.25391E-011, 6.50781E-011
