hour, t(sec), |V|1 (volts), |V|2 (volts), |V|3 (volts), |V|4 (volts), |I|1 (amps), |I|2 (amps), |I|3 (amps), |I|4 (amps)
0, 900.00000, 127.171, 123.896, 124.92, 0, 82.4124, 324.782, 306.487, 235.082
0, 1800.00000, 127.341, 124.152, 125.146, 0, 79.6884, 315.924, 298.656, 229.33
0, 2700.00000, 132.305, 129.37, 130.334, 0, 75.9952, 291.505, 275.244, 208.994
1, 0.00000, 132.192, 129.166, 130.11, 0, 76.2932, 299.837, 285.315, 217.782
1, 900.00000, 132.254, 129.242, 130.181, 0, 74.7075, 297.591, 282.857, 217.012
1, 1800.00000, 126.414, 123.517, 124.43, 0, 73.9517, 288.379, 273.56, 208.418
1, 2700.00000, 126.34, 123.327, 124.259, 0, 76.1592, 299.652, 283.633, 217.019
2, 0.00000, 126.281, 123.274, 124.201, 0, 77.5877, 300.439, 285.596, 216.879
2, 900.00000, 126.419, 123.463, 124.374, 0, 74.4419, 293.427, 279.075, 213.198
2, 1800.00000, 126.33, 123.187, 124.125, 0, 75.9221, 309.952, 294.378, 227.78
2, 2700.00000, 126.477, 123.489, 124.404, 0, 73.0399, 295.131, 280.071, 215.999
3, 0.00000, 126.688, 123.937, 124.791, 0, 69.5051, 273.33, 260.923, 198.784
3, 900.00000, 126.535, 123.507, 124.399, 0, 72.9228, 299.301, 285.226, 220.699
3, 1800.00000, 126.689, 123.873, 124.743, 0, 69.3612, 278.684, 265.156, 203.812
3, 2700.00000, 126.388, 123.343, 124.263, 0, 75.1243, 301.861, 287.179, 220.821
4, 0.00000, 126.457, 123.503, 124.408, 0, 74.7593, 294.269, 280.167, 213.817
4, 900.00000, 126.543, 123.716, 124.6, 0, 73.7763, 282.998, 270.085, 204.002
4, 1800.00000, 126.307, 123.269, 124.21, 0, 78.1168, 302.793, 288.585, 218.996
4, 2700.00000, 126.567, 123.717, 124.606, 0, 74.5042, 285.03, 271.891, 205.228
5, 0.00000, 126.448, 123.395, 124.318, 0, 74.7424, 301.324, 287.199, 220.922
5, 900.00000, 126.504, 123.558, 124.471, 0, 74.6412, 292.663, 278.593, 212.356
5, 1800.00000, 126.43, 123.536, 124.435, 0, 76.0915, 290.036, 276.862, 208.65
5, 2700.00000, 126.452, 123.426, 124.341, 0, 76.2559, 300.96, 286.58, 218.928
6, 0.00000, 126.658, 123.704, 124.598, 0, 74.2702, 293.451, 279.314, 213.485
6, 900.00000, 126.445, 123.348, 124.307, 0, 78.1893, 306.691, 291.758, 222.551
6, 1800.00000, 126.462, 123.473, 124.414, 0, 78.0661, 296.459, 284.807, 213.847
6, 2700.00000, 126.582, 123.636, 124.542, 0, 78.4, 293.588, 284.377, 211.702
7, 0.00000, 126.349, 123.169, 124.156, 0, 83.4409, 315.686, 304.018, 227.794
7, 900.00000, 126.286, 123.002, 124.034, 0, 88.1115, 327.349, 312.817, 233.63
7, 1800.00000, 126.551, 123.486, 124.45, 0, 82.767, 305.395, 294.394, 218.442
7, 2700.00000, 126.574, 123.535, 124.495, 0, 83.5862, 304.112, 293.085, 216.323
8, 0.00000, 126.441, 123.278, 124.281, 0, 85.2616, 314.506, 301.776, 224.371
8, 900.00000, 126.671, 123.718, 124.662, 0, 80.615, 293.681, 284.456, 209.63
8, 1800.00000, 126.526, 123.524, 124.451, 0, 85.5094, 302.268, 295.678, 214.54
8, 2700.00000, 125.623, 122.511, 123.492, 0, 89.3452, 313.185, 305.059, 221
9, 0.00000, 125.448, 122.229, 123.22, 0, 91.2777, 323.1, 314.809, 228.968
9, 900.00000, 125.507, 122.378, 123.357, 0, 89.4492, 314.625, 306.746, 222.453
9, 1800.00000, 126.204, 123.012, 124.022, 0, 92.2836, 322.665, 312.174, 226.532
9, 2700.00000, 126.446, 123.411, 124.364, 0, 86.322, 305.244, 296.86, 215.919
10, 0.00000, 126.457, 123.381, 124.32, 0, 84.9955, 308.067, 300.169, 220.281
10, 900.00000, 126.282, 123.179, 124.151, 0, 90.7497, 314.763, 305.393, 220.613
10, 1800.00000, 126.39, 123.483, 124.399, 0, 89.25, 297.542, 291.887, 206.49
10, 2700.00000, 128.036, 124.887, 125.869, 0, 92.192, 319.104, 311.717, 224.449
11, 0.00000, 126.221, 123.15, 124.128, 0, 90.8454, 311.676, 303.531, 217.972
11, 900.00000, 126.407, 123.539, 124.43, 0, 88.3686, 293.643, 289.642, 204.215
11, 1800.00000, 124.147, 120.869, 121.82, 0, 94.9014, 334.117, 326.14, 236.464
11, 2700.00000, 124.297, 121.07, 122, 0, 92.2529, 328.085, 319.797, 232.908
12, 0.00000, 124.507, 121.65, 122.532, 0, 86.7804, 292.794, 286.72, 203.949
12, 900.00000, 124.075, 120.854, 121.833, 0, 97.0759, 330.738, 321.221, 230.225
12, 1800.00000, 124.159, 120.926, 121.886, 0, 93.8517, 328.496, 320.427, 231.851
12, 2700.00000, 123.883, 120.703, 121.665, 0, 94.4314, 325.926, 316.834, 228.197
13, 0.00000, 124, 120.795, 121.773, 0, 92.32, 324.866, 315.43, 229.123
13, 900.00000, 123.862, 120.592, 121.588, 0, 94.9609, 332.224, 322.4, 233.642
13, 1800.00000, 123.392, 120.204, 121.165, 0, 92.8631, 324.014, 315.908, 227.923
13, 2700.00000, 122.937, 119.607, 120.641, 0, 99.5834, 340.169, 331.492, 236.695
14, 0.00000, 123.094, 119.882, 120.902, 0, 95.9961, 327.093, 319.17, 227.73
14, 900.00000, 123.179, 119.964, 120.976, 0, 93.6618, 325.759, 317.807, 228.768
14, 1800.00000, 123.349, 120.3, 121.274, 0, 92.2833, 311.293, 304.407, 216.386
14, 2700.00000, 118.916, 116.061, 116.904, 0, 90.1559, 299.247, 295.356, 207.313
15, 0.00000, 125.964, 122.657, 123.684, 0, 93.649, 332.045, 322.852, 235.19
15, 900.00000, 126.137, 123.004, 123.973, 0, 90.8734, 316.096, 310.069, 223.354
15, 1800.00000, 125.977, 122.681, 123.662, 0, 93.5642, 331.827, 325.798, 236.464
15, 2700.00000, 126.074, 123.067, 124.014, 0, 90.488, 305.389, 300.722, 213.609
16, 0.00000, 125.937, 122.729, 123.707, 0, 92.9777, 323.988, 318.268, 229.318
16, 900.00000, 125.959, 122.722, 123.683, 0, 92.5103, 326.905, 321.914, 233.024
16, 1800.00000, 125.951, 122.661, 123.627, 0, 94.2188, 333.202, 327.018, 237.087
16, 2700.00000, 126.065, 122.901, 123.869, 0, 93.2376, 321.818, 314.658, 226.199
17, 0.00000, 125.969, 122.738, 123.714, 0, 92.1859, 325.957, 318.96, 231.487
17, 900.00000, 126.003, 122.94, 123.868, 0, 92.9193, 314.807, 307.598, 219.422
17, 1800.00000, 127.587, 124.338, 125.29, 0, 97.5608, 334.761, 324.647, 233.536
17, 2700.00000, 127.596, 124.294, 125.241, 0, 95.8895, 338.782, 327.386, 238.652
18, 0.00000, 127.602, 124.355, 125.276, 0, 98.3122, 337.135, 326.581, 234.935
18, 900.00000, 127.113, 123.638, 124.622, 0, 108.659, 365.244, 351.809, 251.553
18, 1800.00000, 127.159, 123.749, 124.693, 0, 104.329, 355.951, 344.986, 247.63
18, 2700.00000, 131.404, 127.886, 128.878, 0, 104.282, 364.547, 350.378, 254.979
19, 0.00000, 131.212, 127.506, 128.562, 0, 108.737, 383.993, 366.283, 268.544
19, 900.00000, 131.302, 127.646, 128.672, 0, 107.503, 379.601, 362.748, 265.707
19, 1800.00000, 130.789, 127.15, 128.161, 0, 108.509, 379.254, 363.708, 264.901
19, 2700.00000, 130.676, 127.186, 128.206, 0, 106.914, 364.517, 350.946, 252.556
20, 0.00000, 130.787, 127.229, 128.253, 0, 105.362, 368.849, 353.455, 257.677
20, 900.00000, 125.079, 121.494, 122.523, 0, 103.715, 369.407, 356.584, 260.895
20, 1800.00000, 125.25, 121.698, 122.7, 0, 104.698, 367.854, 354.38, 258.082
20, 2700.00000, 124.958, 121.381, 122.371, 0, 104.937, 370.087, 358.505, 260.902
21, 0.00000, 124.808, 121.092, 122.148, 0, 106.4, 380.559, 366.48, 268.929
21, 900.00000, 125.032, 121.445, 122.454, 0, 104.562, 369.524, 357.18, 260.41
21, 1800.00000, 121.325, 117.882, 118.818, 0, 100.134, 357.603, 345.818, 252.166
21, 2700.00000, 121.331, 117.873, 118.81, 0, 99.4863, 358.939, 346.662, 253.915
22, 0.00000, 121.527, 118.084, 119.02, 0, 95.7971, 354.196, 340.463, 252.232
22, 900.00000, 121.46, 118.001, 118.966, 0, 96.7937, 356.069, 340.092, 252.144
22, 1800.00000, 121.462, 117.947, 118.921, 0, 94.504, 358.7, 341.772, 256.651
22, 2700.00000, 123.09, 119.792, 120.789, 0, 88.8551, 333.109, 316.3, 236.85
23, 0.00000, 123.013, 119.586, 120.619, 0, 89.5018, 344.043, 326.092, 246.531
23, 900.00000, 123.24, 120.032, 121.025, 0, 84.5883, 321.691, 305.23, 230.017
23, 1800.00000, 127.001, 123.657, 124.744, 0, 83.1831, 329.326, 308.818, 237.993
23, 2700.00000, 127.103, 123.764, 124.821, 0, 82.5992, 329.262, 309.824, 238.936
24, 0.00000, 127.027, 123.582, 124.671, 0, 84.9739, 340.098, 319.016, 246.757
24, 900.00000, 127.172, 123.897, 124.92, 0, 82.4114, 324.782, 306.488, 235.083
