hour, t(sec), |V|1 (volts), |V|2 (volts), |V|3 (volts), |V|4 (volts), |I|1 (amps), |I|2 (amps), |I|3 (amps), |I|4 (amps)
0, 900.00000, 123.102, 123.329, 125.424, 0, 324.727, 267.52, 158.705, 147.639
0, 1800.00000, 123.35, 123.558, 125.61, 0, 316.06, 261.199, 154.44, 143.834
0, 2700.00000, 123.487, 123.684, 125.655, 0, 304.24, 251.508, 149.465, 137.659
1, 0.00000, 123.257, 123.475, 125.475, 0, 313.646, 259.524, 155.134, 140.993
1, 900.00000, 123.361, 123.565, 125.526, 0, 309.024, 256.559, 154.707, 137.286
1, 1800.00000, 123.529, 123.734, 125.667, 0, 302.58, 250.529, 149.663, 135.995
1, 2700.00000, 123.481, 123.669, 125.662, 0, 302.481, 251.189, 145.54, 139.972
2, 0.00000, 123.37, 123.549, 125.616, 0, 308.105, 257.438, 146.33, 144.765
2, 900.00000, 123.55, 123.758, 125.728, 0, 301.767, 248.958, 145.11, 139.41
2, 1800.00000, 123.424, 123.636, 125.655, 0, 306.225, 252.308, 145.354, 143.239
2, 2700.00000, 123.73, 123.928, 125.867, 0, 297.023, 245.311, 143.452, 136.657
3, 0.00000, 124.086, 124.263, 126.077, 0, 281.676, 233.284, 139.662, 126.214
3, 900.00000, 123.849, 124.054, 125.915, 0, 291.829, 240.304, 144.185, 131.04
3, 1800.00000, 124.145, 124.292, 126.111, 0, 277.877, 231.957, 137.952, 124.684
3, 2700.00000, 123.626, 123.821, 125.787, 0, 301.235, 249.676, 146.578, 137.749
4, 0.00000, 123.774, 123.943, 125.874, 0, 294.355, 245.424, 144.576, 133.577
4, 900.00000, 123.927, 124.1, 125.981, 0, 287.829, 238.934, 141.72, 130.059
4, 1800.00000, 123.545, 123.734, 125.773, 0, 303.928, 251.553, 144.431, 142.242
4, 2700.00000, 124.017, 124.184, 126.109, 0, 285.327, 236.212, 135.287, 133.754
5, 0.00000, 123.819, 123.995, 125.945, 0, 292.017, 241.214, 140.021, 135.328
5, 900.00000, 123.951, 124.085, 126.057, 0, 285.709, 238.787, 134.85, 134.998
5, 1800.00000, 123.853, 124.036, 126.039, 0, 297.387, 246.682, 139.997, 140.511
5, 2700.00000, 123.951, 124.127, 126.095, 0, 291.228, 240.655, 137.028, 137.463
6, 0.00000, 124.318, 124.477, 126.377, 0, 276.134, 227.337, 127.595, 132.337
6, 900.00000, 123.971, 124.137, 126.145, 0, 290.821, 238.977, 134.973, 138.811
6, 1800.00000, 124.01, 124.191, 126.158, 0, 288.904, 234.848, 136.148, 135.486
6, 2700.00000, 124.334, 124.483, 126.365, 0, 273.26, 222.195, 130.043, 126.917
7, 0.00000, 124.009, 124.174, 126.166, 0, 285.597, 230.87, 133.798, 134.496
7, 900.00000, 123.925, 124.168, 126.212, 0, 291.86, 228.778, 128.229, 144.381
7, 1800.00000, 124.397, 124.546, 126.504, 0, 263.537, 209.935, 113.977, 132.483
7, 2700.00000, 124.509, 124.63, 126.593, 0, 256.963, 205.725, 109.023, 131.332
8, 0.00000, 124.331, 124.459, 126.485, 0, 262.184, 208.741, 108.584, 136.337
8, 900.00000, 124.689, 124.797, 126.696, 0, 247.301, 196.933, 105.869, 125.293
8, 1800.00000, 124.545, 124.653, 126.575, 0, 251.787, 201.097, 109.334, 126.232
8, 2700.00000, 124.167, 124.261, 126.316, 0, 262.087, 210.532, 110.933, 134.386
9, 0.00000, 123.884, 124.018, 126.206, 0, 272.972, 217.197, 106.816, 147.925
9, 900.00000, 124.002, 124.093, 126.24, 0, 266.193, 214.901, 107.356, 141.784
9, 1800.00000, 124.013, 124.164, 126.29, 0, 266.268, 210.13, 104.092, 144.055
9, 2700.00000, 124.328, 124.504, 126.505, 0, 254.936, 197.973, 99.6964, 137.302
10, 0.00000, 124.364, 124.522, 126.489, 0, 251.49, 196.69, 100.652, 133.482
10, 900.00000, 124.113, 124.3, 126.391, 0, 263.234, 204.932, 99.6331, 145.008
10, 1800.00000, 124.369, 124.472, 126.514, 0, 249.577, 199.112, 96.8765, 136.006
10, 2700.00000, 123.978, 124.107, 126.237, 0, 269.405, 215.738, 109.335, 142.518
11, 0.00000, 124.097, 124.214, 126.305, 0, 263.874, 211.027, 107.709, 138.925
11, 900.00000, 124.506, 124.589, 126.599, 0, 242.867, 194.364, 94.3813, 132.343
11, 1800.00000, 123.784, 124.039, 126.166, 0, 281.568, 217.846, 110.054, 151.682
11, 2700.00000, 124.06, 124.283, 126.32, 0, 268.382, 208.137, 105.902, 143.644
12, 0.00000, 124.401, 124.536, 126.546, 0, 252.106, 200.304, 98.3754, 136.722
12, 900.00000, 123.761, 123.934, 126.14, 0, 279.369, 222.012, 108.389, 152.245
12, 1800.00000, 123.868, 124.036, 126.19, 0, 274.068, 217.074, 107.747, 147.856
12, 2700.00000, 123.828, 124.026, 126.141, 0, 278.273, 219.91, 113.395, 146.267
13, 0.00000, 124.041, 124.197, 126.345, 0, 268.164, 212.039, 103.409, 146.511
13, 900.00000, 123.823, 124.004, 126.185, 0, 277.373, 218.628, 108.459, 150.037
13, 1800.00000, 123.754, 123.956, 126.143, 0, 280.323, 219.766, 108.671, 152.322
13, 2700.00000, 123.041, 123.201, 125.608, 0, 307.532, 247.612, 125.274, 162.704
14, 0.00000, 123.242, 123.389, 125.779, 0, 300.715, 242.41, 120.374, 161.157
14, 900.00000, 123.327, 123.49, 125.813, 0, 298.54, 239.712, 122.461, 156.966
14, 1800.00000, 123.698, 123.82, 126.038, 0, 280.698, 226.581, 115.235, 147.643
14, 2700.00000, 123.737, 123.906, 126.081, 0, 280.459, 223.071, 113.388, 148.535
15, 0.00000, 123.526, 123.797, 126.029, 0, 292.247, 224.556, 112.417, 158.985
15, 900.00000, 123.866, 124.049, 126.228, 0, 275.841, 216.766, 107.209, 149.714
15, 1800.00000, 123.683, 123.898, 126.082, 0, 286.306, 224.002, 115.303, 151.464
15, 2700.00000, 123.811, 123.999, 126.166, 0, 280.722, 221.626, 112.818, 149.031
16, 0.00000, 123.579, 123.778, 126.033, 0, 290.884, 230.123, 115.518, 155.874
16, 900.00000, 123.608, 123.799, 126.002, 0, 289.933, 230.821, 119.924, 151.071
16, 1800.00000, 123.719, 123.868, 126.083, 0, 281.497, 226.19, 113.278, 150.034
16, 2700.00000, 123.96, 124.126, 126.312, 0, 277.691, 220.901, 109.603, 149.6
17, 0.00000, 123.803, 123.952, 126.147, 0, 281.626, 225.932, 114.927, 148.501
17, 900.00000, 123.911, 124.049, 126.26, 0, 276.049, 223.558, 106.755, 151.576
17, 1800.00000, 123.727, 123.953, 126.189, 0, 291.503, 231.544, 111.209, 160.627
17, 2700.00000, 123.602, 123.922, 126.115, 0, 300.995, 234.209, 116.153, 163.773
18, 0.00000, 123.619, 123.934, 126.118, 0, 302.447, 236.697, 118.125, 163.438
18, 900.00000, 122.804, 123.197, 125.584, 0, 338.35, 265.591, 132.851, 182.495
18, 1800.00000, 122.786, 123.201, 125.531, 0, 339.374, 265.23, 136.57, 179.715
18, 2700.00000, 122.622, 123.086, 125.414, 0, 346.516, 268.277, 140.125, 182.518
19, 0.00000, 122.383, 122.806, 125.201, 0, 353.865, 278.441, 146.855, 183.568
19, 900.00000, 122.375, 122.899, 125.203, 0, 361.241, 278.313, 152.724, 183.95
19, 1800.00000, 122.294, 122.79, 125.133, 0, 361.773, 281.263, 152.527, 184.946
19, 2700.00000, 122.046, 122.477, 124.864, 0, 370.838, 295.791, 166.399, 181.297
20, 0.00000, 122.143, 122.611, 125.047, 0, 371.187, 292.684, 157.47, 189.486
20, 900.00000, 121.905, 122.274, 124.716, 0, 374.516, 304.31, 172.819, 179.555
20, 1800.00000, 122.181, 122.571, 124.98, 0, 367.176, 295.121, 163.213, 181.289
20, 2700.00000, 122.025, 122.409, 124.806, 0, 369.761, 298.308, 168.384, 178.967
21, 0.00000, 121.556, 122.111, 124.638, 0, 397.099, 309.213, 171.475, 199.512
21, 900.00000, 122.192, 122.523, 124.989, 0, 361.606, 293.399, 158.39, 181.262
21, 1800.00000, 122.261, 122.62, 124.966, 0, 357.247, 286.425, 161.201, 173.96
21, 2700.00000, 122.249, 122.623, 124.954, 0, 358.055, 286.721, 162.379, 173.539
22, 0.00000, 122.553, 122.943, 125.201, 0, 346.705, 274.259, 153.726, 170.752
22, 900.00000, 122.396, 122.79, 125.107, 0, 354.74, 281.485, 156.512, 175.597
22, 1800.00000, 122.31, 122.722, 125.043, 0, 359.436, 284.974, 159.539, 177.005
22, 2700.00000, 122.655, 122.967, 125.279, 0, 344.442, 278.736, 153.283, 170.107
23, 0.00000, 122.561, 122.841, 125.132, 0, 346.264, 282.505, 161.363, 164.54
23, 900.00000, 122.896, 123.149, 125.387, 0, 333.251, 272.892, 153.248, 160.416
23, 1800.00000, 122.772, 123.005, 125.277, 0, 338.669, 279.042, 158.434, 160.814
23, 2700.00000, 122.968, 123.213, 125.446, 0, 330.517, 270.697, 151.652, 159.425
24, 0.00000, 122.844, 123.094, 125.355, 0, 336.69, 276.069, 155.722, 161.315
24, 900.00000, 123.102, 123.328, 125.424, 0, 324.738, 267.527, 158.708, 147.646
