hour, t(sec), |V|1 (volts), |V|2 (volts), |V|3 (volts), |V|4 (volts), |I|1 (amps), |I|2 (amps), |I|3 (amps), |I|4 (amps)
0, 900.00000, 123.87, 123.423, 124.618, 0, 138.486, 138.86, 123.46, 15.87
0, 1800.00000, 124.144, 123.704, 124.855, 0, 132.719, 133.174, 119.09, 14.476
0, 2700.00000, 123.957, 123.532, 124.627, 0, 132.308, 132.718, 120.148, 12.9642
1, 0.00000, 123.864, 123.447, 124.545, 0, 129.892, 130.097, 117.483, 13.0942
1, 900.00000, 123.969, 123.559, 124.638, 0, 127.087, 127.257, 115.157, 12.5785
1, 1800.00000, 124.03, 123.623, 124.678, 0, 127.472, 127.755, 116.01, 12.1605
1, 2700.00000, 123.967, 123.553, 124.641, 0, 127.744, 127.955, 114.697, 13.7041
2, 0.00000, 123.873, 123.449, 124.535, 0, 130.104, 130.782, 118.239, 12.809
2, 900.00000, 124.064, 123.652, 124.714, 0, 126.28, 126.521, 114.542, 12.4062
2, 1800.00000, 123.98, 123.56, 124.65, 0, 125.993, 126.231, 113.532, 13.1346
2, 2700.00000, 124.179, 123.77, 124.815, 0, 123.015, 123.319, 111.926, 11.7746
3, 0.00000, 124.507, 124.119, 125.111, 0, 116.175, 116.38, 106.012, 10.7461
3, 900.00000, 124.339, 123.942, 124.973, 0, 117.419, 117.675, 106.458, 11.5927
3, 1800.00000, 124.798, 124.41, 125.399, 0, 115.337, 115.443, 105.38, 10.4836
3, 2700.00000, 124.367, 123.952, 125.005, 0, 123.56, 124.123, 112.938, 11.4682
4, 0.00000, 124.485, 124.073, 125.116, 0, 121.302, 121.932, 110.862, 11.3087
4, 900.00000, 124.616, 124.209, 125.227, 0, 118.975, 119.638, 109.315, 10.5354
4, 1800.00000, 124.231, 123.795, 124.886, 0, 128.241, 128.998, 117.275, 11.9621
4, 2700.00000, 124.865, 124.449, 125.483, 0, 120.782, 121.472, 110.329, 11.3423
5, 0.00000, 124.744, 124.325, 125.392, 0, 119.702, 119.936, 108.308, 12.0336
5, 900.00000, 124.781, 124.363, 125.42, 0, 121.481, 121.833, 110.257, 11.9295
5, 1800.00000, 124.661, 124.24, 125.283, 0, 125.265, 125.938, 115.101, 11.0766
5, 2700.00000, 124.755, 124.333, 125.401, 0, 121.246, 121.836, 109.625, 12.4593
6, 0.00000, 125.073, 124.651, 125.707, 0, 115.804, 116.507, 103.724, 12.9359
6, 900.00000, 124.749, 124.295, 125.431, 0, 122.712, 123.586, 109.68, 14.0518
6, 1800.00000, 124.828, 124.369, 125.525, 0, 119.534, 120.257, 106.122, 14.3385
6, 2700.00000, 125.423, 125.086, 126.115, 0, 108.97, 110.521, 95.5356, 15.1633
7, 0.00000, 125.046, 124.68, 125.784, 0, 118.21, 119.838, 103.853, 16.2046
7, 900.00000, 124.953, 124.565, 125.716, 0, 123.126, 124.705, 106.74, 18.2058
7, 1800.00000, 125.674, 125.431, 126.37, 0, 104.804, 106.811, 91.4353, 15.7573
7, 2700.00000, 125.729, 125.485, 126.429, 0, 104.125, 106.14, 90.2847, 16.2198
8, 0.00000, 125.511, 125.256, 126.251, 0, 109.086, 110.616, 93.3311, 17.8448
8, 900.00000, 125.906, 125.675, 126.601, 0, 98.7358, 99.859, 85.0718, 15.4664
8, 1800.00000, 125.745, 125.512, 126.477, 0, 101.982, 102.99, 86.9129, 16.8201
8, 2700.00000, 125.658, 125.501, 126.414, 0, 104.756, 106.567, 89.3717, 17.9895
9, 0.00000, 125.431, 125.271, 126.194, 0, 108.121, 109.457, 92.2747, 18.1737
9, 900.00000, 125.484, 125.336, 126.228, 0, 107.62, 108.872, 92.9812, 16.9227
9, 1800.00000, 126.108, 126.168, 126.797, 0, 102.915, 106.262, 91.5751, 15.7994
9, 2700.00000, 126.518, 126.601, 127.166, 0, 91.4043, 94.329, 81.1215, 14.4065
10, 0.00000, 126.517, 126.616, 127.173, 0, 90.7157, 93.3968, 80.1781, 14.4725
10, 900.00000, 126.23, 126.308, 126.906, 0, 100.211, 103.193, 88.6684, 15.7004
10, 1800.00000, 126.382, 126.47, 127.078, 0, 97.8798, 100.747, 84.892, 16.9998
10, 2700.00000, 127.037, 127.421, 127.703, 0, 92.7889, 98.1142, 83.5794, 16.454
11, 0.00000, 127.096, 127.483, 127.769, 0, 93.0956, 98.1532, 83.0238, 17.0148
11, 900.00000, 127.389, 127.801, 128.059, 0, 86.4409, 91.3121, 75.3954, 17.7299
11, 1800.00000, 127.162, 127.646, 127.82, 0, 95.7333, 101.488, 86.4525, 17.1957
11, 2700.00000, 127.442, 127.938, 128.101, 0, 87.0898, 92.8144, 76.9225, 17.9516
12, 0.00000, 127.634, 128.146, 128.258, 0, 85.9364, 91.4607, 77.0126, 16.6346
12, 900.00000, 127.091, 127.561, 127.767, 0, 96.6962, 102.799, 86.6974, 18.1446
12, 1800.00000, 127.186, 127.661, 127.874, 0, 94.1209, 100.057, 83.3295, 18.7213
12, 2700.00000, 127.332, 127.874, 127.974, 0, 90.5431, 97.1712, 82.7192, 16.8905
13, 0.00000, 127.455, 127.984, 128.105, 0, 89.5272, 96.0698, 80.997, 17.4273
13, 900.00000, 127.287, 127.807, 127.954, 0, 92.5206, 99.0916, 83.4933, 17.9035
13, 1800.00000, 127.262, 127.782, 127.916, 0, 90.9733, 97.4294, 82.2135, 17.5663
13, 2700.00000, 126.572, 127.046, 127.288, 0, 106.265, 113.079, 96.8432, 18.5423
14, 0.00000, 126.689, 127.173, 127.37, 0, 107.056, 113.735, 99.2334, 17.0074
14, 900.00000, 126.803, 127.3, 127.455, 0, 103.998, 110.573, 97.784, 15.5301
14, 1800.00000, 127.151, 127.67, 127.8, 0, 94.1745, 100.391, 86.9554, 16.0352
14, 2700.00000, 127.382, 127.923, 128.023, 0, 89.4492, 95.8202, 81.8502, 16.5296
15, 0.00000, 127.251, 127.771, 127.894, 0, 92.3376, 98.6798, 85.1115, 16.197
15, 900.00000, 127.499, 128.033, 128.139, 0, 87.1197, 93.5309, 79.7015, 16.4099
15, 1800.00000, 127.32, 127.822, 128.001, 0, 89.6862, 95.7758, 80.4736, 17.6046
15, 2700.00000, 127.331, 127.845, 127.993, 0, 93.2885, 99.3767, 84.6184, 17.1046
16, 0.00000, 127.163, 127.664, 127.84, 0, 95.5813, 101.872, 86.8231, 17.3767
16, 900.00000, 127.29, 127.801, 127.959, 0, 89.2747, 95.5858, 81.1018, 16.8776
16, 1800.00000, 127.309, 127.822, 127.993, 0, 88.9272, 95.3398, 79.5459, 18.0282
16, 2700.00000, 126.826, 127.129, 127.52, 0, 98.7042, 103.926, 87.8758, 17.5853
17, 0.00000, 126.703, 127.01, 127.422, 0, 98.7943, 103.629, 86.998, 18.1967
17, 900.00000, 126.652, 126.975, 127.34, 0, 104.283, 109.855, 92.9946, 18.2866
17, 1800.00000, 125.591, 125.574, 126.34, 0, 118.439, 121.951, 102.304, 20.2752
17, 2700.00000, 125.544, 125.54, 126.255, 0, 120.035, 123.631, 105.721, 18.5601
18, 0.00000, 125.504, 125.498, 126.233, 0, 124.19, 128.305, 108.441, 20.3173
18, 900.00000, 124.67, 124.645, 125.443, 0, 145.95, 150.623, 129.626, 21.4014
18, 1800.00000, 124.71, 124.703, 125.491, 0, 143.53, 147.65, 126.365, 21.8125
18, 2700.00000, 123.389, 123.034, 124.234, 0, 161.089, 162.93, 140.806, 22.4253
19, 0.00000, 123.128, 122.756, 124.011, 0, 165.708, 167.987, 144.455, 23.7061
19, 900.00000, 123.226, 122.866, 124.078, 0, 165.526, 167.689, 145.209, 22.6842
19, 1800.00000, 122.814, 122.34, 123.707, 0, 169.537, 170.75, 147.29, 23.7191
19, 2700.00000, 122.548, 122.074, 123.443, 0, 175.714, 176.851, 155.189, 22.039
20, 0.00000, 122.679, 122.196, 123.55, 0, 175.211, 176.476, 154.652, 22.1106
20, 900.00000, 122.357, 121.884, 123.254, 0, 180.22, 181.124, 161.078, 20.5955
20, 1800.00000, 122.72, 122.238, 123.625, 0, 172.559, 173.744, 150.605, 23.4548
20, 2700.00000, 122.718, 122.247, 123.632, 0, 168.406, 169.123, 146.664, 22.9768
21, 0.00000, 122.243, 121.742, 123.155, 0, 186.071, 186.834, 164.953, 22.4988
21, 900.00000, 122.8, 122.304, 123.705, 0, 168.777, 170.016, 147.27, 23.0357
21, 1800.00000, 122.979, 122.492, 123.874, 0, 163.862, 164.478, 142.332, 22.6716
21, 2700.00000, 123.069, 122.587, 123.918, 0, 158.544, 159.369, 139.769, 20.0122
22, 0.00000, 123.353, 122.878, 124.175, 0, 153.534, 154.208, 134.856, 19.771
22, 900.00000, 123.179, 122.695, 124.009, 0, 159.312, 160.049, 140.207, 20.2639
22, 1800.00000, 123.163, 122.682, 123.969, 0, 158.219, 158.939, 140.586, 18.7836
22, 2700.00000, 123.43, 122.95, 124.186, 0, 155.776, 156.727, 140.508, 16.5343
23, 0.00000, 123.42, 122.937, 124.19, 0, 151.245, 151.901, 136.422, 15.9297
23, 900.00000, 123.751, 123.286, 124.48, 0, 144.671, 145.165, 130.731, 14.8877
23, 1800.00000, 123.513, 123.041, 124.262, 0, 148.668, 148.969, 134.38, 15.1673
23, 2700.00000, 123.774, 123.309, 124.494, 0, 140.274, 140.702, 127.01, 14.1585
24, 0.00000, 123.654, 123.185, 124.38, 0, 143.395, 143.857, 130.398, 13.9403
24, 900.00000, 123.869, 123.423, 124.618, 0, 138.49, 138.863, 123.462, 15.8713
