hour, t(sec), |V|1 (volts), |V|2 (volts), |V|3 (volts), |V|4 (volts), |I|1 (amps), |I|2 (amps), |I|3 (amps), |I|4 (amps)
0, 900.00000, 121.43, 119.882, 121.469, 0, 58.3151, 80.6879, 65.416, 20.1232
0, 1800.00000, 121.569, 120.05, 121.628, 0, 57.8953, 79.8507, 64.5913, 19.8184
0, 2700.00000, 124.403, 122.928, 124.453, 0, 51.636, 72.539, 58.304, 18.8258
1, 0.00000, 124.136, 122.503, 124.063, 0, 55.1283, 79.2277, 64.0972, 21.4602
1, 900.00000, 124.161, 122.534, 124.087, 0, 55.5139, 79.5796, 64.4412, 21.4332
1, 1800.00000, 126.195, 124.556, 126.05, 0, 51.6753, 75.9189, 61.8194, 21.4277
1, 2700.00000, 126.025, 124.366, 125.89, 0, 54.2415, 78.7772, 64.0433, 21.7477
2, 0.00000, 125.948, 124.231, 125.776, 0, 55.0524, 80.6995, 65.7513, 22.6814
2, 900.00000, 126.115, 124.466, 125.995, 0, 53.3252, 77.6333, 63.0529, 21.5439
2, 1800.00000, 125.82, 124.157, 125.758, 0, 58.1184, 82.5122, 66.7157, 21.815
2, 2700.00000, 126.414, 124.772, 126.311, 0, 54.888, 79.0806, 64.2163, 21.4928
3, 0.00000, 126.779, 125.416, 126.875, 0, 50.3697, 69.3729, 55.6139, 17.3004
3, 900.00000, 126.349, 124.99, 126.551, 0, 57.399, 76.1283, 60.5371, 17.7126
3, 1800.00000, 125.38, 123.985, 125.478, 0, 53.1149, 72.9229, 58.438, 18.0727
3, 2700.00000, 124.987, 123.472, 125.04, 0, 57.0298, 78.8558, 63.4602, 19.785
4, 0.00000, 125.117, 123.664, 125.211, 0, 55.5519, 76.2076, 61.1614, 18.8438
4, 900.00000, 125.331, 124.011, 125.522, 0, 52.302, 70.3731, 56.1276, 16.811
4, 1800.00000, 124.995, 123.459, 125.059, 0, 55.6415, 77.4587, 62.3928, 19.7148
4, 2700.00000, 124.755, 123.266, 124.794, 0, 52.5467, 73.8867, 59.5171, 19.1832
5, 0.00000, 124.394, 122.805, 124.43, 0, 57.6998, 80.6813, 64.9158, 20.7387
5, 900.00000, 124.55, 122.984, 124.567, 0, 55.4947, 78.1982, 62.9788, 20.4014
5, 1800.00000, 124.092, 122.408, 123.961, 0, 53.711, 78.9305, 64.0878, 22.3147
5, 2700.00000, 123.954, 122.333, 123.929, 0, 57.0332, 80.881, 65.3011, 21.3488
6, 0.00000, 124.177, 122.663, 124.229, 0, 55.6182, 77.4163, 62.2933, 19.6999
6, 900.00000, 123.932, 122.377, 124.041, 0, 57.2562, 79.1353, 63.6036, 19.8903
6, 1800.00000, 124.091, 122.557, 124.232, 0, 53.6061, 74.614, 60.064, 19.0263
6, 2700.00000, 124.329, 123.494, 124.977, 0, 49.8033, 58.1429, 43.6062, 9.57455
7, 0.00000, 123.969, 122.982, 124.591, 0, 53.7487, 64.4239, 48.7598, 10.8988
7, 900.00000, 124.023, 123.029, 124.653, 0, 52.2864, 62.7296, 47.2424, 10.7146
7, 1800.00000, 125.592, 125.073, 126.507, 0, 47.7517, 50.5666, 35.2661, 9.1788
7, 2700.00000, 125.617, 125.044, 126.487, 0, 47.8565, 51.7253, 36.2871, 8.66976
8, 0.00000, 125.436, 124.666, 126.17, 0, 49.2946, 56.5943, 40.4925, 7.94668
8, 900.00000, 125.682, 124.963, 126.458, 0, 47.1734, 53.6854, 37.9, 7.88495
8, 1800.00000, 125.532, 124.963, 126.492, 0, 48.7084, 52.2046, 35.9326, 9.72884
8, 2700.00000, 124.839, 124.527, 125.955, 0, 46.6997, 46.6936, 30.6672, 11.8397
9, 0.00000, 124.589, 123.838, 125.33, 0, 48.7904, 56.9015, 39.4867, 6.74283
9, 900.00000, 124.665, 124.048, 125.512, 0, 48.0194, 53.8381, 36.7278, 7.7328
9, 1800.00000, 126.389, 126.597, 127.677, 0, 40.867, 37.8215, 26.1111, 19.0321
9, 2700.00000, 126.663, 126.908, 127.938, 0, 38.1609, 35.2647, 24.9986, 19.2212
10, 0.00000, 126.528, 126.719, 127.777, 0, 40.9392, 38.486, 26.3684, 18.3676
10, 900.00000, 126.543, 126.656, 127.697, 0, 38.8532, 37.899, 26.2732, 16.7414
10, 1800.00000, 126.721, 126.726, 127.74, 0, 36.6482, 37.9238, 26.5147, 14.1988
10, 2700.00000, 127.283, 128.33, 128.883, 0, 32.9352, 36.8487, 38.2595, 33.7665
11, 0.00000, 127.456, 128.57, 129.093, 0, 30.3309, 36.2922, 39.524, 34.9748
11, 900.00000, 127.733, 128.877, 129.335, 0, 27.4352, 36.1497, 40.6692, 35.1119
11, 1800.00000, 127.511, 129.047, 129.414, 0, 31.0197, 40.0156, 46.4376, 42.8175
11, 2700.00000, 127.607, 129.218, 129.559, 0, 31.1675, 40.0978, 46.9949, 44.1131
12, 0.00000, 128.064, 129.629, 129.873, 0, 24.6782, 41.4446, 49.5773, 42.5712
12, 900.00000, 127.506, 128.929, 129.297, 0, 30.3506, 39.9173, 45.695, 40.723
12, 1800.00000, 127.517, 129.113, 129.482, 0, 30.6985, 40.2807, 47.3105, 44.2034
12, 2700.00000, 128.298, 130.115, 130.354, 0, 28.6213, 43.6365, 52.4167, 47.7864
13, 0.00000, 128.315, 130.06, 130.342, 0, 29.1179, 43.1798, 51.4655, 46.7551
13, 900.00000, 128.206, 129.912, 130.212, 0, 29.5039, 42.9821, 50.9484, 46.1858
13, 1800.00000, 129.01, 130.556, 130.829, 0, 27.8002, 42.2498, 49.4814, 42.7135
13, 2700.00000, 128.582, 129.905, 130.288, 0, 29.9173, 41.7003, 46.8903, 39.3494
14, 0.00000, 128.782, 130.105, 130.461, 0, 27.8227, 41.8301, 47.6771, 39.1021
14, 900.00000, 128.78, 130.222, 130.582, 0, 28.8182, 41.9102, 48.3405, 41.2717
14, 1800.00000, 129.023, 130.464, 130.776, 0, 26.6634, 42.1866, 49.1839, 40.886
14, 2700.00000, 129.901, 131.359, 131.616, 0, 26.3806, 42.2108, 49.2373, 40.662
15, 0.00000, 129.708, 131.148, 131.483, 0, 28.6223, 41.8737, 48.2836, 40.9488
15, 900.00000, 129.857, 131.338, 131.649, 0, 27.9986, 41.9753, 48.792, 41.4169
15, 1800.00000, 129.843, 131.303, 131.697, 0, 31.4041, 40.2174, 45.8794, 41.2977
15, 2700.00000, 130.237, 131.63, 131.923, 0, 25.0802, 40.9558, 47.9443, 39.3833
16, 0.00000, 129.932, 131.327, 131.685, 0, 29.2254, 40.316, 46.1442, 39.8042
16, 900.00000, 129.827, 131.288, 131.659, 0, 31.6651, 40.1782, 45.6143, 40.9888
16, 1800.00000, 129.753, 131.24, 131.605, 0, 33.2614, 40.1284, 45.1228, 41.4457
16, 2700.00000, 128.261, 129.09, 129.757, 0, 34.2635, 34.8716, 33.211, 29.4977
17, 0.00000, 128.089, 128.876, 129.564, 0, 35.864, 35.8562, 32.9523, 28.8924
17, 900.00000, 128.347, 129.052, 129.582, 0, 32.0375, 35.2185, 32.9836, 26.0535
17, 1800.00000, 125.368, 124.946, 125.991, 0, 43.3227, 49.5799, 34.3268, 6.11223
17, 2700.00000, 125.394, 125.024, 126.017, 0, 43.0944, 48.7461, 33.7678, 6.60548
18, 0.00000, 125.531, 125.219, 126.141, 0, 41.461, 46.4695, 32.2046, 7.05931
18, 900.00000, 125.164, 124.727, 125.651, 0, 43.4485, 50.724, 35.5868, 4.89806
18, 1800.00000, 125.266, 124.794, 125.673, 0, 41.2821, 49.3915, 34.9286, 3.70806
18, 2700.00000, 122.668, 120.853, 122.334, 0, 54.1897, 82.3441, 65.7654, 22.9408
19, 0.00000, 122.348, 120.639, 122.156, 0, 58.5092, 84.5483, 67.2383, 21.1537
19, 900.00000, 122.579, 120.964, 122.409, 0, 55.3921, 79.9002, 63.4804, 19.7891
19, 1800.00000, 121.353, 119.375, 120.943, 0, 60.0956, 91.1191, 75.6636, 27.1165
19, 2700.00000, 121.349, 119.196, 120.753, 0, 57.69, 92.1178, 77.4484, 30.124
20, 0.00000, 121.378, 119.013, 120.562, 0, 58.7472, 97.3682, 82.5852, 33.9435
20, 900.00000, 121.077, 118.864, 120.471, 0, 61.3552, 96.9559, 81.7615, 31.1525
20, 1800.00000, 124.056, 121.75, 123.431, 0, 59.4498, 96.015, 79.6346, 32.212
20, 2700.00000, 123.909, 121.67, 123.4, 0, 61.3523, 96.4921, 79.4604, 30.9335
21, 0.00000, 123.949, 121.452, 123.188, 0, 57.7222, 97.3713, 81.2683, 35.0626
21, 900.00000, 123.899, 121.591, 123.36, 0, 62.1279, 98.286, 81.1391, 31.8491
21, 1800.00000, 124.005, 121.805, 123.56, 0, 60.8819, 94.8172, 78.0452, 29.8902
21, 2700.00000, 123.938, 121.932, 123.689, 0, 62.2427, 92.5547, 75.5378, 26.7972
22, 0.00000, 124.14, 122.11, 123.831, 0, 60.9352, 91.8135, 75.1818, 27.2382
22, 900.00000, 124.137, 121.982, 123.686, 0, 60.0742, 93.3716, 76.9104, 29.317
22, 1800.00000, 124.019, 121.812, 123.536, 0, 62.0753, 96.4741, 79.4659, 30.2886
22, 2700.00000, 124.433, 122.155, 123.807, 0, 55.8448, 91.6992, 76.3348, 31.6226
23, 0.00000, 124.14, 121.971, 123.722, 0, 60.4836, 93.874, 77.3036, 29.4109
23, 900.00000, 124.513, 122.334, 123.995, 0, 55.7628, 89.6709, 74.3184, 29.8637
23, 1800.00000, 124.338, 122.13, 123.834, 0, 57.9529, 92.1954, 76.3247, 30.1596
23, 2700.00000, 124.349, 122.224, 123.941, 0, 59.4013, 92.1108, 75.8467, 28.8022
24, 0.00000, 124.193, 122.122, 123.878, 0, 61.8921, 93.4881, 76.5161, 27.8739
24, 900.00000, 124.499, 122.89, 124.535, 0, 58.0401, 80.9563, 65.109, 20.7198
