hour, t(sec), |V|1 (volts), |V|2 (volts), |V|3 (volts), |V|4 (volts), |I|1 (amps), |I|2 (amps), |I|3 (amps), |I|4 (amps)
0, 900.00000, 121.563, 121.378, 122.169, 0, 169.783, 159.228, 151.942, 15.6082
0, 1800.00000, 121.785, 121.597, 122.391, 0, 163.757, 153.814, 145.744, 15.732
0, 2700.00000, 124.516, 124.305, 125.089, 0, 152.107, 142.728, 134.961, 14.9503
1, 0.00000, 124.302, 124.108, 124.889, 0, 158.676, 148.496, 140.841, 15.5642
1, 900.00000, 124.29, 124.097, 124.88, 0, 161.503, 151.568, 143.442, 15.7538
1, 1800.00000, 126.267, 126.062, 126.825, 0, 154.156, 144.31, 136.897, 15.0434
1, 2700.00000, 126.202, 125.968, 126.758, 0, 155.545, 146.947, 138.209, 15.1137
2, 0.00000, 126.136, 125.907, 126.702, 0, 157.352, 148.45, 139.788, 15.3096
2, 900.00000, 126.334, 126.108, 126.891, 0, 150.901, 141.958, 133.611, 15.0602
2, 1800.00000, 126.181, 125.942, 126.751, 0, 156.381, 147.711, 138.497, 15.603
2, 2700.00000, 126.657, 126.43, 127.215, 0, 153.705, 144.873, 136.204, 15.2495
3, 0.00000, 127.064, 126.831, 127.601, 0, 138.622, 130.98, 121.937, 14.5794
3, 900.00000, 126.747, 126.517, 127.308, 0, 151.57, 143.41, 133.881, 15.4609
3, 1800.00000, 125.715, 125.487, 126.274, 0, 143.424, 136.202, 126.002, 15.3202
3, 2700.00000, 125.308, 125.083, 125.894, 0, 155.485, 147.157, 137.297, 15.9181
4, 0.00000, 125.403, 125.182, 125.978, 0, 153.169, 144.851, 135.483, 15.4607
4, 900.00000, 125.577, 125.348, 126.138, 0, 146.743, 139.084, 129.835, 14.8061
4, 1800.00000, 125.31, 125.059, 125.9, 0, 153.067, 145.345, 135.127, 15.7586
4, 2700.00000, 125.023, 124.801, 125.577, 0, 146.249, 138.147, 129.729, 14.4213
5, 0.00000, 124.738, 124.51, 125.316, 0, 156.775, 148.401, 139.335, 15.2425
5, 900.00000, 124.908, 124.664, 125.479, 0, 149.773, 142.535, 132.459, 15.2329
5, 1800.00000, 124.256, 124.056, 124.824, 0, 155.27, 146.076, 138.372, 14.7409
5, 2700.00000, 124.217, 124.009, 124.779, 0, 158.919, 149.895, 142.162, 14.6162
6, 0.00000, 124.549, 124.336, 125.086, 0, 148.824, 140.316, 132.954, 13.833
6, 900.00000, 124.282, 124.05, 124.851, 0, 155.926, 146.931, 139.465, 14.3579
6, 1800.00000, 124.359, 124.116, 124.923, 0, 151.942, 142.815, 136.404, 13.5725
6, 2700.00000, 124.741, 124.593, 125.302, 0, 129.05, 121.352, 113.805, 13.2756
7, 0.00000, 124.303, 124.148, 124.892, 0, 145.55, 136.78, 129.821, 13.703
7, 900.00000, 124.373, 124.21, 124.933, 0, 141.065, 131.833, 126.623, 12.6414
7, 1800.00000, 126.03, 125.952, 126.571, 0, 119.938, 112.9, 106.399, 11.8022
7, 2700.00000, 126.051, 125.977, 126.584, 0, 120.248, 113.023, 107.091, 11.4697
8, 0.00000, 125.85, 125.769, 126.382, 0, 126.037, 118.16, 112.967, 11.416
8, 900.00000, 126.084, 126.021, 126.614, 0, 120.785, 112.729, 108.084, 11.1402
8, 1800.00000, 126.09, 126.007, 126.639, 0, 116.551, 109.405, 103.149, 11.6843
8, 2700.00000, 125.368, 125.382, 125.929, 0, 109.767, 102.003, 96.5951, 11.5901
9, 0.00000, 125.072, 125.093, 125.624, 0, 118.921, 110.247, 106.145, 11.3517
9, 900.00000, 125.226, 125.236, 125.796, 0, 112.095, 104.615, 98.4752, 11.9579
9, 1800.00000, 126.779, 127.013, 127.337, 0, 94.7628, 86.8166, 82.4966, 11.3197
9, 2700.00000, 127.04, 127.281, 127.579, 0, 87.8595, 80.462, 76.3614, 10.6978
10, 0.00000, 126.912, 127.182, 127.452, 0, 94.6885, 86.0575, 82.9564, 11.047
10, 900.00000, 126.824, 127.075, 127.358, 0, 94.7542, 86.5319, 83.3616, 10.6799
10, 1800.00000, 126.907, 127.181, 127.432, 0, 93.8463, 84.7855, 82.9106, 10.5988
10, 2700.00000, 127.394, 127.982, 127.987, 0, 79.9186, 71.6409, 68.9094, 12.2523
11, 0.00000, 127.566, 128.148, 128.146, 0, 73.5622, 65.8114, 63.4466, 11.8235
11, 900.00000, 127.879, 128.457, 128.414, 0, 64.9214, 58.6067, 56.9622, 10.2817
11, 1800.00000, 127.708, 128.38, 128.292, 0, 69.5397, 63.0089, 60.3609, 12.1044
11, 2700.00000, 127.797, 128.494, 128.347, 0, 69.6529, 62.5069, 61.2594, 11.4121
12, 0.00000, 128.169, 128.85, 128.703, 0, 59.2034, 54.303, 53.0853, 10.459
12, 900.00000, 127.494, 128.166, 128.063, 0, 77.1453, 69.7511, 67.6715, 11.5268
12, 1800.00000, 127.805, 128.462, 128.374, 0, 65.5473, 59.5967, 57.443, 11.508
12, 2700.00000, 128.309, 129.057, 128.891, 0, 70.9301, 64.1397, 62.5098, 11.7427
13, 0.00000, 128.539, 129.255, 129.119, 0, 64.5963, 59.1885, 57.364, 11.4203
13, 900.00000, 128.349, 129.065, 128.938, 0, 68.6316, 62.4929, 60.4881, 11.6824
13, 1800.00000, 129.064, 129.795, 129.643, 0, 68.2908, 61.598, 60.4166, 11.4964
13, 2700.00000, 128.468, 129.181, 129.105, 0, 81.5282, 72.7766, 70.8379, 13.0486
14, 0.00000, 128.802, 129.505, 129.445, 0, 70.7797, 63.6777, 61.2565, 13.0278
14, 900.00000, 128.887, 129.606, 129.537, 0, 69.2402, 62.0965, 59.781, 13.3802
14, 1800.00000, 128.997, 129.732, 129.608, 0, 69.3066, 62.0909, 60.7736, 12.2414
14, 2700.00000, 129.88, 130.657, 130.47, 0, 67.8648, 60.1988, 60.0857, 12.1334
15, 0.00000, 129.789, 130.535, 130.393, 0, 69.5921, 62.083, 61.3032, 12.0879
15, 900.00000, 129.981, 130.739, 130.576, 0, 66.243, 59.2724, 58.7269, 11.812
15, 1800.00000, 130.033, 130.76, 130.64, 0, 71.2014, 63.1241, 62.1821, 12.3141
15, 2700.00000, 130.241, 130.979, 130.826, 0, 64.3218, 57.1181, 56.9782, 11.7646
16, 0.00000, 130.034, 130.752, 130.643, 0, 69.7274, 62.1991, 60.8833, 12.155
16, 900.00000, 129.911, 130.649, 130.529, 0, 75.709, 67.2139, 65.8531, 12.5967
16, 1800.00000, 129.91, 130.632, 130.522, 0, 76.1142, 68.4307, 66.2153, 12.2696
16, 2700.00000, 128.36, 128.881, 128.929, 0, 85.0844, 75.7372, 74.2499, 11.6501
17, 0.00000, 128.225, 128.736, 128.808, 0, 87.642, 78.4088, 76.1192, 12.0287
17, 900.00000, 128.332, 128.874, 128.873, 0, 83.842, 74.6167, 73.3826, 11.4167
17, 1800.00000, 125.398, 125.617, 125.917, 0, 120.229, 109.929, 107.824, 11.691
17, 2700.00000, 125.406, 125.644, 125.929, 0, 119.609, 109.003, 106.651, 12.1788
18, 0.00000, 125.507, 125.777, 126.009, 0, 115.929, 103.935, 103.511, 12.4144
18, 900.00000, 124.858, 125.14, 125.391, 0, 135.997, 123.037, 122.318, 13.4896
18, 1800.00000, 124.991, 125.269, 125.52, 0, 128.352, 115.697, 114.593, 13.4295
18, 2700.00000, 122.276, 122.257, 122.801, 0, 182.398, 167.693, 168.584, 13.9606
19, 0.00000, 121.918, 121.879, 122.48, 0, 195.932, 182.146, 180.614, 14.3891
19, 900.00000, 122.092, 122.072, 122.654, 0, 189.833, 175.593, 174.21, 14.7609
19, 1800.00000, 120.895, 120.762, 121.453, 0, 205.892, 192.376, 190.482, 14.3298
19, 2700.00000, 120.657, 120.55, 121.266, 0, 212.673, 197.751, 195.744, 15.8624
20, 0.00000, 120.76, 120.66, 121.348, 0, 211.145, 195.704, 194.667, 15.7032
20, 900.00000, 120.629, 120.494, 121.313, 0, 210.084, 196.621, 190.046, 17.8182
20, 1800.00000, 123.638, 123.477, 124.243, 0, 202.695, 188.406, 185.15, 15.9768
20, 2700.00000, 123.519, 123.338, 124.146, 0, 206.9, 193.678, 188.681, 16.2204
21, 0.00000, 123.562, 123.378, 124.198, 0, 198.112, 183.622, 179.645, 16.6722
21, 900.00000, 123.701, 123.505, 124.32, 0, 199.504, 186.416, 181.632, 15.9255
21, 1800.00000, 123.806, 123.608, 124.421, 0, 196.148, 182.894, 178.209, 16.004
21, 2700.00000, 123.788, 123.571, 124.416, 0, 197.19, 185.605, 178.785, 16.1377
22, 0.00000, 124.031, 123.819, 124.625, 0, 191.216, 179.513, 173.772, 15.3613
22, 900.00000, 123.909, 123.711, 124.498, 0, 195.136, 182.373, 177.836, 15.4197
22, 1800.00000, 123.861, 123.681, 124.459, 0, 196.632, 183.036, 178.825, 15.9777
22, 2700.00000, 124.184, 124, 124.77, 0, 185.024, 171.838, 167.927, 15.3776
23, 0.00000, 123.884, 123.684, 124.508, 0, 198.619, 185.838, 180.38, 16.1501
23, 900.00000, 124.329, 124.122, 124.922, 0, 181.625, 169.927, 164.282, 15.2849
23, 1800.00000, 124.266, 124.049, 124.887, 0, 181.61, 169.845, 163.031, 16.2863
23, 2700.00000, 124.325, 124.103, 124.927, 0, 182.862, 171.883, 165.064, 15.5756
24, 0.00000, 124.213, 123.988, 124.836, 0, 187.104, 176.101, 168.447, 16.3015
24, 900.00000, 124.638, 124.417, 125.229, 0, 168.987, 158.483, 151.256, 15.4838
