hour, t(sec), |V|1 (volts), |V|2 (volts), |V|3 (volts), |V|4 (volts), |I|1 (amps), |I|2 (amps), |I|3 (amps), |I|4 (amps)
0, 900.00000, 76.0454, 75.7409, 76.4111, 0, 115.048, 118.188, 79.3661, 37.8444
0, 1800.00000, 76.1389, 75.8419, 76.4951, 0, 111.712, 114.724, 77.2988, 36.4833
0, 2700.00000, 71.9383, 71.69, 72.2997, 0, 101.026, 104.712, 69.6096, 33.855
1, 0.00000, 71.852, 71.6081, 72.2119, 0, 105.436, 108.599, 74.5723, 33.0231
1, 900.00000, 71.8976, 71.6595, 72.252, 0, 101.868, 104.56, 71.7969, 31.9451
1, 1800.00000, 68.9138, 68.7109, 69.2532, 0, 94.1969, 97.5579, 65.9847, 30.4264
1, 2700.00000, 68.8813, 68.6764, 69.2236, 0, 95.6006, 98.6963, 66.5302, 31.1327
2, 0.00000, 68.8507, 68.6434, 69.197, 0, 97.2951, 100.799, 68.1936, 31.4135
2, 900.00000, 68.9166, 68.7097, 69.2508, 0, 94.7124, 98.341, 67.3085, 29.7835
2, 1800.00000, 68.8706, 68.663, 69.2069, 0, 96.5219, 99.6171, 69.0212, 29.5801
2, 2700.00000, 69.1438, 68.9397, 69.4719, 0, 94.0986, 97.2126, 67.639, 28.5373
3, 0.00000, 73.1538, 72.9177, 73.4776, 0, 95.5431, 98.5306, 67.9833, 29.5535
3, 900.00000, 73.0752, 72.8381, 73.4012, 0, 98.6545, 100.908, 71.4459, 28.8071
3, 1800.00000, 73.1513, 72.9193, 73.4755, 0, 95.8679, 98.122, 68.4402, 29.0065
3, 2700.00000, 72.9891, 72.742, 73.3278, 0, 101.979, 104.97, 73.4655, 30.5541
4, 0.00000, 73.038, 72.7955, 73.3767, 0, 99.5817, 102.219, 70.7973, 30.6068
4, 900.00000, 73.0964, 72.8535, 73.4265, 0, 96.3636, 99.541, 68.9984, 29.4879
4, 1800.00000, 72.9605, 72.699, 73.3057, 0, 102.434, 106.383, 73.7626, 31.2909
4, 2700.00000, 76.9856, 76.696, 77.2962, 0, 100.66, 104.555, 72.0197, 31.1732
5, 0.00000, 76.909, 76.6172, 77.2213, 0, 103.449, 106.305, 75.2194, 30.1792
5, 900.00000, 76.9333, 76.6433, 77.2521, 0, 104.328, 107.44, 74.5669, 31.8492
5, 1800.00000, 79.5298, 79.2094, 79.829, 0, 107.706, 112.353, 77.6973, 32.9927
5, 2700.00000, 79.5539, 79.238, 79.8479, 0, 105.801, 109.181, 76.3484, 31.6778
6, 0.00000, 79.6708, 79.3592, 79.9553, 0, 101.236, 104.39, 72.4768, 30.8293
6, 900.00000, 79.5604, 79.2254, 79.8651, 0, 106.165, 109.635, 75.6343, 32.8247
6, 1800.00000, 73.1028, 72.8274, 73.4339, 0, 91.948, 95.6946, 66.3973, 28.0404
6, 2700.00000, 73.1717, 72.9039, 73.4977, 0, 91.7723, 94.5237, 67.0501, 26.6245
7, 0.00000, 73.0796, 72.7939, 73.4159, 0, 91.1224, 94.206, 66.6723, 26.573
7, 900.00000, 73.0763, 72.7682, 73.407, 0, 90.7573, 95.9357, 66.5294, 27.6443
7, 1800.00000, 73.2306, 72.9394, 73.5382, 0, 82.9154, 86.9252, 62.2193, 23.3686
7, 2700.00000, 73.2618, 72.9724, 73.5691, 0, 80.5188, 84.3119, 59.7032, 23.3373
8, 0.00000, 73.1851, 72.8835, 73.4974, 0, 82.9507, 86.9615, 61.4538, 24.1681
8, 900.00000, 73.3183, 73.0283, 73.6117, 0, 76.3424, 79.8986, 58.2453, 20.4862
8, 1800.00000, 73.2482, 72.9575, 73.5535, 0, 80.3233, 83.6256, 61.0676, 21.4995
8, 2700.00000, 73.1504, 72.8437, 73.4775, 0, 83.7382, 87.3337, 61.7906, 24.3798
9, 0.00000, 73.0724, 72.7513, 73.3857, 0, 82.4528, 87.628, 62.7799, 23.1462
9, 900.00000, 73.0764, 72.7652, 73.3979, 0, 85.4412, 89.8953, 64.5859, 23.8494
9, 1800.00000, 73.1111, 72.7947, 73.4151, 0, 80.8547, 86.461, 62.9421, 21.7078
9, 2700.00000, 73.2381, 72.9293, 73.5136, 0, 75.0781, 80.9859, 61.0198, 18.1596
10, 0.00000, 73.2403, 72.9426, 73.5138, 0, 74.2916, 78.9874, 60.5015, 17.0252
10, 900.00000, 73.1646, 72.849, 73.4474, 0, 77.1717, 83.8391, 61.8909, 19.8976
10, 1800.00000, 73.2248, 72.9212, 73.5145, 0, 75.078, 80.4532, 58.3663, 20.3348
10, 2700.00000, 73.0711, 72.7625, 73.3767, 0, 82.8701, 87.9185, 65.5186, 20.7934
11, 0.00000, 73.1025, 72.7928, 73.4144, 0, 82.3188, 87.3239, 63.3148, 22.3725
11, 900.00000, 73.2281, 72.9288, 73.5168, 0, 75.184, 80.083, 58.4585, 20.02
11, 1800.00000, 73.0403, 72.7245, 73.3295, 0, 83.0179, 90.1574, 67.2966, 20.7006
11, 2700.00000, 73.1208, 72.8189, 73.4044, 0, 80.1891, 85.7689, 64.0077, 19.9853
12, 0.00000, 73.2064, 72.9095, 73.495, 0, 78.704, 84.6124, 60.9321, 21.7372
12, 900.00000, 73.0024, 72.6867, 73.3094, 0, 85.1616, 91.528, 66.4581, 23.0208
12, 1800.00000, 73.0145, 72.7029, 73.3285, 0, 87.4278, 92.8893, 67.1246, 23.9686
12, 2700.00000, 73.0206, 72.7147, 73.3256, 0, 84.0108, 89.8674, 65.9912, 21.9934
13, 0.00000, 73.0701, 72.7569, 73.3756, 0, 83.878, 89.6133, 65.5285, 22.2336
13, 900.00000, 73.0006, 72.6815, 73.3116, 0, 85.8185, 91.8667, 67.1934, 22.736
13, 1800.00000, 72.9946, 72.6715, 73.299, 0, 85.9378, 92.6619, 67.9838, 22.5607
13, 2700.00000, 72.726, 72.3839, 73.0855, 0, 96.8065, 103.207, 73.0674, 28.0633
14, 0.00000, 72.8081, 72.466, 73.1629, 0, 93.3907, 100.53, 70.2199, 27.9829
14, 900.00000, 72.8464, 72.5122, 73.1943, 0, 92.3611, 99.0766, 70.338, 26.565
14, 1800.00000, 72.9641, 72.6431, 73.2945, 0, 86.2226, 92.1008, 65.7954, 24.3879
14, 2700.00000, 73.016, 72.6975, 73.3287, 0, 82.4612, 88.6713, 63.7374, 22.9257
15, 0.00000, 72.9802, 72.6401, 73.2751, 0, 82.2674, 90.3723, 67.4817, 20.5749
15, 900.00000, 73.0696, 72.7462, 73.3682, 0, 80.0937, 86.686, 64.1997, 20.4638
15, 1800.00000, 72.9699, 72.6467, 73.2762, 0, 85.4955, 91.4124, 68.6667, 20.9143
15, 2700.00000, 73.006, 72.683, 73.3175, 0, 84.7599, 91.6825, 66.3516, 23.1374
16, 0.00000, 72.9252, 72.5982, 73.2416, 0, 88.8983, 95.6945, 70.5253, 23.0469
16, 900.00000, 72.9388, 72.6254, 73.2515, 0, 88.2198, 93.7022, 70.7036, 21.2896
16, 1800.00000, 72.9433, 72.6356, 73.2574, 0, 88.4994, 93.1931, 70.0487, 21.6643
16, 2700.00000, 73.0165, 72.7028, 73.3266, 0, 85.419, 91.3484, 66.9962, 22.4517
17, 0.00000, 72.9375, 72.6268, 73.2583, 0, 88.8747, 93.7578, 68.9787, 23.2076
17, 900.00000, 72.9694, 72.6681, 73.2823, 0, 87.2924, 93.2286, 66.4308, 24.8169
17, 1800.00000, 72.9461, 72.6402, 73.2521, 0, 90.1408, 97.0897, 68.8269, 25.952
17, 2700.00000, 72.9364, 72.6311, 73.2263, 0, 91.0358, 99.1643, 72, 24.5946
18, 0.00000, 72.9567, 72.6568, 73.2589, 0, 90.9637, 98.8318, 68.6847, 27.5115
18, 900.00000, 72.6949, 72.38, 73.0207, 0, 101.607, 111.343, 76.8369, 31.311
18, 1800.00000, 72.6748, 72.3622, 72.9967, 0, 104.737, 114.351, 80.0749, 31.1286
18, 2700.00000, 72.6567, 72.3415, 72.9719, 0, 101.526, 111.398, 78.0194, 30.1943
19, 0.00000, 72.5408, 72.2293, 72.8823, 0, 108.11, 116.591, 81.2751, 32.465
19, 900.00000, 72.5921, 72.2784, 72.9164, 0, 106.578, 116.571, 82.0728, 31.2655
19, 1800.00000, 68.4939, 68.2375, 68.8165, 0, 102.383, 111.441, 78.6354, 29.8242
19, 2700.00000, 68.4021, 68.1495, 68.7537, 0, 106.732, 115.172, 80.303, 32.0253
20, 0.00000, 68.4667, 68.2058, 68.8026, 0, 103.553, 113.208, 78.4204, 31.5979
20, 900.00000, 68.3188, 68.0718, 68.6915, 0, 113.335, 120.652, 85.1982, 32.9855
20, 1800.00000, 68.4311, 68.1815, 68.7936, 0, 109.084, 116.654, 79.9758, 34.059
20, 2700.00000, 66.6404, 66.4135, 66.9957, 0, 106.955, 113.703, 79.6999, 31.6912
21, 0.00000, 66.5686, 66.3069, 66.9191, 0, 108.36, 119.222, 82.6755, 33.0488
21, 900.00000, 66.6777, 66.4453, 67.0394, 0, 105.358, 112.098, 77.0737, 32.6951
21, 1800.00000, 72.5199, 72.2123, 72.8941, 0, 115.062, 121.821, 83.9942, 35.5169
21, 2700.00000, 72.5205, 72.2177, 72.8838, 0, 114.918, 121.768, 86.155, 33.3074
22, 0.00000, 72.6326, 72.3308, 72.9751, 0, 110.775, 117.916, 83.8738, 31.6342
22, 900.00000, 72.5928, 72.2852, 72.9477, 0, 112.016, 119.564, 82.6649, 34.3098
22, 1800.00000, 72.5609, 72.256, 72.9154, 0, 115.064, 122.39, 85.8696, 34.0242
22, 2700.00000, 74.5186, 74.1964, 74.8747, 0, 113.648, 121.126, 81.9198, 36.5843
23, 0.00000, 74.4808, 74.1634, 74.8478, 0, 114.05, 119.563, 82.1877, 35.4949
23, 900.00000, 74.5882, 74.2772, 74.9423, 0, 111.459, 117.416, 80.3471, 34.9946
23, 1800.00000, 75.9345, 75.6048, 76.3032, 0, 119.197, 124.36, 84.3687, 38.2225
23, 2700.00000, 76.0255, 75.7013, 76.3684, 0, 112.061, 117.29, 81.1856, 34.3025
24, 0.00000, 75.9862, 75.6609, 76.3388, 0, 114.54, 119.514, 82.6311, 35.1895
24, 900.00000, 76.0458, 75.7413, 76.4116, 0, 115.049, 118.19, 79.3669, 37.8449
