hour, t(sec), |V|1 (volts), |V|2 (volts), |V|3 (volts), |V|4 (volts), |I|1 (amps), |I|2 (amps), |I|3 (amps), |I|4 (amps)
0, 900.00000, 126.348, 126.438, 127.372, 0, 287.257, 255.381, 216.578, 61.6841
0, 1800.00000, 126.594, 126.669, 127.573, 0, 273.867, 243.85, 206.687, 58.6373
0, 2700.00000, 131.631, 131.655, 132.526, 0, 259.132, 230.289, 195.188, 55.6843
1, 0.00000, 131.412, 131.435, 132.334, 0, 272.17, 243.76, 206.272, 57.5056
1, 900.00000, 131.492, 131.526, 132.384, 0, 267.732, 238.694, 204.336, 55.1864
1, 1800.00000, 125.659, 125.741, 126.575, 0, 261.6, 233.253, 199.518, 54.1512
1, 2700.00000, 125.555, 125.648, 126.499, 0, 267.749, 238.202, 203.08, 56.4052
2, 0.00000, 125.512, 125.591, 126.476, 0, 269.336, 241.05, 203.514, 57.5591
2, 900.00000, 125.665, 125.745, 126.589, 0, 261.547, 233.163, 198.742, 54.798
2, 1800.00000, 125.587, 125.671, 126.522, 0, 265.119, 235.913, 201.504, 55.4786
2, 2700.00000, 125.777, 125.861, 126.664, 0, 254.76, 226.215, 194.947, 52.1007
3, 0.00000, 125.996, 126.066, 126.875, 0, 244.875, 218.267, 185.148, 52.1219
3, 900.00000, 125.898, 125.989, 126.778, 0, 248.444, 219.778, 189.09, 51.6836
3, 1800.00000, 126.091, 126.163, 126.93, 0, 236.824, 210.113, 180.551, 49.0084
3, 2700.00000, 125.727, 125.815, 126.635, 0, 255.769, 226.807, 194.583, 53.3134
4, 0.00000, 125.825, 125.903, 126.726, 0, 250.868, 223.041, 190.156, 52.9436
4, 900.00000, 125.893, 125.979, 126.796, 0, 248.577, 220.092, 187.594, 53.1482
4, 1800.00000, 125.653, 125.74, 126.592, 0, 259.166, 229.329, 195.95, 55.0942
4, 2700.00000, 125.981, 126.048, 126.856, 0, 242.499, 215.253, 183.738, 51.2143
5, 0.00000, 125.809, 125.89, 126.69, 0, 251.269, 222.171, 192.508, 51.1567
5, 900.00000, 125.917, 125.985, 126.796, 0, 244.854, 217.223, 185.918, 51.3547
5, 1800.00000, 125.78, 125.855, 126.677, 0, 252.971, 225.027, 192.814, 52.4425
5, 2700.00000, 125.844, 125.925, 126.722, 0, 249.454, 220.779, 190.751, 51.1114
6, 0.00000, 126.151, 126.206, 126.984, 0, 232.755, 206.299, 177.058, 48.4989
6, 900.00000, 125.901, 125.96, 126.792, 0, 245.486, 217.108, 186.193, 51.6441
6, 1800.00000, 125.793, 125.855, 126.716, 0, 253.948, 224.319, 192.802, 53.2581
6, 2700.00000, 126.052, 126.101, 126.942, 0, 239.143, 210.507, 180.52, 51.0419
7, 0.00000, 125.875, 125.948, 126.77, 0, 245.232, 213.05, 187.452, 50.361
7, 900.00000, 125.821, 125.909, 126.735, 0, 248.207, 213.658, 188.481, 52.1244
7, 1800.00000, 126.127, 126.198, 126.984, 0, 232.228, 199.927, 177.127, 48.1135
7, 2700.00000, 126.237, 126.293, 127.067, 0, 224.642, 193.653, 171.759, 46.1707
8, 0.00000, 126.069, 126.128, 126.907, 0, 232.16, 199.941, 178.875, 46.6107
8, 900.00000, 126.353, 126.394, 127.124, 0, 217.193, 187.072, 169.641, 41.7497
8, 1800.00000, 126.268, 126.304, 127.078, 0, 220.295, 190.432, 169.824, 44.0902
8, 2700.00000, 125.327, 125.355, 126.2, 0, 231.611, 201.854, 177.004, 47.5725
9, 0.00000, 125.008, 125.052, 125.901, 0, 248.562, 217.045, 192.518, 48.8757
9, 900.00000, 125.176, 125.204, 126.044, 0, 237.111, 207.47, 183.13, 47.0404
9, 1800.00000, 126, 126.055, 126.818, 0, 229.405, 196.801, 179.053, 44.3178
9, 2700.00000, 126.153, 126.222, 126.932, 0, 224.676, 191.574, 177.142, 42.2336
10, 0.00000, 126.223, 126.278, 126.962, 0, 218.92, 187.474, 174.726, 39.3996
10, 900.00000, 126.002, 126.082, 126.799, 0, 231.325, 197.25, 182.361, 43.5036
10, 1800.00000, 126.188, 126.22, 126.945, 0, 219.733, 190.195, 174.193, 40.0821
10, 2700.00000, 127.861, 127.894, 128.618, 0, 228.62, 196.7, 183.105, 40.4571
11, 0.00000, 126.041, 126.081, 126.812, 0, 225.385, 194.4, 179.341, 40.7091
11, 900.00000, 126.199, 126.225, 126.956, 0, 219.142, 190.241, 173.439, 40.1225
11, 1800.00000, 123.93, 124.058, 124.739, 0, 236.404, 200.32, 187.687, 43.8075
11, 2700.00000, 124.066, 124.17, 124.861, 0, 231.429, 197.826, 183.164, 42.9177
12, 0.00000, 124.236, 124.302, 125.027, 0, 222.927, 193.092, 174.604, 42.3672
12, 900.00000, 123.772, 123.898, 124.632, 0, 246.748, 210.792, 194.118, 46.6851
12, 1800.00000, 123.887, 123.959, 124.758, 0, 239.883, 208.174, 185.833, 47.2414
12, 2700.00000, 123.601, 123.725, 124.455, 0, 242.776, 207.732, 190.775, 46.0479
13, 0.00000, 123.803, 123.882, 124.629, 0, 230.184, 197.959, 180.454, 43.8125
13, 900.00000, 123.614, 123.717, 124.467, 0, 240.343, 205.797, 188.688, 45.6869
13, 1800.00000, 123.018, 123.124, 123.887, 0, 247.907, 213.644, 195.149, 46.5124
13, 2700.00000, 122.504, 122.612, 123.47, 0, 271.943, 236.182, 213.279, 51.4612
14, 0.00000, 122.753, 122.824, 123.679, 0, 256.915, 224.368, 201.322, 48.6321
14, 900.00000, 122.918, 122.978, 123.808, 0, 246.94, 215.71, 194.137, 46.2107
14, 1800.00000, 123.028, 123.09, 123.898, 0, 244.944, 214.192, 193.219, 45.2768
14, 2700.00000, 118.52, 118.621, 119.353, 0, 242.396, 213.122, 193.25, 43.2841
15, 0.00000, 125.587, 125.664, 126.429, 0, 251.458, 215.946, 200.429, 45.3441
15, 900.00000, 125.853, 125.881, 126.664, 0, 236.738, 206.282, 188.06, 42.7085
15, 1800.00000, 125.642, 125.688, 126.496, 0, 248.783, 216.576, 196.674, 45.6817
15, 2700.00000, 125.686, 125.71, 126.548, 0, 246.754, 216.92, 193.668, 46.2928
16, 0.00000, 125.539, 125.587, 126.43, 0, 255.169, 222.964, 200.114, 48.1007
16, 900.00000, 125.55, 125.608, 126.43, 0, 256.108, 223.728, 202.112, 47.2484
16, 1800.00000, 125.618, 125.678, 126.483, 0, 250.937, 218.611, 197.729, 46.5928
16, 2700.00000, 125.769, 125.827, 126.618, 0, 243.127, 210.941, 190.877, 45.7934
17, 0.00000, 125.57, 125.628, 126.453, 0, 254.249, 221.875, 199.389, 47.951
17, 900.00000, 125.65, 125.704, 126.516, 0, 248.811, 218.647, 194.06, 47.7154
17, 1800.00000, 127.152, 127.247, 128.029, 0, 261.186, 226.445, 203.474, 50.4625
17, 2700.00000, 127.142, 127.273, 127.999, 0, 262.187, 225.056, 205.749, 49.752
18, 0.00000, 127.207, 127.301, 128.078, 0, 259.259, 225.884, 200.976, 50.8166
18, 900.00000, 126.64, 126.812, 127.608, 0, 289.562, 249.708, 223.988, 57.4067
18, 1800.00000, 126.502, 126.669, 127.498, 0, 300.517, 261.171, 232.341, 59.5038
18, 2700.00000, 130.752, 130.909, 131.695, 0, 303.416, 261.234, 236.667, 58.5253
19, 0.00000, 130.627, 130.817, 131.594, 0, 308.308, 263.149, 240.016, 60.1863
19, 900.00000, 130.691, 130.91, 131.631, 0, 306.666, 259.466, 240.119, 59.2443
19, 1800.00000, 130.061, 130.29, 131.066, 0, 319.185, 271.752, 247.673, 63.0699
19, 2700.00000, 129.925, 130.126, 130.945, 0, 323.986, 278.714, 252.74, 62.5539
20, 0.00000, 130.074, 130.262, 131.045, 0, 315.542, 271.372, 247.599, 59.775
20, 900.00000, 124.43, 124.655, 125.468, 0, 315.695, 272.813, 247.81, 59.7132
20, 1800.00000, 124.527, 124.728, 125.583, 0, 315.93, 275.28, 244.935, 62.0141
20, 2700.00000, 124.114, 124.347, 125.21, 0, 327.757, 284.631, 254.283, 64.2847
21, 0.00000, 123.916, 124.16, 125.026, 0, 335.934, 290.039, 261.601, 65.2505
21, 900.00000, 124.343, 124.513, 125.411, 0, 311.256, 272.642, 239.849, 62.2706
21, 1800.00000, 120.555, 120.782, 121.604, 0, 308.025, 268.192, 239.354, 60.0436
21, 2700.00000, 120.516, 120.784, 121.583, 0, 311.535, 268.75, 241.487, 61.4489
22, 0.00000, 120.746, 121.011, 121.761, 0, 299.825, 257.261, 233.255, 58.6684
22, 900.00000, 120.626, 120.886, 121.663, 0, 306.419, 264.143, 237.871, 60.1994
22, 1800.00000, 120.625, 120.869, 121.652, 0, 305.623, 264.806, 237.868, 59.3935
22, 2700.00000, 122.304, 122.47, 123.312, 0, 292.72, 257.018, 226.319, 57.9172
23, 0.00000, 122.203, 122.402, 123.22, 0, 298.701, 259.894, 232.503, 57.9311
23, 900.00000, 122.355, 122.517, 123.369, 0, 293.816, 258.597, 227.036, 58.2377
23, 1800.00000, 126.179, 126.274, 127.167, 0, 291.66, 258.142, 225.05, 58.0043
23, 2700.00000, 126.259, 126.379, 127.235, 0, 289.903, 254.763, 224.119, 57.2919
24, 0.00000, 126.256, 126.383, 127.231, 0, 288.645, 252.79, 223.152, 57.0671
24, 900.00000, 126.348, 126.439, 127.372, 0, 287.255, 255.378, 216.576, 61.6836
