hour, t(sec), |V|1 (volts), |V|2 (volts), |V|3 (volts), |V|4 (volts), |I|1 (amps), |I|2 (amps), |I|3 (amps), |I|4 (amps)
0, 900.00000, 123.683, 124.847, 125.469, 0, 139.769, 91.361, 92.2597, 47.7958
0, 1800.00000, 124.02, 125.014, 125.759, 0, 132.575, 89.665, 86.2951, 44.6222
0, 2700.00000, 123.826, 124.815, 125.433, 0, 128.7, 86.3195, 86.4264, 42.1893
1, 0.00000, 123.9, 124.761, 125.533, 0, 123.795, 85.5208, 80.6396, 40.9046
1, 900.00000, 123.938, 124.834, 125.559, 0, 123.783, 84.5804, 80.9506, 41.0859
1, 1800.00000, 124.03, 124.913, 125.581, 0, 121.35, 82.6602, 80.5201, 39.7218
1, 2700.00000, 123.817, 124.792, 125.448, 0, 126.862, 85.1945, 83.4544, 42.47
2, 0.00000, 123.961, 124.782, 125.581, 0, 121.359, 84.4725, 78.4284, 40.2479
2, 900.00000, 124.174, 124.936, 125.741, 0, 117.065, 82.0179, 75.6828, 38.6087
2, 1800.00000, 124.06, 124.8, 125.728, 0, 119.119, 84.5908, 74.6276, 40.5116
2, 2700.00000, 124.271, 125.009, 125.849, 0, 115.448, 81.2549, 73.6539, 38.5878
3, 0.00000, 124.645, 125.291, 126.101, 0, 107.592, 76.6677, 69.3756, 35.1682
3, 900.00000, 124.463, 125.105, 126.053, 0, 110.991, 80.0265, 68.6869, 38.0253
3, 1800.00000, 124.854, 125.524, 126.36, 0, 110.521, 78.8471, 70.7236, 36.4613
3, 2700.00000, 124.539, 125.218, 126.144, 0, 115.002, 82.6, 72.4663, 38.5594
4, 0.00000, 124.619, 125.316, 126.194, 0, 114.013, 81.1428, 72.3747, 38.0711
4, 900.00000, 124.856, 125.52, 126.335, 0, 108.161, 76.3438, 69.5302, 35.732
4, 1800.00000, 124.492, 125.168, 126.085, 0, 115.177, 82.3652, 73.3634, 38.1713
4, 2700.00000, 125.175, 125.792, 126.672, 0, 107.192, 76.636, 67.8676, 35.8056
5, 0.00000, 124.979, 125.636, 126.572, 0, 110.735, 78.6232, 68.5967, 38.1994
5, 900.00000, 124.937, 125.622, 126.513, 0, 113.248, 80.3945, 71.562, 38.0962
5, 1800.00000, 125.078, 125.705, 126.583, 0, 107.965, 77.064, 68.4972, 36.0044
5, 2700.00000, 125.022, 125.71, 126.607, 0, 110.54, 77.5994, 68.5054, 38.3616
6, 0.00000, 125.276, 125.89, 126.844, 0, 106.794, 76.2309, 64.9486, 37.5911
6, 900.00000, 124.911, 125.61, 126.562, 0, 114.245, 80.1805, 70.5855, 39.8022
6, 1800.00000, 125.179, 125.82, 126.72, 0, 105.781, 72.9407, 65.9439, 36.853
6, 2700.00000, 125.678, 126.364, 127.081, 0, 95.7328, 65.1748, 62.5504, 29.669
7, 0.00000, 125.308, 126.131, 126.813, 0, 103.397, 67.7218, 67.6452, 33.2515
7, 900.00000, 125.15, 126.064, 126.69, 0, 107.913, 68.9255, 71.0114, 35.3964
7, 1800.00000, 125.992, 126.816, 127.275, 0, 84.9068, 52.7949, 58.1798, 24.5478
7, 2700.00000, 126.004, 126.842, 127.301, 0, 85.3178, 52.7966, 58.1523, 24.9712
8, 0.00000, 125.674, 126.652, 127.041, 0, 92.9373, 55.4879, 63.6678, 28.6777
8, 900.00000, 126.281, 127.037, 127.512, 0, 77.7579, 47.5783, 52.7787, 22.7178
8, 1800.00000, 126.2, 126.882, 127.468, 0, 78.2673, 50.3499, 52.3303, 22.0513
8, 2700.00000, 125.977, 126.863, 127.222, 0, 81.0663, 49.3927, 58.1798, 20.529
9, 0.00000, 126.037, 126.855, 127.275, 0, 75.3285, 45.5587, 52.5437, 19.3184
9, 900.00000, 126.016, 126.798, 127.245, 0, 76.8784, 48.5303, 54.4129, 18.3628
9, 1800.00000, 126.744, 127.762, 127.708, 0, 62.791, 34.7156, 52.1683, 13.0594
9, 2700.00000, 127.261, 128.147, 128.096, 0, 50.4464, 27.306, 43.3671, 10.6021
10, 0.00000, 127.295, 128.161, 128.165, 0, 49.4314, 27.15, 41.0879, 9.01562
10, 900.00000, 126.978, 127.993, 127.853, 0, 56.7384, 29.4075, 48.5249, 13.8862
10, 1800.00000, 127.026, 128.074, 127.871, 0, 57.0883, 28.9123, 49.8157, 15.3105
10, 2700.00000, 127.609, 128.977, 128.227, 0, 49.0854, 24.7937, 53.2398, 23.7898
11, 0.00000, 127.461, 128.938, 128.074, 0, 54.3157, 26.1304, 58.9779, 26.3838
11, 900.00000, 127.962, 129.326, 128.464, 0, 42.7039, 21.465, 49.4087, 26.7286
11, 1800.00000, 127.908, 129.309, 128.424, 0, 44.0354, 24.1625, 51.27, 26.7373
11, 2700.00000, 128.015, 129.479, 128.547, 0, 43.4288, 23.1945, 49.7219, 26.922
12, 0.00000, 128.151, 129.627, 128.548, 0, 41.8548, 22.5785, 52.1756, 31.2597
12, 900.00000, 127.561, 129.253, 128.103, 0, 52.9293, 24.3839, 60.4945, 32.2374
12, 1800.00000, 127.679, 129.174, 128.268, 0, 50.3138, 26.0593, 56.0142, 26.3028
12, 2700.00000, 127.881, 129.515, 128.332, 0, 45.7436, 23.9532, 55.9581, 33.2717
13, 0.00000, 127.968, 129.482, 128.469, 0, 44.858, 24.647, 53.3449, 29.6649
13, 900.00000, 127.758, 129.373, 128.274, 0, 48.6619, 25.0047, 57.3675, 31.3728
13, 1800.00000, 127.804, 129.392, 128.27, 0, 45.4858, 24.0945, 55.2262, 32.4104
13, 2700.00000, 126.859, 128.743, 127.467, 0, 65.2611, 29.3985, 73.4336, 36.0938
14, 0.00000, 127.183, 128.823, 127.729, 0, 57.8664, 29.3768, 67.4048, 32.1895
14, 900.00000, 127.428, 128.906, 127.962, 0, 52.0851, 28.7772, 61.363, 29.2393
14, 1800.00000, 127.695, 129.266, 128.14, 0, 47.4695, 24.9225, 58.6839, 33.389
14, 2700.00000, 128.08, 129.547, 128.487, 0, 40.2081, 23.8571, 51.0946, 32.3433
15, 0.00000, 128.172, 129.539, 128.6, 0, 36.7957, 23.6232, 46.3406, 30.6931
15, 900.00000, 128.398, 129.682, 128.809, 0, 33.7094, 23.494, 42.6957, 29.9336
15, 1800.00000, 128.18, 129.495, 128.694, 0, 38.2668, 23.5639, 45.3437, 26.767
15, 2700.00000, 128.188, 129.575, 128.582, 0, 38.761, 23.2276, 49.6806, 31.4563
16, 0.00000, 128.059, 129.427, 128.538, 0, 40.6059, 23.921, 49.3942, 28.6833
16, 900.00000, 128.173, 129.52, 128.663, 0, 38.1747, 23.3832, 46.0657, 27.8918
16, 1800.00000, 128.001, 129.454, 128.552, 0, 42.9325, 24.0792, 49.6279, 27.2761
16, 2700.00000, 127.571, 128.874, 128.271, 0, 51.2593, 25.2632, 52.0631, 20.5219
17, 0.00000, 127.33, 128.71, 128.079, 0, 56.2213, 27.2022, 55.8417, 21.2455
17, 900.00000, 127.373, 128.799, 128.053, 0, 55.7425, 26.4649, 56.8038, 22.9834
17, 1800.00000, 126.162, 127.438, 127.264, 0, 81.3308, 43.0972, 63.9747, 22.6231
17, 2700.00000, 126.31, 127.488, 127.367, 0, 76.7213, 42.0313, 60.4897, 19.5536
18, 0.00000, 126.2, 127.411, 127.287, 0, 81.1902, 45.7259, 63.7267, 20.0917
18, 900.00000, 125.441, 126.958, 126.601, 0, 97.1889, 52.1025, 77.8354, 28.4375
18, 1800.00000, 125.527, 126.995, 126.634, 0, 94.3141, 50.8134, 76.4192, 27.2116
18, 2700.00000, 124.338, 125.622, 125.867, 0, 116.489, 67.5152, 79.0524, 41.3564
19, 0.00000, 123.619, 125.238, 125.312, 0, 135.873, 76.5405, 93.7511, 49.6762
19, 900.00000, 123.852, 125.37, 125.445, 0, 130.443, 74.5376, 91.1857, 46.5528
19, 1800.00000, 123.513, 124.955, 125.245, 0, 136.707, 79.5537, 90.8571, 52.0382
19, 2700.00000, 123.218, 124.728, 124.919, 0, 142.531, 83.1871, 98.4621, 52.8843
20, 0.00000, 123.422, 124.796, 125.145, 0, 138.45, 83.3669, 93.2008, 50.5197
20, 900.00000, 123.035, 124.363, 124.825, 0, 146.035, 92.3395, 99.7609, 50.0674
20, 1800.00000, 123.169, 124.556, 124.978, 0, 146.045, 90.5724, 98.3617, 51.6838
20, 2700.00000, 123.206, 124.584, 124.993, 0, 143.166, 87.8522, 96.4133, 51.2213
21, 0.00000, 123.171, 124.361, 124.925, 0, 140.711, 90.54, 95.2378, 47.7192
21, 900.00000, 123.324, 124.525, 125.168, 0, 140.655, 90.4762, 92.0887, 49.1991
21, 1800.00000, 123.142, 124.505, 125.006, 0, 148.056, 92.7445, 98.8225, 52.2284
21, 2700.00000, 123.384, 124.65, 125.193, 0, 140.588, 88.4927, 93.072, 49.7049
22, 0.00000, 123.639, 124.862, 125.415, 0, 136.426, 85.7369, 89.4243, 48.7185
22, 900.00000, 123.291, 124.684, 125.113, 0, 145.807, 89.8221, 97.3943, 52.2754
22, 1800.00000, 123.38, 124.639, 125.226, 0, 142.501, 90.7486, 93.269, 50.327
22, 2700.00000, 123.639, 124.839, 125.372, 0, 138.799, 88.9029, 93.1223, 47.6759
23, 0.00000, 123.365, 124.734, 125.182, 0, 145.932, 90.5158, 98.1926, 51.6641
23, 900.00000, 123.86, 125.023, 125.543, 0, 134.305, 85.5234, 90.2217, 46.3563
23, 1800.00000, 123.402, 124.619, 125.203, 0, 144.393, 93.7685, 96.9162, 48.8893
23, 2700.00000, 123.894, 124.965, 125.626, 0, 131.447, 85.4949, 85.8309, 45.631
24, 0.00000, 123.692, 124.798, 125.494, 0, 136.84, 89.743, 89.2217, 47.2205
24, 900.00000, 123.683, 124.846, 125.469, 0, 139.772, 91.3623, 92.2608, 47.7975
