hour, t(sec), |V|1 (volts), |V|2 (volts), |V|3 (volts), |V|4 (volts), |I|1 (amps), |I|2 (amps), |I|3 (amps), |I|4 (amps)
0, 900.00000, 125.025, 125.141, 126.189, 0, 296.504, 264.555, 216.892, 69.9432
0, 1800.00000, 125.283, 125.381, 126.391, 0, 282.48, 252.397, 206.987, 66.3323
0, 2700.00000, 125.422, 125.516, 126.483, 0, 268.485, 239.42, 196.401, 63.2762
1, 0.00000, 125.188, 125.28, 126.283, 0, 282.173, 253.538, 207.569, 65.6976
1, 900.00000, 125.277, 125.38, 126.336, 0, 277.342, 248.076, 205.617, 62.9339
1, 1800.00000, 125.42, 125.515, 126.451, 0, 269.42, 241.055, 199.551, 61.3085
1, 2700.00000, 125.311, 125.417, 126.375, 0, 275.955, 246.39, 203.112, 63.9175
2, 0.00000, 125.267, 125.359, 126.351, 0, 277.493, 249.189, 203.546, 65.1217
2, 900.00000, 125.425, 125.517, 126.465, 0, 269.491, 241.088, 198.773, 62.0865
2, 1800.00000, 125.347, 125.443, 126.398, 0, 273.03, 243.806, 201.535, 62.7121
2, 2700.00000, 125.602, 125.697, 126.597, 0, 262.118, 233.558, 194.964, 58.7754
3, 0.00000, 125.817, 125.899, 126.809, 0, 252.606, 225.984, 185.163, 59.2466
3, 900.00000, 125.724, 125.826, 126.711, 0, 255.771, 227.09, 189.106, 58.3105
3, 1800.00000, 125.934, 126.016, 126.874, 0, 243.759, 217.036, 180.564, 55.3062
3, 2700.00000, 125.558, 125.658, 126.576, 0, 263.245, 234.269, 194.597, 60.113
4, 0.00000, 125.658, 125.748, 126.668, 0, 258.248, 230.407, 190.17, 59.7045
4, 900.00000, 125.722, 125.821, 126.739, 0, 256.273, 227.774, 187.607, 60.1721
4, 1800.00000, 125.479, 125.579, 126.533, 0, 266.948, 237.096, 195.964, 62.1805
4, 2700.00000, 125.838, 125.916, 126.817, 0, 249.521, 222.264, 183.747, 57.6329
5, 0.00000, 125.665, 125.758, 126.651, 0, 258.392, 229.281, 192.517, 57.5644
5, 900.00000, 125.774, 125.853, 126.757, 0, 251.863, 224.221, 185.927, 57.7442
5, 1800.00000, 125.704, 125.791, 126.707, 0, 260.103, 232.146, 192.813, 58.9694
5, 2700.00000, 125.774, 125.866, 126.753, 0, 256.267, 227.583, 190.744, 57.2749
6, 0.00000, 126.091, 126.157, 127.016, 0, 238.941, 212.478, 177.051, 54.129
6, 900.00000, 125.832, 125.902, 126.823, 0, 252.137, 223.751, 186.186, 57.6916
6, 1800.00000, 125.714, 125.787, 126.748, 0, 261.557, 231.917, 192.795, 60.1639
6, 2700.00000, 125.987, 126.048, 126.983, 0, 246.374, 217.73, 180.511, 57.5894
7, 0.00000, 125.816, 125.901, 126.811, 0, 251.918, 219.727, 187.442, 56.1809
7, 900.00000, 125.76, 125.859, 126.775, 0, 254.973, 220.414, 188.471, 57.9302
7, 1800.00000, 126.022, 126.104, 126.974, 0, 238.593, 206.281, 177.129, 53.5365
7, 2700.00000, 126.141, 126.208, 127.059, 0, 230.382, 199.384, 171.761, 51.0563
8, 0.00000, 125.973, 126.042, 126.898, 0, 237.872, 205.644, 178.877, 51.4106
8, 900.00000, 126.268, 126.319, 127.117, 0, 222.273, 192.145, 169.643, 45.9282
8, 1800.00000, 126.175, 126.221, 127.07, 0, 225.904, 196.034, 169.825, 48.8491
8, 2700.00000, 125.869, 125.9, 126.827, 0, 237.391, 207.651, 176.876, 52.7333
9, 0.00000, 125.546, 125.593, 126.528, 0, 254.595, 223.1, 192.362, 54.228
9, 900.00000, 125.718, 125.749, 126.67, 0, 242.799, 213.177, 182.986, 52.1229
9, 1800.00000, 125.833, 125.9, 126.731, 0, 234.424, 201.808, 179.074, 48.3885
9, 2700.00000, 125.988, 126.068, 126.847, 0, 229.848, 196.733, 177.16, 46.2701
10, 0.00000, 126.068, 126.134, 126.878, 0, 223.305, 191.85, 174.743, 42.7712
10, 900.00000, 125.836, 125.928, 126.713, 0, 236.343, 202.255, 182.381, 47.4177
10, 1800.00000, 126.034, 126.076, 126.86, 0, 224.044, 194.497, 174.211, 43.5719
10, 2700.00000, 125.854, 125.919, 126.691, 0, 233.201, 201.192, 183.514, 43.7474
11, 0.00000, 125.923, 125.973, 126.762, 0, 229.614, 198.619, 179.358, 44.0661
11, 900.00000, 126.079, 126.115, 126.909, 0, 223.692, 194.783, 173.45, 43.8608
11, 1800.00000, 125.737, 125.855, 126.608, 0, 240.545, 204.551, 187.232, 47.2069
11, 2700.00000, 125.873, 125.968, 126.729, 0, 235.446, 201.928, 182.719, 46.358
12, 0.00000, 126.039, 126.097, 126.894, 0, 227.264, 197.503, 174.184, 46.2917
12, 900.00000, 125.573, 125.69, 126.5, 0, 251.248, 215.386, 193.636, 50.5759
12, 1800.00000, 125.682, 125.745, 126.625, 0, 244.76, 213.131, 185.378, 51.7457
12, 2700.00000, 125.668, 125.78, 126.59, 0, 247.258, 212.32, 190.224, 50.0086
13, 0.00000, 125.877, 125.943, 126.761, 0, 234.144, 202.015, 179.95, 47.3955
13, 900.00000, 125.683, 125.773, 126.601, 0, 244.657, 210.215, 188.154, 49.515
13, 1800.00000, 125.554, 125.64, 126.488, 0, 252.425, 218.294, 194.443, 50.6997
13, 2700.00000, 125.031, 125.116, 126.07, 0, 276.929, 241.31, 212.507, 56.2305
14, 0.00000, 125.285, 125.334, 126.277, 0, 261.469, 229.049, 200.607, 53.0736
14, 900.00000, 125.455, 125.494, 126.406, 0, 251.027, 219.917, 193.452, 50.2111
14, 1800.00000, 125.565, 125.606, 126.497, 0, 249.221, 218.586, 192.541, 49.4257
14, 2700.00000, 125.563, 125.6, 126.487, 0, 250.531, 220.708, 193.831, 49.4207
15, 0.00000, 125.449, 125.539, 126.374, 0, 256.722, 221.198, 200.441, 49.4666
15, 900.00000, 125.724, 125.763, 126.61, 0, 241.424, 210.959, 188.073, 46.5829
15, 1800.00000, 125.556, 125.613, 126.494, 0, 254.164, 221.948, 196.674, 50.1712
15, 2700.00000, 125.596, 125.631, 126.545, 0, 252.419, 222.577, 193.669, 51.2068
16, 0.00000, 125.444, 125.505, 126.426, 0, 261.025, 228.81, 200.115, 53.1047
16, 900.00000, 125.457, 125.528, 126.427, 0, 261.848, 229.459, 202.113, 52.1048
16, 1800.00000, 125.53, 125.603, 126.48, 0, 256.327, 223.992, 197.73, 51.1224
16, 2700.00000, 125.75, 125.819, 126.679, 0, 248.193, 216.001, 190.863, 50.032
17, 0.00000, 125.542, 125.612, 126.514, 0, 260.047, 227.666, 199.373, 52.8978
17, 900.00000, 125.626, 125.691, 126.578, 0, 254.235, 224.065, 194.045, 52.459
17, 1800.00000, 125.471, 125.595, 126.452, 0, 267.58, 232.75, 203.857, 55.563
17, 2700.00000, 125.46, 125.621, 126.421, 0, 268.558, 231.334, 206.138, 54.6251
18, 0.00000, 125.525, 125.649, 126.5, 0, 265.522, 232.061, 201.354, 55.9048
18, 900.00000, 124.936, 125.14, 126.023, 0, 296.754, 256.787, 224.415, 63.1308
18, 1800.00000, 124.783, 124.982, 125.913, 0, 308.914, 269.452, 232.796, 66.369
18, 2700.00000, 124.694, 124.931, 125.807, 0, 312.7, 270.165, 238.179, 65.1177
19, 0.00000, 124.564, 124.835, 125.7, 0, 317.524, 271.982, 241.556, 66.5706
19, 900.00000, 124.63, 124.929, 125.739, 0, 315.945, 268.345, 241.657, 65.4551
19, 1800.00000, 124.415, 124.722, 125.601, 0, 329.481, 281.657, 249.172, 70.3568
19, 2700.00000, 124.273, 124.552, 125.475, 0, 334.368, 288.72, 254.291, 70.0259
20, 0.00000, 124.441, 124.704, 125.579, 0, 324.871, 280.343, 249.108, 66.3222
20, 900.00000, 124.362, 124.602, 125.52, 0, 323.438, 280.534, 247.795, 66.1371
20, 1800.00000, 124.456, 124.672, 125.635, 0, 323.922, 283.252, 244.918, 68.9212
20, 2700.00000, 124.22, 124.466, 125.448, 0, 336.629, 293.491, 254.199, 71.9387
21, 0.00000, 124.017, 124.275, 125.262, 0, 344.911, 299.006, 261.516, 72.8399
21, 900.00000, 124.46, 124.642, 125.648, 0, 319.147, 280.525, 239.775, 69.2754
21, 1800.00000, 124.518, 124.71, 125.666, 0, 314.412, 274.468, 237.893, 66.7374
21, 2700.00000, 124.47, 124.705, 125.645, 0, 318.617, 275.636, 240.034, 68.5952
22, 0.00000, 124.719, 124.946, 125.826, 0, 305.852, 263.574, 231.866, 64.6456
22, 900.00000, 124.596, 124.819, 125.727, 0, 312.603, 270.502, 236.458, 66.4574
22, 1800.00000, 124.596, 124.803, 125.715, 0, 311.576, 270.907, 236.444, 65.5393
22, 2700.00000, 124.834, 124.983, 125.934, 0, 299.066, 263.502, 225.505, 64.1672
23, 0.00000, 124.734, 124.913, 125.844, 0, 305.117, 266.466, 231.645, 64.0764
23, 900.00000, 124.88, 125.025, 125.993, 0, 300.806, 265.725, 226.207, 65.1152
23, 1800.00000, 124.868, 124.987, 125.982, 0, 299.921, 266.329, 225.381, 65.1509
23, 2700.00000, 124.949, 125.093, 126.051, 0, 298.223, 263.004, 224.451, 64.367
24, 0.00000, 124.949, 125.1, 126.047, 0, 296.638, 260.703, 223.476, 63.8041
24, 900.00000, 125.025, 125.14, 126.189, 0, 296.508, 264.559, 216.894, 69.9451
