hour, t(sec), |V|1 (volts), |V|2 (volts), |V|3 (volts), |V|4 (volts), |I|1 (amps), |I|2 (amps), |I|3 (amps), |I|4 (amps)
0, 900.00000, 124.385, 124.262, 125.576, 0, 278.231, 249.022, 211.861, 58.2674
0, 1800.00000, 124.628, 124.513, 125.804, 0, 271.204, 242.133, 205.19, 57.9311
0, 2700.00000, 129.734, 129.554, 130.849, 0, 260.259, 234.01, 194.68, 57.7264
1, 0.00000, 129.506, 129.374, 130.647, 0, 269.219, 239.093, 201.813, 59.0074
1, 900.00000, 129.564, 129.453, 130.713, 0, 268.414, 236.969, 200.192, 59.6464
1, 1800.00000, 123.739, 123.673, 124.927, 0, 264.21, 234.454, 195.996, 59.8607
1, 2700.00000, 123.657, 123.598, 124.826, 0, 266.351, 235.4, 199.7, 58.3443
2, 0.00000, 123.576, 123.486, 124.773, 0, 269.113, 240.696, 200.794, 60.118
2, 900.00000, 123.782, 123.712, 124.948, 0, 261.54, 231.712, 195.039, 58.2829
2, 1800.00000, 123.663, 123.603, 124.824, 0, 264.426, 233.032, 198.962, 57.2572
2, 2700.00000, 123.865, 123.809, 125.024, 0, 258.405, 227.658, 192.285, 57.866
3, 0.00000, 124.249, 124.174, 125.341, 0, 242.352, 214.835, 180.748, 53.9735
3, 900.00000, 124.049, 123.983, 125.153, 0, 247.746, 218.711, 186.268, 53.7783
3, 1800.00000, 124.226, 124.176, 125.339, 0, 244.286, 214.599, 181.112, 55.2492
3, 2700.00000, 123.775, 123.705, 124.948, 0, 259.704, 230.163, 193.406, 58.1345
4, 0.00000, 123.901, 123.812, 125.05, 0, 255.287, 227.77, 190.646, 56.7982
4, 900.00000, 124.097, 123.978, 125.214, 0, 245.865, 221.252, 183.512, 55.0155
4, 1800.00000, 123.697, 123.587, 124.886, 0, 262.066, 234.543, 195.286, 58.8004
4, 2700.00000, 124.146, 124.018, 125.254, 0, 245.063, 220.578, 182.978, 54.7708
5, 0.00000, 123.914, 123.834, 125.05, 0, 253.362, 223.762, 190.037, 55.4212
5, 900.00000, 124, 123.907, 125.137, 0, 251.561, 223.475, 187.69, 56.0215
5, 1800.00000, 123.874, 123.75, 125.043, 0, 256.894, 231.695, 190.369, 58.8571
5, 2700.00000, 123.967, 123.854, 125.084, 0, 250.812, 224.423, 188.586, 54.6808
6, 0.00000, 124.357, 124.221, 125.391, 0, 235.448, 211.283, 178.723, 49.8095
6, 900.00000, 124.036, 123.871, 125.127, 0, 246.589, 222.337, 187.35, 52.1761
6, 1800.00000, 124.129, 123.947, 125.207, 0, 240.427, 216.743, 183.007, 50.5579
6, 2700.00000, 124.445, 124.251, 125.455, 0, 225.523, 203.222, 173.494, 45.7119
7, 0.00000, 124.142, 123.926, 125.214, 0, 234.039, 211.192, 178.986, 48.4838
7, 900.00000, 124.207, 123.93, 125.22, 0, 227.996, 208.561, 177.13, 45.0328
7, 1800.00000, 124.666, 124.398, 125.621, 0, 208.794, 190.254, 161.881, 41.4154
7, 2700.00000, 124.752, 124.471, 125.692, 0, 204.84, 187.347, 158.902, 40.6512
8, 0.00000, 124.526, 124.258, 125.484, 0, 213.365, 193.138, 166.306, 41.3397
8, 900.00000, 124.884, 124.626, 125.825, 0, 200.105, 180.351, 154.03, 40.4608
8, 1800.00000, 124.758, 124.495, 125.705, 0, 202.328, 182.71, 156.715, 40.0695
8, 2700.00000, 123.759, 123.465, 124.737, 0, 212.463, 194.019, 165.983, 41.068
9, 0.00000, 123.479, 123.203, 124.492, 0, 222.202, 201.286, 172.697, 43.5653
9, 900.00000, 123.514, 123.261, 124.552, 0, 222.885, 200.969, 171.554, 45.1417
9, 1800.00000, 124.355, 124.049, 125.361, 0, 213.263, 195.366, 164.026, 43.7437
9, 2700.00000, 124.703, 124.425, 125.66, 0, 200.751, 181.68, 153.899, 41.2718
10, 0.00000, 124.704, 124.446, 125.66, 0, 199.781, 179.832, 153.256, 40.8637
10, 900.00000, 124.49, 124.189, 125.475, 0, 207.909, 190.484, 159.098, 43.3946
10, 1800.00000, 124.606, 124.313, 125.594, 0, 207.18, 189.78, 157.764, 43.9686
10, 2700.00000, 126.055, 125.778, 127.137, 0, 224.809, 203.087, 168.583, 49.6941
11, 0.00000, 124.252, 123.992, 125.323, 0, 222.637, 201.247, 168.018, 48.2547
11, 900.00000, 124.644, 124.368, 125.612, 0, 204.394, 185.874, 156.509, 42.3215
11, 1800.00000, 122.204, 121.959, 123.279, 0, 221.869, 201.791, 167.571, 48.1868
11, 2700.00000, 122.485, 122.221, 123.461, 0, 209.204, 191.537, 161.964, 41.8928
12, 0.00000, 122.69, 122.422, 123.674, 0, 206.635, 190.239, 157.525, 43.888
12, 900.00000, 122.072, 121.782, 123.154, 0, 228.499, 211.58, 174.014, 49.0361
12, 1800.00000, 122.23, 121.952, 123.248, 0, 219.457, 201.593, 170.078, 43.9257
12, 2700.00000, 121.937, 121.652, 123, 0, 221.198, 205.244, 168.634, 47.4026
13, 0.00000, 122.113, 121.83, 123.143, 0, 215.459, 198.216, 165.282, 44.7988
13, 900.00000, 121.903, 121.625, 122.968, 0, 223.054, 204.837, 170.723, 46.6894
13, 1800.00000, 121.384, 121.122, 122.456, 0, 225.301, 206.193, 172.062, 47.382
13, 2700.00000, 120.55, 120.306, 121.797, 0, 259.958, 237.116, 196.116, 57.1071
14, 0.00000, 120.724, 120.487, 121.988, 0, 256.339, 233.334, 190.749, 58.6499
14, 900.00000, 120.855, 120.616, 122.104, 0, 250.554, 228.364, 186.101, 57.6197
14, 1800.00000, 121.182, 120.931, 122.353, 0, 237.771, 217.522, 178.154, 53.2975
14, 2700.00000, 116.925, 116.726, 117.974, 0, 222.985, 204.229, 170.892, 46.6838
15, 0.00000, 123.935, 123.642, 125.031, 0, 228.201, 207.579, 172.632, 49.2995
15, 900.00000, 124.199, 123.896, 125.26, 0, 219.32, 200.852, 166.116, 47.429
15, 1800.00000, 123.958, 123.675, 125.024, 0, 226.911, 206.251, 174.203, 46.6068
15, 2700.00000, 124.034, 123.732, 125.112, 0, 227.032, 209.005, 172.349, 48.9506
16, 0.00000, 123.819, 123.525, 124.93, 0, 234.316, 214.794, 177.983, 50.2559
16, 900.00000, 123.851, 123.575, 124.959, 0, 232.873, 212.771, 177.029, 49.6817
16, 1800.00000, 123.895, 123.627, 124.976, 0, 230.178, 209.675, 176.205, 47.8292
16, 2700.00000, 124.102, 123.782, 125.153, 0, 222.628, 206.531, 170.177, 47.2353
17, 0.00000, 123.865, 123.596, 124.942, 0, 232.28, 211.538, 178.279, 47.8176
17, 900.00000, 123.944, 123.649, 125, 0, 229.773, 213.529, 175.534, 48.9218
17, 1800.00000, 125.502, 125.207, 126.537, 0, 236.864, 219.007, 181.878, 49.2284
17, 2700.00000, 125.478, 125.213, 126.531, 0, 237.625, 218.322, 180.677, 50.7912
18, 0.00000, 125.515, 125.214, 126.533, 0, 237.494, 221.931, 182.675, 49.6019
18, 900.00000, 124.743, 124.424, 125.904, 0, 266.626, 251.886, 202.095, 59.4664
18, 1800.00000, 124.7, 124.444, 125.859, 0, 270.053, 250.38, 205.095, 58.4987
18, 2700.00000, 128.956, 128.637, 130.072, 0, 269.924, 251.701, 205.351, 58.4073
19, 0.00000, 128.64, 128.333, 129.816, 0, 282.914, 262.864, 214.922, 61.319
19, 900.00000, 128.736, 128.456, 129.924, 0, 282.204, 260.826, 212.199, 62.918
19, 1800.00000, 128.209, 127.925, 129.39, 0, 283.369, 262.935, 214.597, 61.9744
19, 2700.00000, 127.811, 127.566, 129.155, 0, 305.114, 281.084, 225.137, 72.0417
20, 0.00000, 127.96, 127.709, 129.273, 0, 301.816, 277.995, 222.652, 71.2562
20, 900.00000, 121.894, 121.811, 123.443, 0, 324.447, 291.539, 234.415, 80.074
20, 1800.00000, 122.285, 122.129, 123.671, 0, 309.347, 282.451, 229.66, 71.2497
20, 2700.00000, 121.943, 121.821, 123.358, 0, 312.916, 283.33, 231.998, 71.9491
21, 0.00000, 121.668, 121.535, 123.156, 0, 323.748, 292.72, 237.19, 77.0724
21, 900.00000, 122.119, 121.949, 123.496, 0, 305.103, 278.523, 227.098, 69.7162
21, 1800.00000, 118.466, 118.393, 119.757, 0, 297.835, 267.514, 225.506, 64.1622
21, 2700.00000, 118.512, 118.435, 119.802, 0, 293.575, 264.297, 221.575, 63.9716
22, 0.00000, 118.811, 118.737, 120.042, 0, 282.736, 253.346, 214.214, 60.6719
22, 900.00000, 118.644, 118.56, 119.896, 0, 291.612, 262.54, 221.131, 62.5418
22, 1800.00000, 118.587, 118.519, 119.849, 0, 293.952, 263.767, 222.776, 63.0644
22, 2700.00000, 120.162, 120.055, 121.488, 0, 293.992, 265.804, 218.347, 67.3228
23, 0.00000, 120.01, 119.934, 121.365, 0, 299.724, 268.332, 223.292, 67.6709
23, 900.00000, 120.312, 120.241, 121.634, 0, 290.645, 259.742, 215.549, 66.3587
23, 1800.00000, 123.952, 123.869, 125.299, 0, 300.458, 265.834, 222.221, 68.6769
23, 2700.00000, 124.225, 124.119, 125.505, 0, 286.281, 254.356, 212.743, 64.5892
24, 0.00000, 124.104, 123.999, 125.415, 0, 291.478, 259.158, 216.253, 66.1235
24, 900.00000, 124.385, 124.262, 125.576, 0, 278.231, 249.021, 211.86, 58.2681
