hour, t(sec), |V|1 (volts), |V|2 (volts), |V|3 (volts), |V|4 (volts), |I|1 (amps), |I|2 (amps), |I|3 (amps), |I|4 (amps)
0, 900.00000, 126.719, 127.184, 127.015, 0, 27.9586, 4.54747E-013, 27.9485, 27.8126
0, 1800.00000, 126.807, 127.311, 127.099, 0, 28.8889, 5.08423E-013, 28.8786, 28.7414
0, 2700.00000, 126.73, 127.289, 127.015, 0, 30.2254, 9.37486E-013, 30.2149, 30.0757
1, 0.00000, 126.628, 127.196, 126.915, 0, 30.3979, 5.08423E-013, 30.3873, 30.2477
1, 900.00000, 126.653, 127.242, 126.938, 0, 30.8906, 4.54747E-013, 30.8798, 30.7397
1, 1800.00000, 126.734, 127.32, 127.012, 0, 30.6137, 0, 30.6033, 30.467
1, 2700.00000, 126.74, 127.273, 127.014, 0, 29.1195, 0, 29.1098, 28.9793
2, 0.00000, 126.695, 127.236, 126.976, 0, 29.4218, 4.54747E-013, 29.4118, 29.2786
2, 900.00000, 126.773, 127.324, 127.049, 0, 29.6652, 5.08423E-013, 29.6552, 29.5223
2, 1800.00000, 126.749, 127.26, 127.028, 0, 28.5955, 5.08423E-013, 28.5858, 28.4557
2, 2700.00000, 126.901, 127.445, 127.176, 0, 29.3017, 6.4311E-013, 29.2919, 29.1619
3, 0.00000, 127.038, 127.602, 127.307, 0, 29.4323, 9.09495E-013, 29.4228, 29.2971
3, 900.00000, 126.982, 127.507, 127.256, 0, 28.4032, 5.08423E-013, 28.3939, 28.2701
3, 1800.00000, 127.025, 127.615, 127.294, 0, 30.2673, 0, 30.2576, 30.1282
3, 2700.00000, 126.827, 127.403, 127.11, 0, 30.3232, 6.4311E-013, 30.3129, 30.1769
4, 0.00000, 126.909, 127.461, 127.189, 0, 29.4685, 0, 29.4584, 29.3275
4, 900.00000, 126.989, 127.525, 127.27, 0, 28.8206, 5.08423E-013, 28.8109, 28.6837
4, 1800.00000, 126.784, 127.344, 127.076, 0, 30.362, 5.08423E-013, 30.3513, 30.2096
4, 2700.00000, 127.093, 127.57, 127.369, 0, 27.1875, 2.27374E-013, 27.1785, 27.0578
5, 0.00000, 126.998, 127.464, 127.281, 0, 27.1507, 4.54747E-013, 27.1415, 27.0175
5, 900.00000, 127.008, 127.512, 127.288, 0, 28.2377, 0, 28.2282, 28.1008
5, 1800.00000, 127.069, 127.566, 127.349, 0, 27.8818, 4.54747E-013, 27.8725, 27.7474
5, 2700.00000, 127.186, 127.587, 127.463, 0, 24.9538, 4.54747E-013, 24.9455, 24.8333
6, 0.00000, 127.414, 127.744, 127.68, 0, 22.546, 0, 22.5389, 22.4396
6, 900.00000, 127.24, 127.574, 127.528, 0, 23.5926, 2.27374E-013, 23.5846, 23.4723
6, 1800.00000, 127.278, 127.568, 127.579, 0, 22.5573, 9.09495E-013, 22.5493, 22.4382
6, 2700.00000, 127.426, 127.688, 127.727, 0, 21.5805, 4.54747E-013, 21.5729, 21.4671
7, 0.00000, 127.309, 127.518, 127.629, 0, 20.7007, 9.37486E-013, 20.693, 20.585
7, 900.00000, 127.413, 127.49, 127.727, 0, 17.0231, 4.54747E-013, 17.0168, 16.9262
7, 1800.00000, 127.575, 127.6, 127.885, 0, 14.7947, 9.09495E-013, 14.7894, 14.713
7, 2700.00000, 127.649, 127.629, 127.957, 0, 13.3385, 5.08423E-013, 13.3336, 13.2649
8, 0.00000, 127.585, 127.511, 127.895, 0, 12.1725, 2.27374E-013, 12.1681, 12.1035
8, 900.00000, 127.721, 127.672, 128.033, 0, 12.5119, 6.4311E-013, 12.5075, 12.4425
8, 1800.00000, 127.593, 127.597, 127.913, 0, 14.3225, 4.54747E-013, 14.3173, 14.2418
8, 2700.00000, 127.398, 127.342, 127.73, 0, 13.1473, 1.01685E-012, 13.1422, 13.0695
9, 0.00000, 127.348, 127.198, 127.677, 0, 10.3695, 2.27374E-013, 10.3656, 10.3076
9, 900.00000, 127.259, 127.24, 127.59, 0, 14.2852, 5.08423E-013, 14.2796, 14.2007
9, 1800.00000, 127.369, 127.262, 127.7, 0, 11.3376, 4.54747E-013, 11.3332, 11.2709
9, 2700.00000, 127.536, 127.421, 127.857, 0, 10.5931, 4.54747E-013, 10.5891, 10.5329
10, 0.00000, 127.574, 127.427, 127.893, 0, 9.32616, 5.08423E-013, 9.32273, 9.27384
10, 900.00000, 127.476, 127.323, 127.797, 0, 9.43929, 2.27374E-013, 9.43578, 9.38538
10, 1800.00000, 127.555, 127.401, 127.873, 0, 9.25202, 5.08423E-013, 9.24862, 9.19977
10, 2700.00000, 127.316, 127.279, 127.652, 0, 13.3579, 2.27374E-013, 13.3527, 13.2798
11, 0.00000, 127.351, 127.316, 127.682, 0, 13.544, 9.37486E-013, 13.5388, 13.4648
11, 900.00000, 127.62, 127.461, 127.937, 0, 9.02541, 5.08423E-013, 9.02211, 8.97472
11, 1800.00000, 127.28, 127.253, 127.605, 0, 13.3484, 0, 13.3434, 13.2723
11, 2700.00000, 127.541, 127.361, 127.853, 0, 8.18408, 2.27374E-013, 8.18112, 8.13868
12, 0.00000, 127.571, 127.479, 127.877, 0, 10.7558, 9.37486E-013, 10.752, 10.6973
12, 900.00000, 127.335, 127.203, 127.661, 0, 10.2326, 9.37486E-013, 10.2287, 10.1735
12, 1800.00000, 127.352, 127.237, 127.676, 0, 10.8641, 5.08423E-013, 10.86, 10.8013
12, 2700.00000, 127.362, 127.271, 127.691, 0, 11.1869, 5.08423E-013, 11.1826, 11.123
13, 0.00000, 127.454, 127.327, 127.782, 0, 10.5055, 4.54747E-013, 10.5015, 10.4445
13, 900.00000, 127.347, 127.231, 127.681, 0, 11.0584, 0, 11.0541, 10.9931
13, 1800.00000, 127.332, 127.192, 127.662, 0, 10.2881, 4.54747E-013, 10.2841, 10.2276
13, 2700.00000, 126.855, 126.838, 127.22, 0, 15.3594, 1.01685E-012, 15.3527, 15.2609
14, 0.00000, 126.847, 126.938, 127.21, 0, 18.6551, 4.54747E-013, 18.6469, 18.5366
14, 900.00000, 126.876, 127, 127.238, 0, 19.4301, 5.08423E-013, 19.4217, 19.3083
14, 1800.00000, 127.147, 127.141, 127.496, 0, 14.8066, 2.27374E-013, 14.8004, 14.7168
14, 2700.00000, 127.276, 127.174, 127.612, 0, 11.4613, 1.01685E-012, 11.4568, 11.3935
15, 0.00000, 127.232, 127.103, 127.576, 0, 11.1093, 5.08423E-013, 11.1048, 11.0416
15, 900.00000, 127.379, 127.235, 127.719, 0, 10.2257, 5.08423E-013, 10.2217, 10.1647
15, 1800.00000, 127.341, 127.2, 127.684, 0, 10.5106, 5.08423E-013, 10.5064, 10.4473
15, 2700.00000, 127.339, 127.249, 127.676, 0, 11.9075, 5.08423E-013, 11.9028, 11.8369
16, 0.00000, 127.237, 127.16, 127.583, 0, 12.5148, 4.54747E-013, 12.5097, 12.4393
16, 900.00000, 127.275, 127.191, 127.622, 0, 11.9118, 5.08423E-013, 11.9069, 11.8408
16, 1800.00000, 127.327, 127.202, 127.667, 0, 10.5448, 6.4311E-013, 10.5406, 10.4827
16, 2700.00000, 127.529, 127.377, 127.863, 0, 9.68756, 5.08423E-013, 9.68381, 9.63096
17, 0.00000, 127.393, 127.28, 127.73, 0, 11.1041, 5.08423E-013, 11.0998, 11.0385
17, 900.00000, 127.472, 127.339, 127.787, 0, 9.62067, 4.54747E-013, 9.61715, 9.56727
17, 1800.00000, 127.464, 127.347, 127.762, 0, 10.0099, 2.27374E-013, 10.0064, 9.95585
17, 2700.00000, 127.392, 127.357, 127.685, 0, 12.187, 6.4311E-013, 12.1828, 12.1229
18, 0.00000, 127.457, 127.396, 127.74, 0, 11.167, 4.54747E-013, 11.1633, 11.1096
18, 900.00000, 127.058, 127.089, 127.355, 0, 14.2655, 4.54747E-013, 14.2605, 14.1901
18, 1800.00000, 126.993, 127.084, 127.284, 0, 16.1372, 0, 16.1316, 16.0528
18, 2700.00000, 127.014, 127.024, 127.306, 0, 13.5112, 9.37486E-013, 13.5065, 13.4404
19, 0.00000, 126.827, 126.902, 127.129, 0, 15.8233, 6.4311E-013, 15.8175, 15.7384
19, 900.00000, 126.792, 126.979, 127.087, 0, 19.0479, 5.08423E-013, 19.0411, 18.9483
19, 1800.00000, 126.771, 126.915, 127.068, 0, 17.6309, 2.27374E-013, 17.6245, 17.5386
19, 2700.00000, 126.424, 126.793, 126.745, 0, 24.9813, 9.09495E-013, 24.9714, 24.8453
20, 0.00000, 126.58, 126.871, 126.885, 0, 22.5323, 4.54747E-013, 22.5238, 22.412
20, 900.00000, 126.055, 126.709, 126.396, 0, 34.2712, 4.54747E-013, 34.2564, 34.0784
20, 1800.00000, 126.459, 126.86, 126.77, 0, 26.1662, 8.19807E-013, 26.1561, 26.0246
20, 2700.00000, 126.299, 126.743, 126.621, 0, 27.5358, 9.37486E-013, 27.5247, 27.3847
21, 0.00000, 126.071, 126.598, 126.401, 0, 30.9813, 0, 30.9683, 30.8033
21, 900.00000, 126.407, 126.779, 126.727, 0, 25.6531, 5.08423E-013, 25.6428, 25.5099
21, 1800.00000, 126.374, 126.777, 126.69, 0, 26.7471, 9.09495E-013, 26.7366, 26.598
21, 2700.00000, 126.352, 126.788, 126.671, 0, 27.4915, 9.09495E-013, 27.4805, 27.3397
22, 0.00000, 126.574, 126.928, 126.877, 0, 24.7583, 4.54747E-013, 24.749, 24.6254
22, 900.00000, 126.521, 126.871, 126.821, 0, 24.8182, 9.09495E-013, 24.809, 24.6843
22, 1800.00000, 126.481, 126.851, 126.781, 0, 25.3858, 4.54747E-013, 25.3763, 25.2493
22, 2700.00000, 126.56, 126.983, 126.86, 0, 26.9862, 4.54747E-013, 26.9762, 26.8418
23, 0.00000, 126.473, 126.921, 126.789, 0, 28.0579, 5.08423E-013, 28.0469, 27.9026
23, 900.00000, 126.614, 127.073, 126.916, 0, 28.0065, 0, 27.9961, 27.8572
23, 1800.00000, 126.474, 127.019, 126.783, 0, 31.1411, 4.54747E-013, 31.1292, 30.9708
23, 2700.00000, 126.68, 127.112, 126.983, 0, 27.2116, 0, 27.2015, 27.0661
24, 0.00000, 126.594, 127.073, 126.904, 0, 28.7998, 0, 28.7889, 28.6439
24, 900.00000, 126.719, 127.184, 127.015, 0, 27.9589, 2.27374E-013, 27.9487, 27.8129
