hour, t(sec), |V|1 (volts), |V|2 (volts), |V|3 (volts), |V|4 (volts), |I|1 (amps), |I|2 (amps), |I|3 (amps), |I|4 (amps)
0, 900.00000, 125.248, 124.676, 125.744, 0, 206.842, 218.997, 196.652, 20.4974
0, 1800.00000, 125.527, 124.969, 126.001, 0, 193.265, 205.183, 184.706, 18.8573
0, 2700.00000, 125.089, 124.615, 125.597, 0, 191.288, 197.05, 179.126, 16.7451
1, 0.00000, 124.971, 124.413, 125.445, 0, 193.478, 206.803, 183.834, 20.9852
1, 900.00000, 125.032, 124.477, 125.51, 0, 192.104, 205.619, 181.93, 21.5687
1, 1800.00000, 125.041, 124.53, 125.544, 0, 191.663, 201.915, 178.837, 20.9443
1, 2700.00000, 125.001, 124.473, 125.521, 0, 191.498, 202.768, 176.699, 23.5456
2, 0.00000, 124.891, 124.414, 125.394, 0, 197.651, 204.562, 185.048, 18.0537
2, 900.00000, 125.063, 124.541, 125.586, 0, 190.167, 200.82, 175.815, 22.6411
2, 1800.00000, 125.002, 124.436, 125.507, 0, 190.622, 204.491, 177.992, 23.9168
2, 2700.00000, 125.13, 124.602, 125.64, 0, 189.036, 200.656, 175.694, 22.5474
3, 0.00000, 125.446, 124.957, 125.917, 0, 174.073, 183.614, 163.449, 18.2971
3, 900.00000, 125.334, 124.803, 125.772, 0, 176.601, 189.3, 169.166, 18.5328
3, 1800.00000, 125.868, 125.373, 126.334, 0, 173.47, 183.599, 163.283, 18.4233
3, 2700.00000, 125.509, 125.007, 125.996, 0, 187.271, 196.593, 176.426, 18.4017
4, 0.00000, 125.62, 125.14, 126.073, 0, 182.563, 190.23, 174.539, 14.4984
4, 900.00000, 125.683, 125.255, 126.17, 0, 181.77, 185.077, 171.279, 13.2699
4, 1800.00000, 125.36, 124.899, 125.919, 0, 195.162, 199.191, 180.032, 18.3679
4, 2700.00000, 126.05, 125.612, 126.552, 0, 183.668, 187.174, 171.934, 14.621
5, 0.00000, 125.905, 125.368, 126.414, 0, 187.595, 198.518, 176.146, 20.3405
5, 900.00000, 125.98, 125.504, 126.496, 0, 184.957, 191.19, 172.354, 17.4849
5, 1800.00000, 125.849, 125.423, 126.372, 0, 194.343, 196.697, 180.955, 15.5036
5, 2700.00000, 125.929, 125.442, 126.417, 0, 189.912, 197.145, 179.503, 16.2887
6, 0.00000, 126.267, 125.774, 126.714, 0, 173.918, 181.896, 166.43, 14.2776
6, 900.00000, 126.017, 125.504, 126.511, 0, 181.942, 188.767, 173.592, 14.1481
6, 1800.00000, 125.971, 125.426, 126.535, 0, 184.371, 191.897, 172.63, 17.8442
6, 2700.00000, 126.585, 126.253, 127.122, 0, 152.911, 152.324, 140.59, 9.30735
7, 0.00000, 126.154, 125.824, 126.766, 0, 176.56, 173.154, 160.619, 11.8831
7, 900.00000, 126.193, 125.867, 126.882, 0, 171.711, 166.307, 149.212, 17.6852
7, 1800.00000, 126.579, 126.507, 127.27, 0, 150.212, 134.528, 124.995, 18.0254
7, 2700.00000, 126.648, 126.586, 127.318, 0, 146.941, 130.419, 123.589, 17.2968
8, 0.00000, 126.432, 126.313, 127.152, 0, 156.42, 143.171, 129.383, 18.6551
8, 900.00000, 126.743, 126.623, 127.435, 0, 141.982, 129.626, 118.107, 16.1629
8, 1800.00000, 126.708, 126.583, 127.383, 0, 138.602, 126.512, 116.902, 14.5714
8, 2700.00000, 126.627, 126.676, 127.319, 0, 132.985, 113.52, 109.043, 19.2626
9, 0.00000, 126.257, 126.282, 127.053, 0, 152.421, 133.821, 119.537, 22.9021
9, 900.00000, 126.371, 126.421, 127.138, 0, 145.711, 126.139, 115.051, 22.0254
9, 1800.00000, 126.844, 127.371, 127.688, 0, 140.842, 103.986, 100.189, 38.7845
9, 2700.00000, 127.183, 127.685, 128.059, 0, 123.733, 91.1942, 80.9798, 37.5356
10, 0.00000, 127.123, 127.595, 127.921, 0, 129.202, 99.2908, 91.9029, 33.295
10, 900.00000, 126.928, 127.481, 127.827, 0, 137.93, 100.266, 92.0543, 41.1329
10, 1800.00000, 127.107, 127.643, 127.919, 0, 128.556, 93.3755, 90.1777, 37.9222
10, 2700.00000, 127.803, 128.888, 128.673, 0, 112.088, 78.263, 73.4333, 55.3924
11, 0.00000, 127.934, 129.002, 128.798, 0, 104.138, 74.5906, 68.1463, 54.4048
11, 900.00000, 128.049, 129.141, 128.9, 0, 104.238, 74.1482, 68.131, 55.1714
11, 1800.00000, 128.046, 129.339, 129, 0, 107.589, 77.4191, 67.2758, 63.2892
11, 2700.00000, 128.317, 129.564, 129.141, 0, 94.3216, 74.5546, 65.138, 58.8329
12, 0.00000, 128.442, 129.758, 129.293, 0, 91.4077, 73.0363, 62.9208, 63.468
12, 900.00000, 127.936, 129.282, 128.857, 0, 113.017, 77.6766, 71.9085, 67.53
12, 1800.00000, 128.109, 129.356, 128.939, 0, 101.633, 76.3158, 69.3299, 60.4688
12, 2700.00000, 128.151, 129.593, 129.022, 0, 103.354, 78.3039, 70.5275, 69.5444
13, 0.00000, 128.264, 129.651, 129.143, 0, 98.5879, 77.9159, 68.3817, 66.8697
13, 900.00000, 128.117, 129.5, 129.035, 0, 103.371, 78.853, 69.4252, 67.0374
13, 1800.00000, 128.011, 129.366, 128.952, 0, 104.444, 79.7243, 69.0265, 65.0983
13, 2700.00000, 127.461, 128.803, 128.44, 0, 123.853, 86.5132, 80.0902, 67.1062
14, 0.00000, 127.566, 128.931, 128.566, 0, 121.918, 84.9753, 77.8297, 68.3036
14, 900.00000, 127.673, 129.029, 128.617, 0, 117.697, 83.7575, 77.8424, 66.9109
14, 1800.00000, 127.914, 129.273, 128.821, 0, 108.171, 80.5056, 73.277, 66.2662
14, 2700.00000, 128.161, 129.51, 129.025, 0, 101.271, 80.0834, 71.1022, 63.7818
15, 0.00000, 127.963, 129.3, 128.988, 0, 112.05, 83.2281, 70.9855, 64.825
15, 900.00000, 128.222, 129.569, 129.126, 0, 100.712, 79.7867, 69.869, 64.187
15, 1800.00000, 128.172, 129.404, 129.046, 0, 103.7, 80.6267, 71.4687, 57.9546
15, 2700.00000, 128.164, 129.467, 129.062, 0, 106.873, 79.956, 71.8785, 62.6738
16, 0.00000, 128.02, 129.326, 128.941, 0, 112.98, 82.1089, 74.6349, 63.2331
16, 900.00000, 128.124, 129.411, 128.973, 0, 107.081, 80.7332, 74.3497, 61.0688
16, 1800.00000, 128.139, 129.439, 128.973, 0, 106.761, 80.4193, 74.3414, 61.598
16, 2700.00000, 127.739, 128.73, 128.574, 0, 122.633, 82.0973, 83.047, 53.9021
17, 0.00000, 127.603, 128.515, 128.427, 0, 126.618, 89.6316, 87.1375, 48.3826
17, 900.00000, 127.483, 128.531, 128.285, 0, 140.538, 94.251, 97.8135, 55.5886
17, 1800.00000, 126.659, 127.099, 127.46, 0, 162.975, 127.731, 119.984, 36.3492
17, 2700.00000, 126.581, 127.036, 127.431, 0, 170.439, 135.32, 121.728, 38.7003
18, 0.00000, 126.69, 127.154, 127.414, 0, 165.23, 130.568, 125.341, 34.8773
18, 900.00000, 125.915, 126.516, 126.754, 0, 208.065, 161.503, 157.415, 45.5495
18, 1800.00000, 125.906, 126.41, 126.766, 0, 208.142, 169.901, 154.965, 41.8989
18, 2700.00000, 124.482, 124.371, 125.324, 0, 268.386, 250.763, 225.364, 34.9382
19, 0.00000, 124.354, 124.271, 125.184, 0, 270.32, 250.205, 228.571, 33.6796
19, 900.00000, 124.516, 124.432, 125.407, 0, 262.797, 243.855, 214.729, 39.4153
19, 1800.00000, 124.094, 123.801, 124.963, 0, 281.388, 270.257, 238.769, 39.0498
19, 2700.00000, 123.83, 123.544, 124.7, 0, 293.017, 280.769, 252.733, 36.5526
20, 0.00000, 123.995, 123.695, 124.88, 0, 286.319, 275.371, 243.376, 39.461
20, 900.00000, 123.673, 123.324, 124.556, 0, 298.937, 291.666, 259.42, 37.4519
20, 1800.00000, 124.219, 123.833, 124.984, 0, 266.443, 262.535, 234.034, 31.5481
20, 2700.00000, 124.144, 123.735, 124.941, 0, 266.578, 264.344, 232.502, 34.0051
21, 0.00000, 123.672, 123.256, 124.701, 0, 294.589, 290.47, 242.537, 51.2715
21, 900.00000, 124.236, 123.828, 124.977, 0, 261.542, 257.894, 233.044, 27.7884
21, 1800.00000, 124.486, 123.981, 125.24, 0, 246.178, 250.295, 216.289, 33.2363
21, 2700.00000, 124.471, 124.032, 125.264, 0, 247.532, 246.909, 214.517, 33.686
22, 0.00000, 124.688, 124.218, 125.485, 0, 240.745, 243.036, 206.131, 36.7963
22, 900.00000, 124.578, 124.114, 125.37, 0, 245.949, 247.546, 211.059, 36.6907
22, 1800.00000, 124.55, 124.046, 125.297, 0, 246.837, 252.094, 215.49, 35.3283
22, 2700.00000, 124.754, 124.31, 125.478, 0, 243.314, 243.424, 214.616, 29.6965
23, 0.00000, 124.723, 124.233, 125.436, 0, 241.186, 244.231, 215.386, 28.5175
23, 900.00000, 124.983, 124.492, 125.688, 0, 230.628, 234.713, 204.139, 29.7542
23, 1800.00000, 124.81, 124.244, 125.485, 0, 230.751, 240.434, 207.407, 30.552
23, 2700.00000, 124.916, 124.388, 125.599, 0, 228.885, 235.934, 204.645, 29.5036
24, 0.00000, 124.88, 124.36, 125.55, 0, 229.251, 235.546, 206.409, 27.6357
24, 900.00000, 125.248, 124.676, 125.744, 0, 206.846, 219, 196.654, 20.4988
