hour, t(sec), |V|1 (volts), |V|2 (volts), |V|3 (volts), |V|4 (volts), |I|1 (amps), |I|2 (amps), |I|3 (amps), |I|4 (amps)
0, 900.00000, 125.41, 125.569, 126.66, 0, 283.6, 230.696, 204.997, 69.6321
0, 1800.00000, 125.645, 125.82, 126.879, 0, 273.57, 220.122, 196.104, 68.865
0, 2700.00000, 130.725, 130.788, 131.88, 0, 258.619, 211.778, 184.145, 65.4122
1, 0.00000, 130.578, 130.689, 131.762, 0, 264.049, 213.298, 186.427, 68.4542
1, 900.00000, 130.635, 130.75, 131.821, 0, 262.658, 212.072, 184.73, 68.6733
1, 1800.00000, 124.816, 124.963, 126.021, 0, 256.358, 208.854, 180.26, 66.8757
1, 2700.00000, 124.703, 124.873, 125.909, 0, 262.607, 212.628, 185.888, 67.7005
2, 0.00000, 124.6, 124.789, 125.823, 0, 268.309, 216.756, 190.862, 68.527
2, 900.00000, 124.806, 124.974, 126.009, 0, 257.646, 207.746, 181.936, 66.9048
2, 1800.00000, 124.636, 124.858, 125.853, 0, 267.609, 212.494, 190.971, 68.6054
2, 2700.00000, 124.836, 125.027, 126.031, 0, 258.577, 207.075, 183.469, 66.7203
3, 0.00000, 125.169, 125.323, 126.324, 0, 241.871, 194.687, 169.558, 63.8225
3, 900.00000, 124.917, 125.148, 126.094, 0, 256.702, 202.452, 182.932, 66.3177
3, 1800.00000, 125.113, 125.298, 126.278, 0, 246.486, 196.811, 173.445, 64.809
3, 2700.00000, 124.715, 124.933, 125.936, 0, 263.997, 210.175, 187.295, 68.3896
4, 0.00000, 124.83, 125.032, 126.029, 0, 258.802, 206.655, 183.906, 66.6918
4, 900.00000, 124.978, 125.137, 126.16, 0, 250.643, 202.249, 177.592, 64.6028
4, 1800.00000, 124.625, 124.806, 125.87, 0, 266.849, 214.503, 189.973, 68.242
4, 2700.00000, 125.006, 125.168, 126.162, 0, 250.297, 200.981, 179.606, 62.9578
5, 0.00000, 124.787, 124.989, 125.988, 0, 260.632, 206.751, 187.022, 66.1149
5, 900.00000, 124.864, 125.05, 126.054, 0, 257.866, 205.889, 184.636, 65.4088
5, 1800.00000, 124.827, 124.995, 126.015, 0, 257.174, 207.284, 183.892, 65.0376
5, 2700.00000, 124.819, 125.019, 125.982, 0, 260.286, 207.122, 189.119, 64.1692
6, 0.00000, 125.113, 125.312, 126.21, 0, 247.941, 195.039, 181.991, 60.4622
6, 900.00000, 124.833, 125.013, 126.002, 0, 258.778, 204.645, 189.781, 62.8996
6, 1800.00000, 124.925, 125.031, 126.116, 0, 249.187, 199.48, 180.852, 61.2981
6, 2700.00000, 125.137, 125.25, 126.299, 0, 239.756, 189.261, 174.514, 59.2849
7, 0.00000, 124.744, 124.859, 125.955, 0, 260.024, 206.895, 193.403, 60.9774
7, 900.00000, 124.805, 124.887, 125.968, 0, 253.291, 201.43, 191.015, 57.6513
7, 1800.00000, 125.105, 125.183, 126.235, 0, 240.632, 189.874, 181.792, 55.0785
7, 2700.00000, 125.165, 125.245, 126.269, 0, 238.156, 187.235, 181.657, 53.6898
8, 0.00000, 124.977, 125.046, 126.093, 0, 245.128, 193.492, 188.272, 54.1599
8, 900.00000, 125.341, 125.391, 126.438, 0, 226.056, 176.802, 171.627, 51.8021
8, 1800.00000, 125.213, 125.285, 126.342, 0, 230.769, 179.378, 174.193, 53.9317
8, 2700.00000, 124.259, 124.33, 125.419, 0, 239.888, 187.125, 182.557, 54.9091
9, 0.00000, 124.03, 124.108, 125.202, 0, 246.94, 192.71, 188.713, 56.015
9, 900.00000, 124.085, 124.172, 125.273, 0, 245.417, 191.472, 185.518, 56.9136
9, 1800.00000, 124.757, 124.828, 125.895, 0, 251.323, 198.287, 195.506, 54.1171
9, 2700.00000, 125.164, 125.21, 126.272, 0, 228.423, 178.497, 174.609, 51.6988
10, 0.00000, 125.089, 125.174, 126.177, 0, 235.345, 182.745, 182.744, 52.1916
10, 900.00000, 124.953, 125, 126.056, 0, 238.787, 188.873, 184.98, 51.6707
10, 1800.00000, 125.14, 125.165, 126.218, 0, 228.764, 181.223, 177.048, 49.49
10, 2700.00000, 126.639, 126.694, 127.797, 0, 248.695, 195.873, 190.487, 55.4271
11, 0.00000, 124.875, 124.918, 126.025, 0, 241.268, 191.234, 184.439, 53.5479
11, 900.00000, 125.122, 125.14, 126.194, 0, 230.516, 183.671, 179.158, 48.9947
11, 1800.00000, 122.761, 122.89, 123.92, 0, 251.744, 198.019, 193.214, 56.0282
11, 2700.00000, 122.98, 123.116, 124.058, 0, 242.602, 188.72, 189.474, 53.0906
12, 0.00000, 123.247, 123.3, 124.315, 0, 227.86, 181.795, 175.203, 49.5273
12, 900.00000, 122.664, 122.755, 123.817, 0, 256.269, 205.169, 198.295, 54.6622
12, 1800.00000, 122.716, 122.839, 123.852, 0, 254.697, 200.432, 197.973, 55.186
12, 2700.00000, 122.486, 122.593, 123.636, 0, 253.243, 201.888, 195.657, 54.5353
13, 0.00000, 122.557, 122.674, 123.692, 0, 252.087, 198.309, 196.86, 54.1429
13, 900.00000, 122.415, 122.522, 123.582, 0, 256.249, 202.86, 198.805, 55.2321
13, 1800.00000, 121.985, 122.073, 123.149, 0, 250.053, 198.687, 192.714, 54.379
13, 2700.00000, 121.347, 121.423, 122.66, 0, 276.413, 223.745, 209.955, 60.7671
14, 0.00000, 121.502, 121.572, 122.812, 0, 270.777, 218.831, 204.571, 60.3964
14, 900.00000, 121.575, 121.677, 122.872, 0, 269.574, 215.71, 204.216, 60.3895
14, 1800.00000, 121.903, 121.962, 123.133, 0, 252.732, 203.163, 191.896, 56.0224
14, 2700.00000, 117.589, 117.709, 118.706, 0, 238.737, 189.87, 184.832, 51.8378
15, 0.00000, 124.558, 124.607, 125.749, 0, 251.244, 198.362, 192.984, 55.4812
15, 900.00000, 124.768, 124.829, 125.92, 0, 243.752, 190.888, 188.344, 53.8216
15, 1800.00000, 124.571, 124.664, 125.752, 0, 252.527, 196.638, 194.413, 56.6472
15, 2700.00000, 124.732, 124.744, 125.891, 0, 241.723, 193.671, 184.728, 52.95
16, 0.00000, 124.488, 124.553, 125.693, 0, 256.393, 203.315, 195.992, 56.8747
16, 900.00000, 124.52, 124.623, 125.729, 0, 256.346, 200.977, 195.299, 58.1524
16, 1800.00000, 124.47, 124.599, 125.656, 0, 261.697, 204.513, 201.7, 58.2753
16, 2700.00000, 124.666, 124.741, 125.807, 0, 251.946, 199.533, 195.616, 54.1608
17, 0.00000, 124.483, 124.569, 125.667, 0, 259.556, 205.748, 199.531, 56.9136
17, 900.00000, 124.505, 124.588, 125.608, 0, 261.829, 211.508, 204.902, 53.695
17, 1800.00000, 126.199, 126.295, 127.283, 0, 259.938, 208.074, 200.803, 55.6192
17, 2700.00000, 126.185, 126.302, 127.272, 0, 261.913, 209.814, 201.171, 56.725
18, 0.00000, 126.241, 126.368, 127.275, 0, 261.365, 209.525, 203.179, 55.0314
18, 900.00000, 125.568, 125.702, 126.686, 0, 295.342, 243.53, 229.249, 60.1663
18, 1800.00000, 125.616, 125.73, 126.755, 0, 290.437, 240.466, 221.772, 61.5338
18, 2700.00000, 129.762, 129.829, 130.842, 0, 302.266, 252.457, 235.324, 60.1556
19, 0.00000, 129.47, 129.571, 130.605, 0, 319.109, 266.202, 247.512, 64.2678
19, 900.00000, 129.689, 129.773, 130.826, 0, 306.215, 256.065, 233.491, 64.5326
19, 1800.00000, 129.135, 129.223, 130.287, 0, 311.02, 261.052, 237.134, 65.3942
19, 2700.00000, 128.946, 128.989, 130.208, 0, 316.784, 270.115, 235.667, 70.8818
20, 0.00000, 129.096, 129.17, 130.302, 0, 310.939, 261.631, 233.337, 68.2304
20, 900.00000, 123.081, 123.249, 124.52, 0, 335.246, 282.717, 245.036, 79.0464
20, 1800.00000, 123.511, 123.673, 124.815, 0, 312.382, 260.454, 230.785, 71.8728
20, 2700.00000, 123.199, 123.366, 124.565, 0, 314.276, 261.855, 228.58, 75.2632
21, 0.00000, 122.971, 123.092, 124.377, 0, 321.756, 270.954, 234.341, 76.56
21, 900.00000, 123.218, 123.407, 124.547, 0, 315.505, 259.838, 233.911, 72.4652
21, 1800.00000, 119.577, 119.784, 120.865, 0, 302.35, 249.288, 224.215, 69.7096
21, 2700.00000, 119.555, 119.778, 120.869, 0, 304.323, 250.601, 224.097, 71.4367
22, 0.00000, 119.793, 120.011, 121.053, 0, 294.81, 241.637, 218.497, 68.2345
22, 900.00000, 119.705, 119.907, 120.959, 0, 298.492, 246.494, 221.854, 68.2926
22, 1800.00000, 119.645, 119.885, 120.899, 0, 302.313, 247.467, 225.258, 69.1852
22, 2700.00000, 121.284, 121.447, 122.573, 0, 292.938, 242.717, 214.432, 69.2176
23, 0.00000, 121.132, 121.317, 122.488, 0, 301.149, 248.258, 218.836, 72.6354
23, 900.00000, 121.465, 121.616, 122.781, 0, 284.187, 234.786, 203.896, 70.5588
23, 1800.00000, 125.15, 125.279, 126.475, 0, 292.276, 240.082, 209.497, 72.8358
23, 2700.00000, 125.283, 125.431, 126.572, 0, 287.932, 234.738, 208.102, 70.6485
24, 0.00000, 125.164, 125.34, 126.477, 0, 295.536, 239.851, 213.951, 72.438
24, 900.00000, 125.41, 125.569, 126.66, 0, 283.599, 230.694, 204.995, 69.6323
