hour, t(sec), |V|1 (volts), |V|2 (volts), |V|3 (volts), |V|4 (volts), |I|1 (amps), |I|2 (amps), |I|3 (amps), |I|4 (amps)
0, 900.00000, 128.46, 128.036, 128.748, 0, 4.09537, 4.0973, 4.09408, 0.0236215
0, 1800.00000, 128.534, 128.12, 128.82, 0, 4.48895, 4.491, 4.48756, 0.0253906
0, 2700.00000, 133.346, 132.904, 133.598, 0, 5.04308, 5.04476, 5.05178, 0.0197669
1, 0.00000, 133.338, 132.9, 133.588, 0, 4.26802, 4.26945, 4.27497, 0.0168096
1, 900.00000, 133.746, 133.315, 133.996, 0, 0.381085, 0.380021, 0.381796, 0.000175105
1, 1800.00000, 127.932, 127.556, 128.209, 0, 0.0280891, 0.0281013, 0.0280804, 0.000149698
1, 2700.00000, 127.894, 127.513, 128.166, 0, 0.0283308, 0.0283432, 0.0283221, 0.000151292
2, 0.00000, 127.859, 127.478, 128.138, 0, 0.027959, 0.0279714, 0.0279503, 0.000150859
2, 900.00000, 127.939, 127.558, 128.217, 0, 0.028142, 0.0281544, 0.0281332, 0.000151514
2, 1800.00000, 127.888, 127.5, 128.168, 0, 0.0278712, 0.0278837, 0.0278624, 0.000152114
2, 2700.00000, 127.977, 127.6, 128.255, 0, 0.0283261, 0.0283384, 0.0283173, 0.000151271
3, 0.00000, 128.108, 127.746, 128.38, 0, 0.0283192, 0.0283309, 0.0283106, 0.000146236
3, 900.00000, 127.934, 127.566, 128.209, 0, 1.04814, 1.04858, 1.04781, 0.00550033
3, 1800.00000, 128.006, 127.644, 128.279, 0, 1.07917, 1.07961, 1.07884, 0.00557923
3, 2700.00000, 127.898, 127.521, 128.182, 0, 0.294007, 0.294135, 0.293913, 0.00158563
4, 0.00000, 127.975, 127.601, 128.257, 0, 0.0283488, 0.0283611, 0.0283398, 0.000151824
4, 900.00000, 128.028, 127.655, 128.313, 0, 0.0279937, 0.0280056, 0.0279847, 0.000149959
4, 1800.00000, 127.876, 127.48, 128.174, 0, 0.0271993, 0.0272117, 0.0271901, 0.000154151
4, 2700.00000, 128.051, 127.672, 128.336, 0, 0.0281038, 0.028116, 0.0280948, 0.000152088
5, 0.00000, 127.961, 127.57, 128.254, 0, 0.027974, 0.0279866, 0.0279648, 0.000156057
5, 900.00000, 128.001, 127.616, 128.289, 0, 0.0277075, 0.0277197, 0.0276985, 0.000152145
5, 1800.00000, 127.956, 127.576, 128.243, 0, 0.0279454, 0.0279577, 0.0279365, 0.000152117
5, 2700.00000, 127.949, 127.564, 128.235, 0, 0.392605, 0.392779, 0.392479, 0.00214909
6, 0.00000, 127.961, 127.579, 128.241, 0, 1.76515, 1.76593, 1.7646, 0.00951979
6, 900.00000, 127.71, 127.297, 128.016, 0, 2.92259, 2.924, 2.92156, 0.0171848
6, 1800.00000, 127.627, 127.194, 127.954, 0, 3.71707, 3.71897, 3.71567, 0.0231058
6, 2700.00000, 127.555, 127.122, 127.887, 0, 5.49348, 5.49629, 5.49137, 0.0343153
7, 0.00000, 127.029, 126.568, 127.385, 0, 9.45816, 9.46351, 9.45414, 0.0634165
7, 900.00000, 127.048, 126.57, 127.403, 0, 9.10995, 9.11529, 9.10609, 0.0623411
7, 1800.00000, 127.197, 126.73, 127.555, 0, 9.12306, 9.12823, 9.1192, 0.0616385
7, 2700.00000, 127.195, 126.729, 127.553, 0, 9.43957, 9.44491, 9.43557, 0.0637599
8, 0.00000, 126.972, 126.487, 127.335, 0, 10.7242, 10.7306, 10.7196, 0.0746249
8, 900.00000, 127.077, 126.603, 127.447, 0, 11.067, 11.0734, 11.0621, 0.0765217
8, 1800.00000, 127.011, 126.534, 127.387, 0, 11.0335, 11.0399, 11.0285, 0.0771651
8, 2700.00000, 126.183, 125.689, 126.576, 0, 10.9533, 10.9603, 10.9479, 0.0805669
9, 0.00000, 126.04, 125.536, 126.433, 0, 11.0211, 11.0284, 11.0156, 0.0821691
9, 900.00000, 126.083, 125.59, 126.476, 0, 10.9232, 10.9302, 10.9178, 0.080326
9, 1800.00000, 126.851, 126.354, 127.24, 0, 10.5807, 10.5872, 10.5757, 0.0770141
9, 2700.00000, 127.106, 126.621, 127.489, 0, 9.36479, 9.37034, 9.36052, 0.0665966
10, 0.00000, 127.106, 126.629, 127.485, 0, 9.3804, 9.38589, 9.37619, 0.0657755
10, 900.00000, 126.857, 126.371, 127.237, 0, 11.0105, 11.0171, 11.0055, 0.0782673
10, 1800.00000, 126.922, 126.441, 127.301, 0, 11.0258, 11.0324, 11.0208, 0.0777668
10, 2700.00000, 128.717, 128.208, 129.102, 0, 10.3291, 10.3349, 10.3249, 0.0739246
11, 0.00000, 126.825, 126.334, 127.216, 0, 10.8381, 10.8447, 10.833, 0.0785382
11, 900.00000, 126.927, 126.448, 127.304, 0, 11.0025, 11.0091, 10.9975, 0.0773357
11, 1800.00000, 124.845, 124.389, 125.229, 0, 10.8186, 10.8255, 10.813, 0.0767048
11, 2700.00000, 125.072, 124.623, 125.441, 0, 9.54867, 9.55463, 9.54393, 0.0658475
12, 0.00000, 125.096, 124.655, 125.462, 0, 10.2399, 10.2461, 10.2348, 0.0695937
12, 900.00000, 124.952, 124.489, 125.336, 0, 9.28512, 9.29105, 9.28025, 0.0663855
12, 1800.00000, 124.982, 124.516, 125.363, 0, 9.30555, 9.31159, 9.30073, 0.0666236
12, 2700.00000, 124.704, 124.253, 125.09, 0, 9.62257, 9.62869, 9.61748, 0.0681547
13, 0.00000, 124.727, 124.261, 125.12, 0, 9.99759, 10.0042, 9.99216, 0.0727407
13, 900.00000, 124.601, 124.129, 124.999, 0, 10.3992, 10.4062, 10.3934, 0.0767757
13, 1800.00000, 124.104, 123.636, 124.501, 0, 10.3904, 10.3975, 10.3846, 0.0767215
13, 2700.00000, 123.802, 123.305, 124.233, 0, 10.3214, 10.329, 10.3149, 0.082117
14, 0.00000, 123.916, 123.424, 124.348, 0, 10.011, 10.0183, 10.0048, 0.0792264
14, 900.00000, 124.033, 123.549, 124.462, 0, 9.36417, 9.37083, 9.35842, 0.0731335
14, 1800.00000, 124.101, 123.626, 124.519, 0, 9.92956, 9.93648, 9.92365, 0.0757034
14, 2700.00000, 119.618, 119.214, 120.012, 0, 9.91016, 9.87451, 9.94497, 0.0039124
15, 0.00000, 126.878, 126.362, 127.285, 0, 8.40156, 8.40694, 8.39744, 0.0638104
15, 900.00000, 127.015, 126.511, 127.418, 0, 8.16353, 8.16859, 8.1596, 0.0607778
15, 1800.00000, 126.818, 126.311, 127.221, 0, 9.24729, 9.25313, 9.2428, 0.0692176
15, 2700.00000, 126.814, 126.314, 127.21, 0, 9.63135, 9.63735, 9.62674, 0.0709757
16, 0.00000, 126.736, 126.231, 127.138, 0, 9.70627, 9.7124, 9.70153, 0.0724807
16, 900.00000, 126.767, 126.273, 127.168, 0, 9.66432, 9.67029, 9.65963, 0.0711607
16, 1800.00000, 126.776, 126.287, 127.168, 0, 9.67356, 9.67948, 9.66894, 0.0701877
16, 2700.00000, 127.029, 126.54, 127.417, 0, 7.87013, 7.87486, 7.86649, 0.056678
17, 0.00000, 127.245, 126.752, 127.634, 0, 4.71329, 4.7161, 4.71113, 0.0341163
17, 900.00000, 127.281, 126.82, 127.637, 0, 4.71038, 4.713, 4.70841, 0.0315817
17, 1800.00000, 128.9, 128.435, 129.224, 0, 5.03951, 5.04205, 5.03779, 0.0319383
17, 2700.00000, 128.837, 128.388, 129.149, 0, 5.75204, 5.75478, 5.75006, 0.0352145
18, 0.00000, 128.468, 128.028, 128.763, 0, 9.97254, 9.97742, 9.96935, 0.0590775
18, 900.00000, 128.218, 127.78, 128.511, 0, 9.73501, 9.73985, 9.73187, 0.0576429
18, 1800.00000, 128.141, 127.704, 128.428, 0, 10.4473, 10.4526, 10.444, 0.0613274
18, 2700.00000, 132.443, 131.966, 132.699, 0, 9.9295, 9.9334, 9.92746, 0.0559346
19, 0.00000, 132.347, 131.868, 132.607, 0, 9.92959, 9.93355, 9.92752, 0.0564519
19, 900.00000, 132.363, 131.898, 132.616, 0, 10.4302, 10.4342, 10.4281, 0.0576028
19, 1800.00000, 131.831, 131.369, 132.085, 0, 10.8697, 10.874, 10.8674, 0.060169
19, 2700.00000, 131.738, 131.269, 132.016, 0, 10.6413, 10.6456, 10.6388, 0.0614441
20, 0.00000, 131.846, 131.379, 132.111, 0, 10.3024, 10.3065, 10.3001, 0.0582621
20, 900.00000, 126.163, 125.741, 126.496, 0, 10.4231, 10.4288, 10.4187, 0.0653188
20, 1800.00000, 126.277, 125.857, 126.581, 0, 10.7724, 10.7783, 10.7683, 0.0647445
20, 2700.00000, 126.08, 125.66, 126.396, 0, 9.8998, 9.9052, 9.89584, 0.0605947
21, 0.00000, 125.973, 125.526, 126.301, 0, 9.70855, 9.71419, 9.70444, 0.0627647
21, 900.00000, 126.117, 125.684, 126.438, 0, 9.88189, 9.88749, 9.87788, 0.0620685
21, 1800.00000, 122.361, 121.973, 122.686, 0, 9.64253, 9.64853, 9.63766, 0.0601666
21, 2700.00000, 122.439, 122.059, 122.765, 0, 8.88052, 8.88591, 8.87597, 0.054926
22, 0.00000, 122.635, 122.257, 122.951, 0, 8.11296, 8.11782, 8.10899, 0.0492357
22, 900.00000, 122.615, 122.235, 122.925, 0, 7.8413, 7.84606, 7.83744, 0.0474124
22, 1800.00000, 122.753, 122.376, 123.059, 0, 6.26627, 6.27001, 6.26329, 0.0374793
22, 2700.00000, 124.251, 123.854, 124.567, 0, 6.52439, 6.52815, 6.52146, 0.0398351
23, 0.00000, 124.51, 124.104, 124.842, 0, 3.36643, 3.36837, 3.36486, 0.0212365
23, 900.00000, 124.618, 124.221, 124.939, 0, 3.54452, 3.54652, 3.54295, 0.0217141
23, 1800.00000, 128.408, 127.963, 128.716, 0, 3.12923, 3.13077, 3.12817, 0.0190878
23, 2700.00000, 128.567, 128.13, 128.873, 0, 2.30992, 2.31103, 2.30915, 0.0138751
24, 0.00000, 128.604, 128.166, 128.913, 0, 1.60549, 1.60627, 1.60496, 0.00970651
24, 900.00000, 128.46, 128.036, 128.749, 0, 4.09531, 4.09725, 4.09404, 0.0236146
