hour, t(sec), |V|1 (volts), |V|2 (volts), |V|3 (volts), |V|4 (volts), |I|1 (amps), |I|2 (amps), |I|3 (amps), |I|4 (amps)
0, 900.00000, 71.8729, 71.6566, 72.0413, 0, 2.57244E-012, 7.33258E-012, 9.09495E-013, 2.72848E-012
0, 1800.00000, 71.939, 71.7275, 72.1058, 0, 5.14488E-012, 1.81899E-012, 9.09495E-013, 3.63798E-012
0, 2700.00000, 73.3858, 73.1672, 73.544, 0, 4.06738E-012, 9.09495E-013, 3.63798E-012, 2.72848E-012
1, 0.00000, 73.33, 73.1128, 73.4891, 0, 4.06738E-012, 3.63798E-012, 3.63798E-012, 3.63798E-012
1, 900.00000, 73.3525, 73.1386, 73.511, 0, 5.75215E-012, 4.06738E-012, 3.63798E-012, 3.63798E-012
1, 1800.00000, 74.4114, 74.1917, 74.5606, 0, 5.75215E-012, 3.74994E-012, 3.74994E-012, 4.54747E-012
1, 2700.00000, 74.388, 74.1648, 74.5349, 0, 0, 4.06738E-012, 3.74994E-012, 2.72848E-012
2, 0.00000, 74.3677, 74.144, 74.5183, 0, 1.81899E-012, 9.09495E-013, 3.74994E-012, 4.54747E-012
2, 900.00000, 74.4165, 74.1942, 74.565, 0, 1.81899E-012, 3.63798E-012, 7.33258E-012, 3.74994E-012
2, 1800.00000, 74.3838, 74.1572, 74.5335, 0, 7.49989E-012, 4.54747E-012, 4.06738E-012, 3.63798E-012
2, 2700.00000, 74.6309, 74.4091, 74.7777, 0, 1.81899E-012, 4.06738E-012, 4.54747E-012, 1.81899E-012
3, 0.00000, 74.7117, 74.4993, 74.8551, 0, 5.14488E-012, 4.06738E-012, 3.74994E-012, 3.74994E-012
3, 900.00000, 74.6609, 74.4442, 74.8075, 0, 0, 4.06738E-012, 3.74994E-012, 3.74994E-012
3, 1800.00000, 73.9876, 73.7819, 74.1358, 0, 4.06738E-012, 4.06738E-012, 3.74994E-012, 5.82361E-012
3, 2700.00000, 73.8754, 73.6599, 74.0305, 0, 2.57244E-012, 4.06738E-012, 3.74994E-012, 4.06738E-012
4, 0.00000, 73.9066, 73.6933, 74.0605, 0, 2.57244E-012, 9.09495E-013, 3.63798E-012, 1.81899E-012
4, 900.00000, 73.9412, 73.7299, 74.095, 0, 6.55846E-012, 7.49989E-012, 4.54747E-012, 7.27596E-012
4, 1800.00000, 73.8509, 73.6264, 74.0115, 0, 4.06738E-012, 4.06738E-012, 3.88536E-012, 1.81899E-012
4, 2700.00000, 73.6189, 73.407, 73.7724, 0, 3.63798E-012, 1.81899E-012, 4.06738E-012, 7.33258E-012
5, 0.00000, 73.5627, 73.3443, 73.7204, 0, 3.63798E-012, 0, 4.54747E-012, 4.54747E-012
5, 900.00000, 73.5888, 73.3732, 73.7443, 0, 1.81899E-012, 3.63798E-012, 1.81899E-012, 4.54747E-012
5, 1800.00000, 73.2711, 73.0604, 73.4285, 0, 5.45697E-012, 9.09495E-013, 1.81899E-012, 4.54747E-012
5, 2700.00000, 73.2859, 73.0727, 73.4417, 0, 5.14488E-012, 7.33258E-012, 4.83403E-012, 4.54747E-012
6, 0.00000, 73.3751, 73.164, 73.5248, 0, 0, 9.09495E-013, 3.74994E-012, 3.74994E-012
6, 900.00000, 73.2929, 73.066, 73.4554, 0, 1.81899E-012, 3.74994E-012, 3.88536E-012, 2.72848E-012
6, 1800.00000, 73.2966, 73.0623, 73.4655, 0, 4.06738E-012, 1.81899E-012, 4.54747E-012, 4.06738E-012
6, 2700.00000, 73.3421, 73.177, 73.5124, 0, 2.57244E-012, 2.72848E-012, 2.27374E-012, 9.09495E-013
7, 0.00000, 73.2583, 73.0785, 73.4394, 0, 5.75215E-012, 7.27596E-012, 1.81899E-012, 5.45697E-012
7, 900.00000, 73.2529, 73.0633, 73.4305, 0, 2.57244E-012, 3.74994E-012, 4.54747E-013, 4.06738E-012
7, 1800.00000, 74.0449, 73.9267, 74.2204, 0, 5.45697E-012, 2.72848E-012, 3.88536E-012, 1.81899E-012
7, 2700.00000, 74.0602, 73.9425, 74.235, 0, 3.63798E-012, 3.63798E-012, 4.09273E-012, 4.54747E-012
8, 0.00000, 74.0028, 73.8747, 74.1784, 0, 4.06738E-012, 4.06738E-012, 3.74994E-012, 4.54747E-012
8, 900.00000, 74.0852, 73.9653, 74.2626, 0, 3.63798E-012, 7.27596E-012, 1.81899E-012, 9.66806E-012
8, 1800.00000, 74.0442, 73.9222, 74.2259, 0, 2.57244E-012, 0, 3.18323E-012, 5.82361E-012
8, 2700.00000, 73.6057, 73.5325, 73.7956, 0, 5.45697E-012, 1.81899E-012, 3.74994E-012, 3.63798E-012
9, 0.00000, 73.5295, 73.4511, 73.7181, 0, 5.14488E-012, 1.81899E-012, 2.72848E-012, 5.45697E-012
9, 900.00000, 73.548, 73.4752, 73.738, 0, 5.14488E-012, 7.49989E-012, 4.54747E-012, 3.63798E-012
9, 1800.00000, 74.3416, 74.3899, 74.5345, 0, 4.06738E-012, 1.81899E-012, 9.09495E-013, 4.54747E-012
9, 2700.00000, 74.4201, 74.4772, 74.6088, 0, 2.57244E-012, 3.63798E-012, 3.74994E-012, 4.54747E-012
10, 0.00000, 74.4194, 74.4807, 74.6073, 0, 1.81899E-012, 7.33258E-012, 4.54747E-012, 4.54747E-012
10, 900.00000, 74.3685, 74.4237, 74.5565, 0, 3.63798E-012, 4.54747E-012, 2.72848E-012, 5.14488E-012
10, 1800.00000, 74.4076, 74.4669, 74.5953, 0, 5.14488E-012, 3.63798E-012, 4.54747E-012, 2.72848E-012
10, 2700.00000, 74.6152, 74.8503, 74.822, 0, 1.81899E-012, 3.74994E-012, 1.81899E-012, 7.49989E-012
11, 0.00000, 74.6372, 74.8709, 74.8417, 0, 5.45697E-012, 3.74994E-012, 0, 7.77073E-012
11, 900.00000, 74.7067, 74.9497, 74.9034, 0, 3.63798E-012, 9.09495E-013, 2.72848E-012, 1.81899E-012
11, 1800.00000, 74.6707, 74.9626, 74.8735, 0, 3.63798E-012, 9.09495E-013, 4.54747E-012, 3.63798E-012
11, 2700.00000, 74.7244, 75.0218, 74.9207, 0, 4.06738E-012, 3.74994E-012, 9.09495E-013, 2.72848E-012
12, 0.00000, 74.7831, 75.0866, 74.9773, 0, 0, 4.06738E-012, 7.27596E-012, 6.55846E-012
12, 900.00000, 74.6494, 74.9371, 74.8526, 0, 5.14488E-012, 1.09139E-011, 5.14488E-012, 2.72848E-012
12, 1800.00000, 74.6698, 74.9563, 74.8712, 0, 0, 0, 3.63798E-012, 4.54747E-012
12, 2700.00000, 75.0377, 75.3669, 75.247, 0, 4.06738E-012, 7.33258E-012, 3.63798E-012, 3.63798E-012
13, 0.00000, 75.0764, 75.3974, 75.2854, 0, 2.57244E-012, 0, 9.09495E-013, 5.14488E-012
13, 900.00000, 75.0273, 75.344, 75.2389, 0, 2.57244E-012, 3.74994E-012, 4.54747E-012, 9.09495E-013
13, 1800.00000, 75.4362, 75.7533, 75.6477, 0, 8.13477E-012, 9.09495E-013, 3.74994E-012, 3.74994E-012
13, 2700.00000, 75.2685, 75.5628, 75.4962, 0, 4.06738E-012, 3.74994E-012, 3.74994E-012, 3.63798E-012
14, 0.00000, 75.3184, 75.6167, 75.5459, 0, 0, 0, 2.72848E-012, 9.09495E-013
14, 900.00000, 75.3455, 75.6495, 75.5731, 0, 5.45697E-012, 3.63798E-012, 4.54747E-012, 1.81899E-012
14, 1800.00000, 75.4117, 75.7242, 75.6337, 0, 1.81899E-012, 3.63798E-012, 3.74994E-012, 3.74994E-012
14, 2700.00000, 75.9009, 76.227, 76.1197, 0, 1.81899E-012, 7.27596E-012, 2.72848E-012, 9.09495E-013
15, 0.00000, 75.8729, 76.1875, 76.0953, 0, 1.81899E-012, 7.33258E-012, 4.06738E-012, 7.27596E-012
15, 900.00000, 75.9356, 76.2585, 76.1572, 0, 5.75215E-012, 3.63798E-012, 4.54747E-012, 4.06738E-012
15, 1800.00000, 76.0361, 76.3377, 76.2577, 0, 4.06738E-012, 0, 3.63798E-012, 4.06738E-012
15, 2700.00000, 76.0576, 76.3649, 76.2767, 0, 1.81899E-012, 0, 3.63798E-012, 4.06738E-012
16, 0.00000, 76.015, 76.3177, 76.2374, 0, 4.06738E-012, 4.06738E-012, 4.54747E-012, 9.09495E-013
16, 900.00000, 76.0244, 76.3333, 76.2481, 0, 4.06738E-012, 1.81899E-012, 0, 5.45697E-012
16, 1800.00000, 76.0292, 76.3405, 76.2492, 0, 0, 4.06738E-012, 3.63798E-012, 1.81899E-012
16, 2700.00000, 75.212, 75.4019, 75.4165, 0, 4.06738E-012, 3.74994E-012, 6.36646E-012, 3.63798E-012
17, 0.00000, 75.1623, 75.3489, 75.3677, 0, 5.14488E-012, 4.54747E-012, 7.27596E-012, 4.54747E-012
17, 900.00000, 75.1806, 75.3842, 75.3732, 0, 4.06738E-012, 7.27596E-012, 2.72848E-012, 3.74994E-012
17, 1800.00000, 73.7786, 73.7956, 73.9507, 0, 2.57244E-012, 3.74994E-012, 9.09495E-013, 7.27596E-012
17, 2700.00000, 73.7764, 73.8008, 73.945, 0, 4.06738E-012, 1.81899E-012, 1.36424E-012, 5.14488E-012
18, 0.00000, 73.796, 73.8245, 73.9584, 0, 1.81899E-012, 7.33258E-012, 3.74994E-012, 4.54747E-012
18, 900.00000, 73.6284, 73.6538, 73.7963, 0, 1.81899E-012, 9.09495E-013, 1.36424E-012, 2.72848E-012
18, 1800.00000, 73.625, 73.6515, 73.7897, 0, 1.81899E-012, 3.63798E-012, 3.63798E-012, 4.54747E-012
18, 2700.00000, 72.4683, 72.3038, 72.6309, 0, 4.06738E-012, 3.74994E-012, 3.66629E-012, 4.54747E-012
19, 0.00000, 72.4022, 72.2355, 72.5707, 0, 3.63798E-012, 3.63798E-012, 4.54747E-013, 3.63798E-012
19, 900.00000, 72.4394, 72.2783, 72.6047, 0, 5.75215E-012, 9.09495E-013, 7.29015E-012, 3.63798E-012
19, 1800.00000, 71.8592, 71.641, 72.0243, 0, 1.81899E-012, 9.09495E-013, 1.81899E-012, 2.72848E-012
19, 2700.00000, 71.7929, 71.5741, 71.971, 0, 2.57244E-012, 9.09495E-013, 3.74994E-012, 9.09495E-013
20, 0.00000, 71.8372, 71.6177, 72.0077, 0, 2.57244E-012, 0, 3.63798E-012, 5.45697E-012
20, 900.00000, 71.7489, 71.5292, 71.9381, 0, 5.45697E-012, 1.81899E-012, 5.14488E-012, 8.13477E-012
20, 1800.00000, 73.3946, 73.1532, 73.5656, 0, 1.81899E-012, 7.33258E-012, 1.81899E-012, 4.54747E-012
20, 2700.00000, 73.3699, 73.1279, 73.5463, 0, 2.57244E-012, 1.81899E-012, 3.66629E-012, 4.54747E-012
21, 0.00000, 73.3025, 73.0456, 73.4825, 0, 4.06738E-012, 0, 9.09495E-013, 4.54747E-012
21, 900.00000, 73.3983, 73.1494, 73.5743, 0, 5.14488E-012, 4.06738E-012, 3.88536E-012, 5.45697E-012
21, 1800.00000, 73.4237, 73.1726, 73.5971, 0, 1.81899E-012, 1.81899E-012, 3.88536E-012, 4.06738E-012
21, 2700.00000, 73.424, 73.1782, 73.5994, 0, 1.81899E-012, 9.09495E-013, 4.29008E-012, 4.54747E-012
22, 0.00000, 73.5033, 73.2599, 73.6698, 0, 4.06738E-012, 4.06738E-012, 3.74994E-012, 2.72848E-012
22, 900.00000, 73.4742, 73.2277, 73.6387, 0, 0, 3.74994E-012, 4.06738E-012, 9.09495E-013
22, 1800.00000, 73.4618, 73.2168, 73.6265, 0, 4.06738E-012, 3.63798E-012, 3.63798E-012, 3.74994E-012
22, 2700.00000, 73.5288, 73.2863, 73.6941, 0, 0, 7.27596E-012, 4.83403E-012, 3.74994E-012
23, 0.00000, 73.497, 73.2491, 73.6715, 0, 2.57244E-012, 0, 3.66629E-012, 3.63798E-012
23, 900.00000, 73.5783, 73.3378, 73.745, 0, 1.81899E-012, 0, 3.18323E-012, 3.74994E-012
23, 1800.00000, 73.5415, 73.2949, 73.7122, 0, 2.57244E-012, 3.63798E-012, 4.54747E-013, 2.72848E-012
23, 2700.00000, 73.5889, 73.3474, 73.7565, 0, 4.06738E-012, 2.72848E-012, 3.18323E-012, 5.14488E-012
24, 0.00000, 73.5681, 73.3248, 73.739, 0, 3.63798E-012, 7.49989E-012, 0, 5.14488E-012
24, 900.00000, 73.6259, 73.3902, 73.7885, 0, 2.57244E-012, 3.74994E-012, 3.18323E-012, 3.74994E-012
