hour, t(sec), |V|1 (volts), |V|2 (volts), |V|3 (volts), |V|4 (volts), |I|1 (amps), |I|2 (amps), |I|3 (amps), |I|4 (amps)
0, 900.00000, 125.169, 124.784, 126.236, 0, 251.489, 251.622, 182.629, 69.6244
0, 1800.00000, 125.259, 124.883, 126.314, 0, 252.766, 252.897, 184.604, 68.9175
0, 2700.00000, 125.469, 125.103, 126.497, 0, 251.415, 251.539, 184.864, 67.2805
1, 0.00000, 125.385, 125.023, 126.445, 0, 251.537, 251.661, 182.312, 69.9542
1, 900.00000, 125.426, 125.069, 126.481, 0, 251.21, 251.331, 182.236, 69.6955
1, 1800.00000, 125.38, 125.028, 126.405, 0, 251.415, 251.535, 184.571, 67.5538
1, 2700.00000, 125.381, 125.025, 126.406, 0, 248.249, 248.368, 181.089, 67.8551
2, 0.00000, 125.33, 124.973, 126.367, 0, 249.87, 249.991, 182.273, 68.3105
2, 900.00000, 125.463, 125.107, 126.486, 0, 244.889, 245.007, 178.173, 67.4084
2, 1800.00000, 125.443, 125.081, 126.473, 0, 242.494, 242.612, 175.375, 67.8104
2, 2700.00000, 125.522, 125.17, 126.53, 0, 238.825, 238.938, 173.326, 66.1682
3, 0.00000, 125.639, 125.302, 126.637, 0, 239.22, 239.328, 174.116, 65.7561
3, 900.00000, 125.609, 125.265, 126.612, 0, 235.575, 235.683, 170.265, 65.9626
3, 1800.00000, 125.648, 125.311, 126.642, 0, 238.428, 238.536, 173.622, 65.457
3, 2700.00000, 125.388, 125.035, 126.426, 0, 245.958, 246.075, 178.437, 68.2241
4, 0.00000, 125.475, 125.126, 126.493, 0, 242.632, 242.747, 176.697, 66.624
4, 900.00000, 125.57, 125.223, 126.578, 0, 238.799, 238.911, 173.786, 65.6921
4, 1800.00000, 125.303, 124.933, 126.356, 0, 249.711, 249.836, 181.84, 68.6187
4, 2700.00000, 125.575, 125.221, 126.543, 0, 234.256, 234.366, 172.506, 62.4145
5, 0.00000, 125.534, 125.17, 126.529, 0, 230.579, 230.692, 166.994, 64.2558
5, 900.00000, 125.491, 125.131, 126.484, 0, 237.539, 237.654, 173.853, 64.3688
5, 1800.00000, 125.302, 124.948, 126.29, 0, 238.107, 238.222, 175.058, 63.7358
5, 2700.00000, 125.473, 125.115, 126.428, 0, 225.641, 225.75, 165.177, 61.11
6, 0.00000, 125.79, 125.435, 126.683, 0, 210.084, 210.183, 154.037, 56.6281
6, 900.00000, 125.533, 125.15, 126.482, 0, 221.093, 221.206, 162.285, 59.4755
6, 1800.00000, 125.662, 125.263, 126.627, 0, 209.831, 209.942, 150.835, 59.6595
6, 2700.00000, 125.694, 125.295, 126.639, 0, 206.629, 206.739, 149.424, 57.8613
7, 0.00000, 125.621, 125.196, 126.573, 0, 201.723, 201.837, 145.56, 56.8446
7, 900.00000, 125.699, 125.26, 126.601, 0, 193.714, 193.827, 141.604, 52.7656
7, 1800.00000, 126.039, 125.611, 126.897, 0, 181.167, 181.268, 132.626, 49.145
7, 2700.00000, 126.039, 125.612, 126.861, 0, 183.48, 183.582, 137.966, 46.1243
8, 0.00000, 125.997, 125.554, 126.812, 0, 179.177, 179.281, 134.545, 45.2381
8, 900.00000, 126.169, 125.736, 126.962, 0, 175.62, 175.718, 133.04, 43.1727
8, 1800.00000, 125.946, 125.51, 126.789, 0, 189.124, 189.232, 142.941, 46.8357
8, 2700.00000, 125.787, 125.328, 126.642, 0, 192.505, 192.622, 146.302, 46.8963
9, 0.00000, 125.769, 125.302, 126.605, 0, 183.18, 183.293, 138.545, 45.296
9, 900.00000, 125.602, 125.143, 126.471, 0, 200.155, 200.278, 152.73, 48.147
9, 1800.00000, 125.719, 125.265, 126.528, 0, 188.844, 188.959, 146.62, 42.9024
9, 2700.00000, 125.961, 125.518, 126.746, 0, 179.014, 179.118, 138.057, 41.5812
10, 0.00000, 126.051, 125.617, 126.806, 0, 171.261, 171.358, 132.716, 39.1351
10, 900.00000, 125.82, 125.376, 126.589, 0, 183.822, 183.93, 144.284, 40.1806
10, 1800.00000, 125.901, 125.463, 126.637, 0, 182.25, 182.355, 145.442, 37.44
10, 2700.00000, 125.67, 125.222, 126.483, 0, 197.199, 197.317, 154.952, 42.9599
11, 0.00000, 125.656, 125.206, 126.462, 0, 201.163, 201.284, 159.381, 42.5058
11, 900.00000, 125.98, 125.543, 126.716, 0, 182.883, 182.988, 145.898, 37.6161
11, 1800.00000, 125.673, 125.237, 126.492, 0, 202.563, 202.68, 158.788, 44.4814
11, 2700.00000, 126.014, 125.586, 126.756, 0, 181.178, 181.279, 142.857, 38.9286
12, 0.00000, 126.035, 125.614, 126.782, 0, 187.061, 187.164, 147.959, 39.7204
12, 900.00000, 125.737, 125.294, 126.529, 0, 193.857, 193.971, 152.452, 42.0854
12, 1800.00000, 125.725, 125.279, 126.535, 0, 197.453, 197.57, 154.362, 43.7816
12, 2700.00000, 125.649, 125.215, 126.456, 0, 210.174, 210.295, 167.716, 43.1963
13, 0.00000, 125.807, 125.358, 126.592, 0, 201.745, 201.865, 161.206, 41.2544
13, 900.00000, 125.64, 125.186, 126.452, 0, 209.086, 209.212, 166.841, 42.9999
13, 1800.00000, 125.681, 125.226, 126.484, 0, 203.096, 203.22, 161.261, 42.5634
13, 2700.00000, 124.988, 124.499, 125.91, 0, 238.186, 238.348, 188.988, 50.1403
14, 0.00000, 124.956, 124.473, 125.893, 0, 247.806, 247.973, 197.397, 51.3854
14, 900.00000, 125.052, 124.577, 125.984, 0, 243.829, 243.989, 193.592, 51.1887
14, 1800.00000, 125.4, 124.937, 126.261, 0, 223.737, 223.878, 178.614, 45.966
14, 2700.00000, 125.649, 125.195, 126.46, 0, 206.644, 206.77, 164.73, 42.666
15, 0.00000, 125.638, 125.166, 126.466, 0, 203.44, 203.568, 160.807, 43.396
15, 900.00000, 125.784, 125.323, 126.578, 0, 200.082, 200.205, 160.047, 40.7729
15, 1800.00000, 125.62, 125.156, 126.452, 0, 202.391, 202.517, 159.223, 43.9195
15, 2700.00000, 125.576, 125.119, 126.4, 0, 208.936, 209.064, 166.127, 43.5748
16, 0.00000, 125.415, 124.953, 126.278, 0, 216.978, 217.113, 171.429, 46.3595
16, 900.00000, 125.506, 125.053, 126.368, 0, 211.165, 211.294, 165.578, 46.3699
16, 1800.00000, 125.533, 125.085, 126.369, 0, 209.544, 209.67, 165.558, 44.7489
16, 2700.00000, 125.63, 125.183, 126.427, 0, 206.076, 206.2, 165.243, 41.5766
17, 0.00000, 125.524, 125.072, 126.367, 0, 208.15, 208.277, 163.481, 45.4253
17, 900.00000, 125.566, 125.143, 126.343, 0, 207.055, 207.172, 166.059, 41.6963
17, 1800.00000, 125.713, 125.299, 126.496, 0, 204.725, 204.837, 161.445, 43.9347
17, 2700.00000, 125.66, 125.26, 126.461, 0, 209.301, 209.414, 163.9, 46.0537
18, 0.00000, 125.661, 125.269, 126.43, 0, 212.128, 212.239, 168.488, 44.2777
18, 900.00000, 125.079, 124.686, 125.927, 0, 239.687, 239.817, 190.118, 50.3121
18, 1800.00000, 125.044, 124.652, 125.935, 0, 242.109, 242.24, 188.402, 54.4482
18, 2700.00000, 125.294, 124.903, 126.145, 0, 228.012, 228.133, 177.515, 51.1871
19, 0.00000, 124.977, 124.582, 125.878, 0, 246.869, 247.004, 192.787, 54.8502
19, 900.00000, 124.985, 124.601, 125.909, 0, 251.212, 251.346, 194.646, 57.3285
19, 1800.00000, 124.97, 124.587, 125.909, 0, 246.73, 246.861, 188.87, 58.6095
19, 2700.00000, 124.51, 124.121, 125.553, 0, 276.893, 277.047, 212.341, 65.4552
20, 0.00000, 124.712, 124.323, 125.685, 0, 265.884, 266.03, 205.97, 60.7483
20, 900.00000, 124.023, 123.627, 125.19, 0, 312.39, 312.571, 238.944, 74.5242
20, 1800.00000, 124.476, 124.084, 125.52, 0, 285.263, 285.423, 219.88, 66.2967
20, 2700.00000, 124.33, 123.937, 125.434, 0, 283.435, 283.596, 213.752, 70.6149
21, 0.00000, 124.071, 123.652, 125.215, 0, 295.802, 295.983, 223.57, 73.2491
21, 900.00000, 124.485, 124.079, 125.541, 0, 273.413, 273.572, 207.792, 66.5278
21, 1800.00000, 124.603, 124.192, 125.657, 0, 273.587, 273.747, 207.643, 66.8429
21, 2700.00000, 124.624, 124.222, 125.713, 0, 271.89, 272.045, 203.276, 69.5075
22, 0.00000, 124.954, 124.557, 125.971, 0, 254.014, 254.155, 190.191, 64.6217
22, 900.00000, 124.922, 124.521, 125.935, 0, 252.872, 253.014, 189.092, 64.5691
22, 1800.00000, 124.902, 124.503, 125.92, 0, 253.13, 253.271, 188.739, 65.1778
22, 2700.00000, 124.955, 124.558, 125.966, 0, 260.182, 260.326, 196.757, 64.2386
23, 0.00000, 124.901, 124.494, 125.959, 0, 261.102, 261.251, 194.808, 67.1463
23, 900.00000, 125.111, 124.716, 126.154, 0, 253.309, 253.447, 187.261, 66.8415
23, 1800.00000, 124.863, 124.457, 125.952, 0, 266.461, 266.612, 196.957, 70.3607
23, 2700.00000, 125.16, 124.763, 126.205, 0, 247.46, 247.595, 181.307, 66.9313
24, 0.00000, 125.041, 124.641, 126.109, 0, 255.157, 255.298, 187.428, 68.5426
24, 900.00000, 125.169, 124.784, 126.236, 0, 251.494, 251.627, 182.632, 69.6271
