hour, t(sec), |V|1 (volts), |V|2 (volts), |V|3 (volts), |V|4 (volts), |I|1 (amps), |I|2 (amps), |I|3 (amps), |I|4 (amps)
0, 900.00000, 125.102, 124.88, 126.015, 0, 249.486, 235.613, 194.462, 50.1149
0, 1800.00000, 125.218, 125.029, 126.132, 0, 248.922, 233.012, 193.341, 50.0916
0, 2700.00000, 125.446, 125.298, 126.39, 0, 247.574, 229.185, 188.753, 52.6063
1, 0.00000, 125.317, 125.152, 126.245, 0, 251.19, 234.478, 193.936, 51.5026
1, 900.00000, 125.36, 125.198, 126.279, 0, 250.742, 234.233, 194.134, 50.9251
1, 1800.00000, 125.33, 125.191, 126.252, 0, 248.315, 230.265, 190.889, 51.3367
1, 2700.00000, 125.327, 125.165, 126.232, 0, 245.325, 228.834, 189.081, 50.5543
2, 0.00000, 125.221, 125.112, 126.15, 0, 251.576, 230.432, 193.844, 51.0271
2, 900.00000, 125.37, 125.228, 126.286, 0, 245.547, 227.367, 188.575, 50.8656
2, 1800.00000, 125.331, 125.168, 126.224, 0, 244.531, 227.582, 189.644, 49.1427
2, 2700.00000, 125.393, 125.254, 126.284, 0, 241.925, 223.808, 187, 48.9139
3, 0.00000, 125.602, 125.459, 126.504, 0, 234.953, 218.498, 178.512, 50.7304
3, 900.00000, 125.515, 125.355, 126.386, 0, 235.719, 220.125, 182.362, 47.9729
3, 1800.00000, 125.581, 125.455, 126.484, 0, 236.756, 218.801, 180.27, 50.4278
3, 2700.00000, 125.274, 125.153, 126.188, 0, 247.634, 227.976, 191.374, 49.8996
4, 0.00000, 125.384, 125.265, 126.281, 0, 242.499, 222.982, 187.469, 48.75
4, 900.00000, 125.486, 125.365, 126.392, 0, 238.378, 219.233, 182.61, 49.5159
4, 1800.00000, 125.188, 125.076, 126.138, 0, 251.48, 229.689, 193.038, 51.6063
4, 2700.00000, 125.465, 125.358, 126.355, 0, 235.127, 214.274, 180.457, 48.1753
5, 0.00000, 125.367, 125.211, 126.242, 0, 236.027, 218.435, 183.254, 46.9743
5, 900.00000, 125.368, 125.253, 126.277, 0, 239.356, 218.665, 183.312, 49.4982
5, 1800.00000, 125.097, 125.022, 126.015, 0, 244.907, 221.136, 188.376, 49.5407
5, 2700.00000, 125.272, 125.141, 126.118, 0, 231.988, 212.761, 181.344, 44.6546
6, 0.00000, 125.6, 125.456, 126.39, 0, 216.098, 198.16, 169.249, 41.2664
6, 900.00000, 125.35, 125.187, 126.187, 0, 226.193, 207.58, 177.298, 43.115
6, 1800.00000, 125.432, 125.214, 126.265, 0, 219.254, 204.231, 171.748, 42.4885
6, 2700.00000, 125.509, 125.273, 126.343, 0, 211.125, 197.746, 163.508, 42.9836
7, 0.00000, 125.314, 125.085, 126.163, 0, 216.309, 200.177, 169.097, 41.992
7, 900.00000, 125.335, 125.129, 126.223, 0, 213.386, 193.989, 162.392, 44.9704
7, 1800.00000, 125.7, 125.476, 126.557, 0, 200.095, 183.424, 151.407, 43.2506
7, 2700.00000, 125.742, 125.539, 126.594, 0, 198.878, 180.331, 150.423, 42.6986
8, 0.00000, 125.649, 125.412, 126.509, 0, 198.745, 181.827, 149.837, 43.4083
8, 900.00000, 125.821, 125.602, 126.699, 0, 195.655, 178.208, 145.3, 44.6794
8, 1800.00000, 125.652, 125.439, 126.583, 0, 204.318, 186.066, 150.058, 48.2584
8, 2700.00000, 125.456, 125.25, 126.429, 0, 210.522, 189.683, 153.58, 50.3418
9, 0.00000, 125.286, 125.092, 126.262, 0, 214.078, 191.543, 156.864, 50.3364
9, 900.00000, 125.193, 125.046, 126.241, 0, 224.604, 198.877, 161.321, 55.572
9, 1800.00000, 125.227, 125.122, 126.267, 0, 219.974, 190.85, 157.34, 54.6612
9, 2700.00000, 125.435, 125.332, 126.479, 0, 213.603, 185.407, 149.716, 55.8465
10, 0.00000, 125.473, 125.38, 126.504, 0, 210.303, 181.832, 147.407, 54.9236
10, 900.00000, 125.263, 125.2, 126.344, 0, 220.746, 188.951, 153.708, 58.4626
10, 1800.00000, 125.358, 125.34, 126.445, 0, 218.352, 183.091, 150.574, 59.0432
10, 2700.00000, 125.063, 125.077, 126.22, 0, 239.095, 200.386, 166.819, 63.008
11, 0.00000, 125.137, 125.122, 126.3, 0, 235.756, 199.313, 162.659, 63.7113
11, 900.00000, 125.475, 125.445, 126.582, 0, 216.918, 182.925, 147.294, 60.6744
11, 1800.00000, 125.087, 125.096, 126.273, 0, 243.929, 206.538, 168.203, 66.0117
11, 2700.00000, 125.443, 125.403, 126.522, 0, 221.541, 188.985, 153.823, 59.0274
12, 0.00000, 125.515, 125.519, 126.651, 0, 223.735, 188.043, 150.663, 63.6752
12, 900.00000, 125.127, 125.13, 126.267, 0, 237.27, 199.673, 165.546, 62.5004
12, 1800.00000, 125.248, 125.186, 126.362, 0, 229.597, 197.532, 159.937, 60.8083
12, 2700.00000, 125.231, 125.2, 126.353, 0, 238.108, 204.381, 168.272, 60.9021
13, 0.00000, 125.41, 125.341, 126.495, 0, 228.306, 196.619, 161.507, 58.2647
13, 900.00000, 125.279, 125.179, 126.354, 0, 232.388, 202.82, 166.952, 57.1762
13, 1800.00000, 125.268, 125.166, 126.33, 0, 230.617, 201.252, 165.994, 56.4479
13, 2700.00000, 124.614, 124.533, 125.788, 0, 261.289, 227.402, 190.141, 62.1179
14, 0.00000, 124.605, 124.586, 125.857, 0, 269.399, 230.764, 191.407, 68.0414
14, 900.00000, 124.676, 124.666, 125.92, 0, 267.6, 228.838, 190.142, 67.5672
14, 1800.00000, 125.026, 124.973, 126.18, 0, 247.764, 213.676, 176.91, 61.8206
14, 2700.00000, 125.214, 125.15, 126.311, 0, 236.27, 203.73, 169.146, 58.5353
15, 0.00000, 125.127, 125.037, 126.244, 0, 239.361, 207.703, 171.329, 59.3983
15, 900.00000, 125.316, 125.262, 126.415, 0, 232.72, 198.88, 165.78, 58.3406
15, 1800.00000, 125.156, 125.052, 126.234, 0, 233.527, 203.554, 168.622, 56.6801
15, 2700.00000, 125.143, 125.091, 126.275, 0, 237.707, 203.951, 167.812, 60.9589
16, 0.00000, 124.969, 124.923, 126.12, 0, 246.292, 211.635, 175.528, 61.7154
16, 900.00000, 125.02, 124.969, 126.139, 0, 243.739, 210.343, 175.696, 59.344
16, 1800.00000, 125.079, 125.03, 126.186, 0, 239.369, 206.092, 171.74, 58.9691
16, 2700.00000, 125.191, 125.163, 126.294, 0, 234.807, 199.768, 167.081, 59.0202
17, 0.00000, 125.072, 125.005, 126.179, 0, 237.671, 205.524, 169.874, 59.1562
17, 900.00000, 125.123, 125.138, 126.214, 0, 235.907, 198.982, 167.56, 59.5717
17, 1800.00000, 125.262, 125.243, 126.312, 0, 235.647, 202.2, 169.347, 57.7487
17, 2700.00000, 125.189, 125.184, 126.249, 0, 241.707, 208.201, 174.108, 58.8919
18, 0.00000, 125.28, 125.279, 126.297, 0, 236.807, 203.44, 171.873, 56.5431
18, 900.00000, 124.667, 124.721, 125.755, 0, 265.554, 227.406, 195.818, 60.7973
18, 1800.00000, 124.673, 124.656, 125.758, 0, 264.471, 232.519, 194.541, 61.0604
18, 2700.00000, 124.867, 124.842, 125.88, 0, 256.793, 225.463, 192.847, 55.7264
19, 0.00000, 124.632, 124.613, 125.663, 0, 267.908, 235.764, 203.329, 56.2839
19, 900.00000, 124.634, 124.616, 125.685, 0, 272.928, 241.583, 206.159, 58.2637
19, 1800.00000, 124.623, 124.564, 125.63, 0, 267.794, 239.996, 204.882, 55.0228
19, 2700.00000, 124.207, 124.208, 125.317, 0, 293.836, 260.6, 224.313, 60.6934
20, 0.00000, 124.349, 124.376, 125.416, 0, 288.22, 252.687, 220.937, 58.6512
20, 900.00000, 123.814, 123.863, 125.035, 0, 321.009, 283.38, 243.8, 67.4235
20, 1800.00000, 124.317, 124.277, 125.371, 0, 290.246, 260.201, 224.626, 57.3487
20, 2700.00000, 124.099, 124.016, 125.163, 0, 292.566, 266.177, 227.041, 57.6507
21, 0.00000, 123.779, 123.718, 124.941, 0, 309.976, 279.714, 236.914, 64.1851
21, 900.00000, 124.245, 124.192, 125.28, 0, 283.751, 253.776, 220.575, 55.157
21, 1800.00000, 124.444, 124.312, 125.465, 0, 278.317, 254.702, 215.768, 55.2382
21, 2700.00000, 124.425, 124.306, 125.45, 0, 280.006, 256.073, 217.51, 55.1491
22, 0.00000, 124.745, 124.594, 125.696, 0, 263.448, 242.546, 205.843, 50.9951
22, 900.00000, 124.68, 124.527, 125.616, 0, 265.005, 243.87, 208.441, 49.97
22, 1800.00000, 124.644, 124.492, 125.569, 0, 266.413, 245.437, 210.797, 49.1073
22, 2700.00000, 124.779, 124.683, 125.738, 0, 267.784, 242.126, 209.275, 51.1994
23, 0.00000, 124.703, 124.56, 125.661, 0, 270.179, 247.815, 213.056, 50.3348
23, 900.00000, 124.913, 124.779, 125.872, 0, 263.084, 240.89, 204.739, 51.476
23, 1800.00000, 124.707, 124.562, 125.698, 0, 271.738, 249.701, 211.227, 53.5613
23, 2700.00000, 124.933, 124.782, 125.866, 0, 259.056, 238.217, 203.013, 49.5278
24, 0.00000, 124.817, 124.68, 125.774, 0, 266.21, 243.939, 208.619, 50.7721
24, 900.00000, 125.102, 124.88, 126.015, 0, 249.492, 235.618, 194.465, 50.1174
