hour, t(sec), |V|1 (volts), |V|2 (volts), |V|3 (volts), |V|4 (volts), |I|1 (amps), |I|2 (amps), |I|3 (amps), |I|4 (amps)
0, 900.00000, 125.747, 124.857, 126.862, 0, 152.776, 175.35, 114.552, 53.9351
0, 1800.00000, 126.014, 125.145, 127.078, 0, 144.589, 166.57, 109.186, 50.8165
0, 2700.00000, 131.031, 130.154, 132.008, 0, 138.19, 159.354, 105.596, 47.5159
1, 0.00000, 130.873, 129.993, 131.882, 0, 142.375, 164.032, 107.315, 50.1706
1, 900.00000, 130.92, 130.056, 131.926, 0, 142.202, 163.304, 107.105, 49.7625
1, 1800.00000, 125.084, 124.268, 126.106, 0, 139.939, 161.356, 105.733, 49.2025
1, 2700.00000, 125.035, 124.2, 126.051, 0, 140.355, 162.56, 106.023, 49.9385
2, 0.00000, 124.94, 124.11, 125.983, 0, 143.557, 165.39, 108.227, 50.5865
2, 900.00000, 125.125, 124.278, 126.137, 0, 137.705, 160.429, 104.364, 49.4532
2, 1800.00000, 125.018, 124.15, 126.055, 0, 140.473, 163.947, 105.859, 51.2347
2, 2700.00000, 125.155, 124.32, 126.179, 0, 138.304, 160.61, 104.24, 49.7768
3, 0.00000, 125.5, 124.716, 126.443, 0, 127.107, 147.485, 97.1979, 44.3692
3, 900.00000, 125.324, 124.517, 126.301, 0, 132.384, 153.698, 100.648, 46.817
3, 1800.00000, 125.458, 124.684, 126.424, 0, 129.286, 149.136, 98.2022, 45.0321
3, 2700.00000, 125.102, 124.272, 126.115, 0, 137.941, 159.965, 104.923, 48.6045
4, 0.00000, 125.201, 124.405, 126.207, 0, 135.538, 155.861, 102.933, 46.8572
4, 900.00000, 125.337, 124.541, 126.309, 0, 130.831, 151.145, 100.657, 44.6137
4, 1800.00000, 125.014, 124.14, 126.049, 0, 139.107, 162.207, 106.661, 49.0129
4, 2700.00000, 125.341, 124.522, 126.342, 0, 131.804, 152.825, 100.296, 46.411
5, 0.00000, 125.127, 124.277, 126.19, 0, 137.842, 159.748, 103.565, 49.703
5, 900.00000, 125.222, 124.396, 126.254, 0, 135.159, 156.216, 102.147, 47.8407
5, 1800.00000, 125.127, 124.295, 126.163, 0, 138.141, 159.878, 104.649, 48.829
5, 2700.00000, 125.146, 124.314, 126.206, 0, 138.577, 159.954, 103.747, 49.7767
6, 0.00000, 125.468, 124.653, 126.483, 0, 129.007, 149.568, 96.6404, 46.8125
6, 900.00000, 125.201, 124.329, 126.279, 0, 134.276, 155.85, 101.217, 48.3606
6, 1800.00000, 125.217, 124.303, 126.32, 0, 131.526, 153.773, 99.7019, 47.8299
6, 2700.00000, 125.495, 124.605, 126.551, 0, 121.379, 142.243, 92.9543, 43.5823
7, 0.00000, 125.064, 124.109, 126.251, 0, 135.918, 158.336, 102.64, 49.4051
7, 900.00000, 125.186, 124.138, 126.304, 0, 127.783, 154.192, 98.87, 48.7813
7, 1800.00000, 125.451, 124.465, 126.575, 0, 121.363, 144.82, 92.9245, 45.8332
7, 2700.00000, 125.496, 124.529, 126.635, 0, 120.553, 142.95, 91.4896, 45.5056
8, 0.00000, 125.265, 124.249, 126.468, 0, 127.108, 150.963, 95.0546, 49.4568
8, 900.00000, 125.572, 124.598, 126.749, 0, 117.739, 139.716, 88.2445, 45.5601
8, 1800.00000, 125.522, 124.543, 126.681, 0, 116.341, 138.478, 88.2113, 44.4679
8, 2700.00000, 124.577, 123.57, 125.796, 0, 121.26, 143.591, 91.3392, 46.316
9, 0.00000, 124.279, 123.195, 125.564, 0, 129.484, 155.392, 95.9624, 52.56
9, 900.00000, 124.363, 123.324, 125.622, 0, 127.084, 151.349, 94.7152, 50.1423
9, 1800.00000, 124.999, 123.925, 126.284, 0, 133.032, 158.986, 99.0543, 53.017
9, 2700.00000, 125.396, 124.319, 126.584, 0, 118.784, 145.593, 90.1037, 48.9324
10, 0.00000, 125.26, 124.229, 126.527, 0, 126.955, 151.721, 93.183, 51.7768
10, 900.00000, 125.165, 124.077, 126.39, 0, 126.884, 154.344, 95.4743, 51.9225
10, 1800.00000, 125.251, 124.247, 126.516, 0, 126.014, 149.083, 92.4561, 50.2039
10, 2700.00000, 126.776, 125.719, 128.097, 0, 136.942, 161.379, 100.623, 53.9139
11, 0.00000, 125.014, 123.982, 126.313, 0, 132.282, 156.213, 97.5693, 52.0192
11, 900.00000, 125.201, 124.208, 126.498, 0, 129.05, 151.579, 93.4927, 51.6142
11, 1800.00000, 123.04, 121.945, 124.254, 0, 132.358, 162.214, 100.665, 54.2234
11, 2700.00000, 123.233, 122.209, 124.445, 0, 128.047, 154.487, 95.3551, 52.1536
12, 0.00000, 123.419, 122.448, 124.604, 0, 123.131, 147.017, 91.8387, 48.7493
12, 900.00000, 122.883, 121.842, 124.155, 0, 138.37, 164.763, 103.621, 54.0692
12, 1800.00000, 122.99, 121.957, 124.259, 0, 134.314, 160.039, 99.5775, 53.475
12, 2700.00000, 122.716, 121.705, 123.972, 0, 136.072, 161.558, 102.151, 52.5552
13, 0.00000, 122.805, 121.766, 124.094, 0, 133.792, 159.608, 99.2634, 53.3896
13, 900.00000, 122.66, 121.595, 123.957, 0, 136.452, 163.369, 101.929, 54.3263
13, 1800.00000, 122.171, 121.092, 123.469, 0, 135.763, 163.571, 101.062, 55.2154
13, 2700.00000, 121.495, 120.404, 122.939, 0, 154.001, 180.653, 113.956, 59.4069
14, 0.00000, 121.651, 120.549, 123.075, 0, 150.421, 177.841, 111.646, 58.7963
14, 900.00000, 121.739, 120.655, 123.155, 0, 149.013, 176.003, 110.408, 58.2354
14, 1800.00000, 121.993, 120.967, 123.382, 0, 142.392, 166.683, 104.513, 55.3266
14, 2700.00000, 117.673, 116.755, 118.967, 0, 134.602, 157.334, 99.6409, 51.3996
15, 0.00000, 124.702, 123.509, 126.036, 0, 137.759, 168.87, 102.94, 58.1628
15, 900.00000, 124.885, 123.79, 126.234, 0, 134.622, 161.077, 98.6728, 55.2453
15, 1800.00000, 124.735, 123.624, 126.088, 0, 137.726, 164.907, 101.032, 56.5265
15, 2700.00000, 124.797, 123.721, 126.133, 0, 136.527, 162.344, 100.27, 54.9953
16, 0.00000, 124.637, 123.528, 125.989, 0, 141.193, 168.556, 104.274, 56.9004
16, 900.00000, 124.678, 123.614, 126.031, 0, 140.86, 166.36, 103.49, 55.7756
16, 1800.00000, 124.665, 123.625, 126.024, 0, 142.476, 167.115, 103.815, 56.2525
16, 2700.00000, 124.841, 123.796, 126.154, 0, 137.417, 162.329, 101.359, 54.0608
17, 0.00000, 124.638, 123.594, 125.999, 0, 143.362, 167.921, 104.465, 56.4119
17, 900.00000, 124.606, 123.625, 125.952, 0, 149.274, 172.831, 107.483, 58.2329
17, 1800.00000, 126.442, 125.398, 127.622, 0, 140.592, 167.992, 104.73, 55.7499
17, 2700.00000, 126.448, 125.368, 127.578, 0, 141.402, 172.064, 106.786, 57.3308
18, 0.00000, 126.502, 125.481, 127.621, 0, 141.884, 170.205, 105.969, 56.4701
18, 900.00000, 125.836, 124.762, 127.008, 0, 164.072, 195.801, 123.717, 63.3395
18, 1800.00000, 125.836, 124.746, 127.002, 0, 163.703, 196.473, 122.935, 64.5452
18, 2700.00000, 129.901, 128.768, 131.11, 0, 175.765, 208.959, 130.37, 69.053
19, 0.00000, 129.697, 128.585, 130.915, 0, 181.702, 213.698, 135.565, 68.7797
19, 900.00000, 129.939, 128.787, 131.042, 0, 172.403, 207.701, 131.869, 66.4235
19, 1800.00000, 129.39, 128.259, 130.514, 0, 175.384, 209.764, 133.553, 66.8061
19, 2700.00000, 129.067, 127.979, 130.293, 0, 186.215, 217.566, 140.5, 67.9211
20, 0.00000, 129.246, 128.117, 130.433, 0, 180.866, 214.729, 136.502, 68.691
20, 900.00000, 123.232, 122.183, 124.595, 0, 196.63, 227.976, 147.06, 71.5843
20, 1800.00000, 123.737, 122.707, 124.963, 0, 177.958, 208.623, 133.895, 65.8528
20, 2700.00000, 123.447, 122.411, 124.671, 0, 177.718, 208.519, 134.64, 65.0993
21, 0.00000, 123.189, 121.955, 124.431, 0, 183.77, 223.687, 141.296, 72.2661
21, 900.00000, 123.49, 122.456, 124.76, 0, 176.755, 206.412, 132.335, 65.4322
21, 1800.00000, 119.844, 118.887, 121.04, 0, 168.67, 196.985, 128.389, 60.7271
21, 2700.00000, 119.897, 118.933, 121.042, 0, 165.867, 195.087, 128.448, 58.8621
22, 0.00000, 120.116, 119.137, 121.246, 0, 160.902, 191.027, 123.848, 59.2748
22, 900.00000, 120.001, 119.024, 121.141, 0, 164.943, 194.964, 126.582, 60.3468
22, 1800.00000, 119.938, 118.965, 121.099, 0, 167.682, 197.733, 127.678, 61.8399
22, 2700.00000, 121.491, 120.517, 122.707, 0, 166.146, 194.483, 124.589, 61.7362
23, 0.00000, 121.366, 120.412, 122.624, 0, 169.468, 196.079, 127.134, 61.1815
23, 900.00000, 121.674, 120.727, 122.871, 0, 160.148, 186.731, 120.273, 58.7353
23, 1800.00000, 125.364, 124.383, 126.584, 0, 164.442, 190.486, 122.447, 60.2648
23, 2700.00000, 125.528, 124.546, 126.72, 0, 159.99, 186.415, 119.567, 59.0977
24, 0.00000, 125.46, 124.475, 126.654, 0, 162.073, 188.647, 121.654, 59.2292
24, 900.00000, 125.747, 124.857, 126.863, 0, 152.775, 175.35, 114.551, 53.9353
