hour, t(sec), |V|1 (volts), |V|2 (volts), |V|3 (volts), |V|4 (volts), |I|1 (amps), |I|2 (amps), |I|3 (amps), |I|4 (amps)
0, 900.00000, 132.059, 131.52, 132.489, 0, 1.45519E-011, 0, 0, 2.18279E-011
0, 1800.00000, 132.176, 131.648, 132.607, 0, 0, 3.25391E-011, 2.99995E-011, 2.18279E-011
0, 2700.00000, 125.922, 125.483, 126.383, 0, 4.1159E-011, 2.18279E-011, 1.09139E-011, 3.63798E-011
1, 0.00000, 125.835, 125.402, 126.283, 0, 0, 0, 1.45519E-011, 1.45519E-011
1, 900.00000, 125.882, 125.454, 126.327, 0, 3.25391E-011, 1.45519E-011, 3.63798E-012, 3.63798E-011
1, 1800.00000, 121.345, 120.984, 121.783, 0, 1.45519E-011, 0, 2.99995E-011, 2.99995E-011
1, 2700.00000, 121.307, 120.942, 121.736, 0, 1.45519E-011, 2.99995E-011, 2.91038E-011, 2.99995E-011
2, 0.00000, 121.271, 120.906, 121.709, 0, 2.05795E-011, 7.27596E-012, 7.27596E-012, 2.18279E-011
2, 900.00000, 121.346, 120.977, 121.79, 0, 3.25391E-011, 1.45519E-011, 0, 2.91038E-011
2, 1800.00000, 121.292, 120.918, 121.738, 0, 3.25391E-011, 2.18279E-011, 0, 7.27596E-012
2, 2700.00000, 121.688, 121.32, 122.132, 0, 2.05795E-011, 2.99995E-011, 2.18279E-011, 2.18279E-011
3, 0.00000, 127.7, 127.274, 128.132, 0, 1.45519E-011, 5.86606E-011, 4.1159E-011, 3.25391E-011
3, 900.00000, 127.618, 127.187, 128.051, 0, 3.25391E-011, 2.99995E-011, 7.27596E-012, 1.45519E-011
3, 1800.00000, 127.696, 127.272, 128.13, 0, 2.91038E-011, 2.91038E-011, 1.45519E-011, 2.99995E-011
3, 2700.00000, 127.495, 127.054, 127.941, 0, 3.25391E-011, 2.99995E-011, 7.27596E-012, 3.63798E-011
4, 0.00000, 127.551, 127.112, 127.997, 0, 3.25391E-011, 0, 3.63798E-011, 5.24677E-011
4, 900.00000, 127.602, 127.162, 128.059, 0, 2.05795E-011, 3.25391E-011, 2.91038E-011, 1.45519E-011
4, 1800.00000, 127.425, 126.959, 127.906, 0, 0, 2.18279E-011, 1.45519E-011, 3.25391E-011
4, 2700.00000, 133.312, 132.797, 133.745, 0, 1.45519E-011, 4.1159E-011, 2.91038E-011, 4.65889E-011
5, 0.00000, 133.21, 132.679, 133.655, 0, 1.45519E-011, 2.91038E-011, 2.91038E-011, 3.25391E-011
5, 900.00000, 133.257, 132.734, 133.693, 0, 0, 3.25391E-011, 0, 5.09317E-011
5, 1800.00000, 136.974, 136.418, 137.372, 0, 2.91038E-011, 3.25391E-011, 0, 2.91038E-011
5, 2700.00000, 136.999, 136.435, 137.398, 0, 0, 1.45519E-011, 7.27596E-012, 7.27596E-012
6, 0.00000, 137.132, 136.57, 137.535, 0, 5.82077E-011, 3.25391E-011, 7.27596E-012, 3.63798E-011
6, 900.00000, 136.97, 136.359, 137.423, 0, 3.25391E-011, 2.91038E-011, 2.99995E-011, 2.91038E-011
6, 1800.00000, 127.485, 126.96, 128.053, 0, 3.25391E-011, 0, 7.27596E-012, 4.65889E-011
6, 2700.00000, 127.581, 127.053, 128.166, 0, 1.45519E-011, 3.63798E-011, 7.27596E-012, 1.45519E-011
7, 0.00000, 127.406, 126.842, 128.037, 0, 4.1159E-011, 3.25391E-011, 2.99995E-011, 2.91038E-011
7, 900.00000, 127.381, 126.795, 128.023, 0, 1.45519E-011, 7.27596E-012, 2.91038E-011, 7.27596E-012
7, 1800.00000, 127.53, 126.951, 128.19, 0, 0, 2.99995E-011, 0, 3.63798E-011
7, 2700.00000, 127.56, 126.98, 128.224, 0, 3.25391E-011, 3.25391E-011, 2.91038E-011, 7.27596E-012
8, 0.00000, 127.445, 126.843, 128.12, 0, 2.05795E-011, 1.45519E-011, 7.27596E-012, 2.99995E-011
8, 900.00000, 127.583, 126.988, 128.28, 0, 2.91038E-011, 7.27596E-012, 1.45519E-011, 7.27596E-012
8, 1800.00000, 127.509, 126.912, 128.212, 0, 3.25391E-011, 2.91038E-011, 1.45519E-011, 1.45519E-011
8, 2700.00000, 127.364, 126.736, 128.096, 0, 1.45519E-011, 2.99995E-011, 7.27596E-012, 2.91038E-011
9, 0.00000, 127.213, 126.573, 127.946, 0, 3.25391E-011, 5.82077E-011, 2.99995E-011, 3.63798E-011
9, 900.00000, 127.254, 126.629, 127.98, 0, 2.05795E-011, 2.99995E-011, 2.99995E-011, 2.99995E-011
9, 1800.00000, 127.282, 126.659, 128.007, 0, 1.45519E-011, 2.99995E-011, 3.25391E-011, 2.18279E-011
9, 2700.00000, 127.425, 126.813, 128.149, 0, 2.91038E-011, 0, 3.63798E-011, 3.25391E-011
10, 0.00000, 127.435, 126.834, 128.146, 0, 4.36557E-011, 1.45519E-011, 0, 2.91038E-011
10, 900.00000, 127.339, 126.729, 128.05, 0, 3.25391E-011, 1.45519E-011, 2.18279E-011, 2.91038E-011
10, 1800.00000, 127.409, 126.804, 128.123, 0, 4.36557E-011, 2.99995E-011, 2.99995E-011, 2.91038E-011
10, 2700.00000, 127.248, 126.636, 127.973, 0, 0, 7.27596E-012, 2.99995E-011, 7.27596E-012
11, 0.00000, 127.283, 126.667, 128.009, 0, 2.91038E-011, 2.99995E-011, 2.91038E-011, 4.1159E-011
11, 900.00000, 127.413, 126.81, 128.123, 0, 1.45519E-011, 1.45519E-011, 2.91038E-011, 4.65889E-011
11, 1800.00000, 127.232, 126.641, 127.916, 0, 2.91038E-011, 2.99995E-011, 3.25391E-011, 2.99995E-011
11, 2700.00000, 127.347, 126.765, 128.011, 0, 4.60172E-011, 1.45519E-011, 0, 4.65889E-011
12, 0.00000, 127.442, 126.868, 128.107, 0, 1.45519E-011, 0, 2.99995E-011, 3.25391E-011
12, 900.00000, 127.183, 126.584, 127.87, 0, 0, 5.86606E-011, 0, 3.63798E-011
12, 1800.00000, 127.216, 126.613, 127.901, 0, 0, 4.1159E-011, 2.99995E-011, 2.91038E-011
12, 2700.00000, 127.217, 126.63, 127.902, 0, 3.25391E-011, 2.99995E-011, 3.25391E-011, 1.45519E-011
13, 0.00000, 127.259, 126.648, 127.97, 0, 1.45519E-011, 3.63798E-011, 7.27596E-012, 2.91038E-011
13, 900.00000, 127.164, 126.546, 127.881, 0, 5.24677E-011, 2.91038E-011, 7.27596E-012, 7.27596E-012
13, 1800.00000, 127.148, 126.527, 127.862, 0, 2.91038E-011, 2.99995E-011, 3.25391E-011, 0
13, 2700.00000, 126.799, 126.14, 127.562, 0, 0, 0, 2.18279E-011, 4.1159E-011
14, 0.00000, 126.889, 126.235, 127.657, 0, 1.45519E-011, 3.25391E-011, 5.82077E-011, 2.91038E-011
14, 900.00000, 126.953, 126.31, 127.714, 0, 3.25391E-011, 3.25391E-011, 0, 4.1159E-011
14, 1800.00000, 127.085, 126.453, 127.836, 0, 2.05795E-011, 7.27596E-012, 2.99995E-011, 4.1159E-011
14, 2700.00000, 127.146, 126.524, 127.875, 0, 1.45519E-011, 1.45519E-011, 3.25391E-011, 4.1159E-011
15, 0.00000, 127.069, 126.42, 127.829, 0, 2.91038E-011, 5.86606E-011, 0, 2.99995E-011
15, 900.00000, 127.195, 126.56, 127.95, 0, 1.45519E-011, 6.21658E-011, 0, 4.65889E-011
15, 1800.00000, 127.101, 126.465, 127.847, 0, 0, 3.63798E-011, 1.45519E-011, 2.18279E-011
15, 2700.00000, 127.143, 126.517, 127.878, 0, 1.45519E-011, 2.99995E-011, 0, 3.63798E-011
16, 0.00000, 127.067, 126.436, 127.805, 0, 2.05795E-011, 3.25391E-011, 4.1159E-011, 4.65889E-011
16, 900.00000, 127.102, 126.484, 127.832, 0, 3.25391E-011, 7.27596E-012, 2.99995E-011, 4.1159E-011
16, 1800.00000, 127.12, 126.509, 127.832, 0, 0, 2.99995E-011, 2.18279E-011, 2.99995E-011
16, 2700.00000, 127.204, 126.593, 127.918, 0, 2.91038E-011, 0, 1.45519E-011, 0
17, 0.00000, 127.108, 126.493, 127.818, 0, 2.91038E-011, 0, 0, 1.45519E-011
17, 900.00000, 127.187, 126.619, 127.824, 0, 2.91038E-011, 7.27596E-012, 2.99995E-011, 7.27596E-012
17, 1800.00000, 127.22, 126.673, 127.802, 0, 1.45519E-011, 2.91038E-011, 2.99995E-011, 2.91038E-011
17, 2700.00000, 127.243, 126.718, 127.794, 0, 1.45519E-011, 2.99995E-011, 2.91038E-011, 3.63798E-011
18, 0.00000, 127.308, 126.8, 127.823, 0, 1.45519E-011, 3.25391E-011, 7.27596E-012, 4.1159E-011
18, 900.00000, 127.039, 126.545, 127.521, 0, 1.45519E-011, 0, 7.27596E-012, 1.45519E-011
18, 1800.00000, 127.033, 126.541, 127.501, 0, 0, 2.91038E-011, 7.27596E-012, 7.27596E-012
18, 2700.00000, 126.993, 126.502, 127.451, 0, 1.45519E-011, 2.99995E-011, 1.45519E-011, 5.24677E-011
19, 0.00000, 126.89, 126.401, 127.343, 0, 2.05795E-011, 2.91038E-011, 3.25391E-011, 1.45519E-011
19, 900.00000, 126.971, 126.498, 127.408, 0, 2.05795E-011, 2.99995E-011, 1.45519E-011, 4.36557E-011
19, 1800.00000, 120.795, 120.409, 121.228, 0, 0, 1.45519E-011, 2.91038E-011, 0
19, 2700.00000, 120.672, 120.283, 121.134, 0, 1.45519E-011, 7.27596E-012, 2.99995E-011, 2.18279E-011
20, 0.00000, 120.751, 120.362, 121.2, 0, 4.36557E-011, 2.91038E-011, 2.91038E-011, 2.99995E-011
20, 900.00000, 120.587, 120.197, 121.071, 0, 1.45519E-011, 2.91038E-011, 0, 3.25391E-011
20, 1800.00000, 120.739, 120.349, 121.193, 0, 1.45519E-011, 7.27596E-012, 1.45519E-011, 2.91038E-011
20, 2700.00000, 118.005, 117.642, 118.467, 0, 0, 2.91038E-011, 0, 2.91038E-011
21, 0.00000, 117.873, 117.484, 118.362, 0, 3.25391E-011, 1.45519E-011, 0, 2.18279E-011
21, 900.00000, 118.019, 117.639, 118.506, 0, 1.45519E-011, 0, 2.99995E-011, 2.99995E-011
21, 1800.00000, 126.86, 126.35, 127.355, 0, 1.45519E-011, 7.27596E-012, 7.27596E-012, 1.45519E-011
21, 2700.00000, 126.863, 126.363, 127.358, 0, 1.45519E-011, 7.27596E-012, 2.99995E-011, 1.45519E-011
22, 0.00000, 127.001, 126.504, 127.483, 0, 3.25391E-011, 7.27596E-012, 2.18279E-011, 2.91038E-011
22, 900.00000, 126.957, 126.459, 127.425, 0, 1.45519E-011, 7.27596E-012, 3.25391E-011, 2.18279E-011
22, 1800.00000, 126.942, 126.449, 127.402, 0, 1.45519E-011, 2.91038E-011, 7.27596E-012, 2.18279E-011
22, 2700.00000, 129.793, 129.264, 130.256, 0, 0, 0, 3.25391E-011, 2.18279E-011
23, 0.00000, 129.73, 129.185, 130.223, 0, 2.91038E-011, 2.91038E-011, 0, 2.91038E-011
23, 900.00000, 129.868, 129.336, 130.345, 0, 1.45519E-011, 2.91038E-011, 3.25391E-011, 1.45519E-011
23, 1800.00000, 131.887, 131.318, 132.355, 0, 0, 1.45519E-011, 1.45519E-011, 2.99995E-011
23, 2700.00000, 131.967, 131.403, 132.437, 0, 0, 3.25391E-011, 7.27596E-012, 4.1159E-011
24, 0.00000, 131.938, 131.374, 132.408, 0, 2.91038E-011, 1.45519E-011, 2.91038E-011, 3.63798E-011
24, 900.00000, 132.059, 131.52, 132.49, 0, 3.25391E-011, 3.25391E-011, 1.45519E-011, 4.1159E-011
