hour, t(sec), |V|1 (volts), |V|2 (volts), |V|3 (volts), |V|4 (volts), |I|1 (amps), |I|2 (amps), |I|3 (amps), |I|4 (amps)
0, 900.00000, 131.096, 130.182, 131.073, 0, 129.672, 155.004, 144.417, 22.6435
0, 1800.00000, 131.28, 130.399, 131.279, 0, 125.584, 149.791, 138.979, 21.5852
0, 2700.00000, 123.889, 123.099, 123.933, 0, 122.778, 146.402, 135.601, 20.9976
1, 0.00000, 123.702, 122.838, 123.672, 0, 128.075, 155.912, 145.046, 24.8207
1, 900.00000, 123.73, 122.879, 123.712, 0, 128.709, 156.142, 144.971, 24.4147
1, 1800.00000, 118.524, 117.75, 118.465, 0, 124.049, 150.964, 142.391, 24.0045
1, 2700.00000, 118.475, 117.696, 118.406, 0, 124.711, 151.616, 143.361, 24.0617
2, 0.00000, 118.408, 117.605, 118.323, 0, 126.708, 154.928, 146.57, 25.2929
2, 900.00000, 118.568, 117.793, 118.497, 0, 122.085, 148.804, 141.025, 23.9774
2, 1800.00000, 118.515, 117.755, 118.465, 0, 122.139, 147.768, 140.05, 22.9552
2, 2700.00000, 118.969, 118.209, 118.91, 0, 121.23, 147.154, 139.422, 23.2275
3, 0.00000, 126.073, 125.346, 126.15, 0, 114.106, 135.092, 123.839, 18.6577
3, 900.00000, 125.962, 125.271, 126.087, 0, 115.474, 134.033, 122.802, 16.6819
3, 1800.00000, 126.063, 125.337, 126.145, 0, 114.568, 135.522, 124.114, 18.6423
3, 2700.00000, 125.736, 124.951, 125.777, 0, 122.242, 145.506, 134.731, 20.6723
4, 0.00000, 125.831, 125.075, 125.907, 0, 119.908, 141.756, 130.268, 19.437
4, 900.00000, 125.942, 125.239, 126.071, 0, 117.023, 136.074, 124.4, 17.1428
4, 1800.00000, 125.674, 124.863, 125.703, 0, 123.418, 147.219, 137.079, 21.2068
4, 2700.00000, 132.791, 131.949, 132.755, 0, 114.612, 137.807, 129.058, 20.7719
5, 0.00000, 132.627, 131.751, 132.576, 0, 118.778, 143.171, 134.404, 21.9132
5, 900.00000, 132.691, 131.819, 132.645, 0, 117.552, 142.029, 132.725, 21.9075
5, 1800.00000, 137.098, 136.13, 136.911, 0, 125.659, 153.93, 146.985, 25.8215
5, 2700.00000, 137.195, 136.274, 137.054, 0, 121.438, 146.682, 139.911, 22.9357
6, 0.00000, 137.504, 136.639, 137.395, 0, 111.425, 133.733, 127.641, 20.2478
6, 900.00000, 137.29, 136.39, 137.207, 0, 116.688, 138.864, 132.288, 20.0481
6, 1800.00000, 125.953, 125.13, 125.953, 0, 114.571, 137.536, 130.438, 20.8308
6, 2700.00000, 126.226, 125.543, 126.392, 0, 105.014, 120.284, 111.545, 13.7598
7, 0.00000, 125.972, 125.223, 126.083, 0, 111.252, 128.753, 121.925, 15.772
7, 900.00000, 126.049, 125.281, 126.075, 0, 106.323, 123.943, 121.5, 16.9143
7, 1800.00000, 126.306, 125.573, 126.358, 0, 100.946, 117.554, 114.539, 15.6898
7, 2700.00000, 126.371, 125.618, 126.384, 0, 98.815, 116.639, 114.535, 17.2039
8, 0.00000, 126.211, 125.351, 126.097, 0, 102.262, 125.063, 125.277, 23.2214
8, 900.00000, 126.434, 125.607, 126.35, 0, 97.7811, 119.526, 119.274, 21.9162
8, 1800.00000, 126.385, 125.636, 126.432, 0, 96.498, 113.699, 111.04, 16.3825
8, 2700.00000, 126.199, 125.371, 126.19, 0, 100.239, 120.482, 118.474, 19.6768
9, 0.00000, 125.906, 124.844, 125.572, 0, 109.127, 142.023, 145.518, 35.0906
9, 900.00000, 125.978, 124.991, 125.763, 0, 106.892, 136.143, 136.706, 29.8776
9, 1800.00000, 126.05, 125.1, 125.813, 0, 103.924, 131.269, 134.883, 29.5882
9, 2700.00000, 126.253, 125.321, 125.991, 0, 100.323, 127.578, 132.305, 30.1307
10, 0.00000, 126.264, 125.322, 125.986, 0, 99.6254, 127.787, 132.435, 30.9804
10, 900.00000, 126.083, 125.076, 125.717, 0, 104.735, 135.917, 142.474, 35.153
10, 1800.00000, 126.168, 125.104, 125.754, 0, 103.843, 138.606, 144.258, 38.1559
10, 2700.00000, 125.849, 124.763, 125.462, 0, 112.827, 148.191, 152.568, 38.0382
11, 0.00000, 125.955, 124.893, 125.6, 0, 109.068, 142.956, 146.866, 36.2971
11, 900.00000, 126.206, 125.153, 125.809, 0, 102.088, 136.332, 141.418, 37.3027
11, 1800.00000, 125.868, 124.877, 125.523, 0, 109.3, 139.88, 146.036, 34.3111
11, 2700.00000, 126.087, 125.145, 125.777, 0, 102.552, 130.881, 136.667, 31.8392
12, 0.00000, 126.199, 125.205, 125.845, 0, 102.278, 134.096, 138.62, 34.5495
12, 900.00000, 125.71, 124.645, 125.31, 0, 115.916, 150.195, 155.756, 37.65
12, 1800.00000, 125.931, 124.961, 125.667, 0, 105.573, 134.389, 137.662, 30.8646
12, 2700.00000, 125.812, 124.859, 125.556, 0, 111.407, 140.002, 143.373, 30.6983
13, 0.00000, 125.997, 125.012, 125.698, 0, 104.898, 134.605, 139.3, 32.5676
13, 900.00000, 125.819, 124.805, 125.501, 0, 109.956, 140.802, 145.668, 33.8166
13, 1800.00000, 125.757, 124.644, 125.303, 0, 112.746, 149.143, 155.834, 40.4324
13, 2700.00000, 125.135, 123.882, 124.655, 0, 130.057, 172.135, 176.276, 44.6931
14, 0.00000, 125.313, 124.061, 124.826, 0, 125.256, 167.729, 171.865, 45.0673
14, 900.00000, 125.447, 124.276, 125.05, 0, 120.62, 159.155, 162.217, 40.5216
14, 1800.00000, 125.611, 124.434, 125.172, 0, 118.423, 158.006, 161.672, 41.8839
14, 2700.00000, 125.723, 124.535, 125.217, 0, 114.672, 155.382, 161.051, 44.1238
15, 0.00000, 125.662, 124.47, 125.112, 0, 115.107, 155.042, 164.381, 45.5823
15, 900.00000, 125.87, 124.711, 125.374, 0, 110.029, 148.869, 156.108, 43.1823
15, 1800.00000, 125.733, 124.62, 125.319, 0, 112.045, 147.962, 153.639, 39.3521
15, 2700.00000, 125.756, 124.577, 125.259, 0, 113.104, 153.215, 159.027, 43.6068
16, 0.00000, 125.602, 124.436, 125.14, 0, 117.218, 156.184, 161.549, 42.219
16, 900.00000, 125.602, 124.488, 125.214, 0, 118.296, 154.912, 158.544, 38.8874
16, 1800.00000, 125.647, 124.558, 125.277, 0, 116.246, 151.627, 155.149, 37.5869
16, 2700.00000, 125.804, 124.732, 125.42, 0, 112.137, 146.643, 151.593, 37.5102
17, 0.00000, 125.634, 124.534, 125.26, 0, 116.551, 152.326, 155.551, 37.8228
17, 900.00000, 125.676, 124.521, 125.164, 0, 116.106, 156.405, 161.531, 43.3863
17, 1800.00000, 125.613, 124.486, 125.085, 0, 119.188, 158.191, 164.611, 42.8541
17, 2700.00000, 125.604, 124.508, 125.069, 0, 119.569, 157.527, 165.009, 42.4463
18, 0.00000, 125.711, 124.64, 125.201, 0, 115.475, 152.419, 158.93, 40.8425
18, 900.00000, 125.093, 123.94, 124.509, 0, 133.565, 174.631, 181.559, 45.2244
18, 1800.00000, 125.061, 123.867, 124.441, 0, 135.032, 178.46, 184.675, 47.1608
18, 2700.00000, 124.958, 123.748, 124.288, 0, 137.989, 182.159, 190.325, 49.0608
19, 0.00000, 124.732, 123.594, 124.207, 0, 144.247, 184.062, 188.994, 42.8458
19, 900.00000, 124.816, 123.717, 124.298, 0, 143.155, 181.444, 187.248, 41.8117
19, 1800.00000, 117.63, 116.662, 117.166, 0, 143.267, 179.171, 184.587, 38.8348
19, 2700.00000, 117.31, 116.245, 116.829, 0, 155.261, 196.472, 198.602, 42.3009
20, 0.00000, 117.436, 116.274, 116.764, 0, 152.063, 198.659, 205.379, 50.2177
20, 900.00000, 117.167, 116.088, 116.752, 0, 159.31, 201.277, 199.992, 41.3773
20, 1800.00000, 117.469, 116.392, 116.989, 0, 149.863, 191.581, 192.872, 42.3863
20, 2700.00000, 114.326, 113.333, 113.944, 0, 150.4, 189.148, 188.338, 38.3664
21, 0.00000, 114.191, 113.058, 113.585, 0, 152.303, 197.854, 203.047, 48.277
21, 900.00000, 114.488, 113.473, 114.076, 0, 143.428, 182.882, 183.15, 39.591
21, 1800.00000, 124.696, 123.532, 124.284, 0, 146.903, 187.473, 186.212, 40.4401
21, 2700.00000, 124.675, 123.617, 124.394, 0, 148.163, 183.356, 180.378, 34.302
22, 0.00000, 124.935, 123.87, 124.576, 0, 141.08, 177.009, 176.85, 36.2732
22, 900.00000, 124.814, 123.672, 124.367, 0, 145.076, 184.885, 185.495, 40.5547
22, 1800.00000, 124.797, 123.64, 124.332, 0, 144.85, 185.634, 186.242, 41.5278
22, 2700.00000, 128.201, 126.962, 127.685, 0, 143.085, 187.228, 186.69, 44.37
23, 0.00000, 128.068, 126.902, 127.708, 0, 147.832, 187.25, 183.49, 38.2426
23, 900.00000, 128.284, 127.092, 127.868, 0, 143.282, 184.998, 181.442, 40.5914
23, 1800.00000, 130.709, 129.488, 130.321, 0, 143.726, 185.11, 179.877, 39.6371
23, 2700.00000, 130.844, 129.68, 130.478, 0, 140.501, 179.305, 175.188, 37.4759
24, 0.00000, 130.794, 129.669, 130.494, 0, 141.418, 177.781, 172.621, 34.6551
24, 900.00000, 131.097, 130.183, 131.074, 0, 129.668, 155, 144.414, 22.6432
