hour, t(sec), |V|1 (volts), |V|2 (volts), |V|3 (volts), |V|4 (volts), |I|1 (amps), |I|2 (amps), |I|3 (amps), |I|4 (amps)
0, 900.00000, 123.014, 122.85, 124.173, 0, 112.134, 103.233, 89.1763, 20.3382
0, 1800.00000, 123.278, 123.13, 124.404, 0, 108.801, 99.6515, 86.516, 19.6604
0, 2700.00000, 123.476, 123.257, 124.515, 0, 102.93, 96.4851, 82.9673, 17.9272
1, 0.00000, 123.218, 123.077, 124.321, 0, 107.037, 98.2809, 85.2647, 19.2307
1, 900.00000, 123.295, 123.165, 124.377, 0, 106.278, 97.3366, 85.0459, 18.7025
1, 1800.00000, 123.5, 123.334, 124.54, 0, 103.014, 95.3838, 82.7323, 17.9915
1, 2700.00000, 123.423, 123.288, 124.511, 0, 103.796, 94.9445, 81.9131, 19.3031
2, 0.00000, 123.322, 123.175, 124.393, 0, 105.364, 96.8616, 84.3309, 18.5698
2, 900.00000, 123.548, 123.406, 124.608, 0, 101.886, 93.3463, 80.9026, 18.5058
2, 1800.00000, 123.387, 123.301, 124.499, 0, 104.409, 93.8152, 81.942, 19.6705
2, 2700.00000, 123.694, 123.582, 124.742, 0, 101.259, 91.8689, 80.5418, 18.1664
3, 0.00000, 124.103, 123.952, 125.084, 0, 94.3757, 86.8094, 75.3442, 16.8023
3, 900.00000, 123.817, 123.73, 124.843, 0, 99.2639, 89.3908, 79.1881, 17.5587
3, 1800.00000, 124.105, 123.991, 125.094, 0, 94.7784, 86.0261, 75.5246, 16.8757
3, 2700.00000, 123.603, 123.485, 124.647, 0, 102.248, 92.9945, 81.9854, 17.7724
4, 0.00000, 123.728, 123.594, 124.74, 0, 100.561, 91.9696, 81.19, 17.0145
4, 900.00000, 123.941, 123.752, 124.891, 0, 96.4681, 89.7674, 78.9162, 15.563
4, 1800.00000, 123.571, 123.396, 124.607, 0, 101.619, 93.6515, 81.9346, 17.3853
4, 2700.00000, 124.013, 123.843, 124.976, 0, 96.216, 88.649, 78.0576, 15.9979
5, 0.00000, 123.757, 123.659, 124.794, 0, 100.234, 90.0805, 80.1117, 17.5935
5, 900.00000, 123.894, 123.766, 124.913, 0, 97.896, 88.7832, 78.1454, 17.3068
5, 1800.00000, 123.841, 123.666, 124.814, 0, 100.635, 93.1061, 82.4372, 16.0517
5, 2700.00000, 123.87, 123.755, 124.873, 0, 100.527, 90.9908, 81.2686, 16.8449
6, 0.00000, 124.234, 124.134, 125.214, 0, 95.5148, 85.6204, 76.3918, 16.7021
6, 900.00000, 123.898, 123.757, 124.924, 0, 100.175, 90.6241, 80.5216, 17.197
6, 1800.00000, 124.002, 123.809, 125.004, 0, 97.566, 89.357, 78.9339, 16.3726
6, 2700.00000, 124.32, 124.141, 125.3, 0, 92.2977, 83.7538, 74.2109, 15.8389
7, 0.00000, 123.95, 123.757, 124.952, 0, 97.767, 88.7928, 79.8291, 15.7017
7, 900.00000, 123.965, 123.722, 124.978, 0, 97.0378, 88.9689, 78.4493, 16.3478
7, 1800.00000, 124.382, 124.174, 125.318, 0, 88.8654, 80.3107, 72.3235, 14.4567
7, 2700.00000, 124.447, 124.249, 125.372, 0, 88.0693, 79.1655, 71.7476, 14.2621
8, 0.00000, 124.228, 124.048, 125.214, 0, 91.1003, 81.0397, 72.9913, 15.824
8, 900.00000, 124.59, 124.413, 125.497, 0, 85.9714, 76.3311, 70.1566, 13.8697
8, 1800.00000, 124.476, 124.298, 125.415, 0, 86.4348, 76.7064, 69.994, 14.3999
8, 2700.00000, 124.062, 123.865, 125.057, 0, 91.062, 81.1259, 73.3803, 15.4631
9, 0.00000, 123.777, 123.617, 124.813, 0, 94.9152, 83.5065, 75.9331, 16.6394
9, 900.00000, 123.889, 123.727, 124.917, 0, 92.6767, 81.6606, 74.0178, 16.344
9, 1800.00000, 123.935, 123.735, 124.886, 0, 91.5383, 81.7834, 75.2682, 14.2649
9, 2700.00000, 124.307, 124.114, 125.206, 0, 86.0869, 76.6025, 70.7969, 13.4262
10, 0.00000, 124.243, 124.113, 125.147, 0, 87.8382, 76.6687, 72.4226, 13.7885
10, 900.00000, 124.066, 123.853, 124.97, 0, 89.6259, 80.6383, 74.3664, 13.3647
10, 1800.00000, 124.201, 124.004, 125.087, 0, 88.6981, 79.4536, 73.8467, 13.0462
10, 2700.00000, 123.793, 123.625, 124.736, 0, 95.9352, 85.3937, 80.1537, 13.9608
11, 0.00000, 123.922, 123.729, 124.875, 0, 93.8044, 83.988, 77.5, 14.3006
11, 900.00000, 124.323, 124.143, 125.224, 0, 86.7127, 77.0812, 71.3299, 13.5183
11, 1800.00000, 123.774, 123.578, 124.71, 0, 94.7423, 85.3334, 78.8195, 13.9555
11, 2700.00000, 123.939, 123.789, 124.864, 0, 93.6358, 83.0746, 77.5177, 14.2231
12, 0.00000, 124.3, 124.081, 125.176, 0, 87.4991, 79.4763, 72.5619, 13.0547
12, 900.00000, 123.623, 123.386, 124.541, 0, 97.8402, 89.4291, 82.6251, 13.3188
12, 1800.00000, 123.757, 123.58, 124.753, 0, 95.1381, 84.8735, 77.3735, 15.5513
12, 2700.00000, 123.727, 123.496, 124.624, 0, 96.2924, 88.1627, 81.8266, 12.6723
13, 0.00000, 123.925, 123.738, 124.875, 0, 93.323, 83.3646, 77.0424, 14.2912
13, 900.00000, 123.718, 123.51, 124.681, 0, 96.1747, 86.6173, 79.7539, 14.3854
13, 1800.00000, 123.672, 123.462, 124.642, 0, 96.597, 87.0983, 79.7505, 14.7416
13, 2700.00000, 122.873, 122.613, 123.944, 0, 108.447, 99.3917, 90.0706, 16.1252
14, 0.00000, 123.148, 122.884, 124.207, 0, 103.905, 95.2008, 85.7054, 15.9771
14, 900.00000, 123.248, 123.008, 124.286, 0, 102.704, 93.5491, 85.1281, 15.3998
14, 1800.00000, 123.544, 123.308, 124.518, 0, 98.8582, 90.0891, 82.6692, 14.1765
14, 2700.00000, 123.599, 123.396, 124.564, 0, 98.4442, 88.8589, 82.0018, 14.4079
15, 0.00000, 123.524, 123.314, 124.507, 0, 98.3405, 88.3574, 81.5807, 14.6967
15, 900.00000, 123.762, 123.582, 124.716, 0, 95.767, 85.2992, 79.6986, 14.1765
15, 1800.00000, 123.571, 123.422, 124.584, 0, 99.4973, 87.8968, 81.8575, 15.5809
15, 2700.00000, 123.737, 123.504, 124.699, 0, 96.5161, 87.8827, 80.1856, 14.2912
16, 0.00000, 123.504, 123.3, 124.505, 0, 99.9131, 90.0797, 82.7845, 15.0063
16, 900.00000, 123.475, 123.313, 124.458, 0, 101.372, 90.5823, 84.8445, 14.5947
16, 1800.00000, 123.518, 123.391, 124.518, 0, 100.437, 88.6121, 83.1854, 15.3138
16, 2700.00000, 123.817, 123.612, 124.753, 0, 97.4393, 88.0723, 81.8877, 13.6476
17, 0.00000, 123.613, 123.452, 124.623, 0, 100.128, 89.2905, 82.4727, 15.5106
17, 900.00000, 123.712, 123.523, 124.659, 0, 98.4365, 89.2839, 82.0494, 14.343
17, 1800.00000, 123.608, 123.418, 124.581, 0, 101.553, 92.3782, 83.8007, 15.5235
17, 2700.00000, 123.597, 123.406, 124.553, 0, 101.408, 92.6935, 84.0009, 15.2303
18, 0.00000, 123.579, 123.383, 124.541, 0, 103.002, 94.6418, 85.1682, 15.6321
18, 900.00000, 122.819, 122.534, 123.793, 0, 113.466, 107.641, 96.2344, 15.4864
18, 1800.00000, 122.854, 122.599, 123.887, 0, 112.261, 105.713, 92.9787, 17.2853
18, 2700.00000, 122.657, 122.392, 123.661, 0, 115.61, 109.351, 97.4096, 16.3237
19, 0.00000, 122.33, 122.065, 123.369, 0, 120.669, 114.134, 101.942, 16.7964
19, 900.00000, 122.483, 122.181, 123.487, 0, 118.595, 113.559, 100.631, 16.4143
19, 1800.00000, 122.379, 122.074, 123.393, 0, 119.358, 114.436, 101.173, 16.6677
19, 2700.00000, 122.079, 121.729, 123.102, 0, 124.098, 120.557, 106.623, 16.4647
20, 0.00000, 122.199, 121.893, 123.234, 0, 123.79, 118.738, 105.261, 16.9885
20, 900.00000, 121.918, 121.641, 123.04, 0, 125.885, 119.969, 106.134, 17.9886
20, 1800.00000, 122.17, 121.907, 123.288, 0, 124.389, 118.004, 103.622, 18.8145
20, 2700.00000, 122.026, 121.768, 123.149, 0, 124.871, 118.32, 104.256, 18.638
21, 0.00000, 121.831, 121.499, 123.009, 0, 126.265, 121.19, 104.245, 20.4428
21, 900.00000, 122.156, 121.925, 123.298, 0, 123.218, 115.431, 101.924, 19.0131
21, 1800.00000, 122.234, 122.014, 123.405, 0, 121.582, 113.342, 99.085, 20.0578
21, 2700.00000, 122.289, 122.048, 123.407, 0, 119.744, 112.434, 99.0033, 18.5675
22, 0.00000, 122.597, 122.386, 123.701, 0, 115.792, 107.702, 94.7658, 18.6656
22, 900.00000, 122.416, 122.183, 123.544, 0, 119.385, 111.759, 97.6007, 19.4779
22, 1800.00000, 122.321, 122.133, 123.478, 0, 121.283, 112.355, 98.7052, 20.0031
22, 2700.00000, 122.639, 122.397, 123.744, 0, 116.99, 109.946, 95.884, 18.9451
23, 0.00000, 122.46, 122.24, 123.583, 0, 120.093, 112.049, 99.0553, 18.708
23, 900.00000, 122.847, 122.628, 123.95, 0, 114.109, 106.515, 92.9878, 18.838
23, 1800.00000, 122.682, 122.504, 123.876, 0, 117.184, 107.978, 93.6094, 20.889
23, 2700.00000, 122.896, 122.731, 124.023, 0, 113.809, 104.45, 91.9579, 19.2501
24, 0.00000, 122.764, 122.603, 123.908, 0, 116.113, 106.502, 94.0777, 19.4027
24, 900.00000, 123.014, 122.849, 124.173, 0, 112.137, 103.236, 89.1781, 20.3396
