hour, t(sec), |V|1 (volts), |V|2 (volts), |V|3 (volts), |V|4 (volts), |I|1 (amps), |I|2 (amps), |I|3 (amps), |I|4 (amps)
0, 900.00000, 131.62, 131.21, 132.518, 0, 242.49, 238.825, 182.631, 58.6553
0, 1800.00000, 131.792, 131.477, 132.716, 0, 236.734, 225.699, 174.3, 58.1847
0, 2700.00000, 123.263, 123.045, 124.277, 0, 241.431, 230.109, 175.994, 61.1563
1, 0.00000, 123.134, 122.913, 124.135, 0, 245.184, 234.34, 180.97, 60.1282
1, 900.00000, 123.162, 122.959, 124.192, 0, 246.001, 233.995, 179.241, 62.2308
1, 1800.00000, 117.338, 117.205, 118.299, 0, 235.771, 223.567, 174.661, 56.7446
1, 2700.00000, 117.327, 117.176, 118.271, 0, 233.799, 222.777, 173.892, 55.9533
2, 0.00000, 117.314, 117.148, 118.236, 0, 232.436, 222.732, 174.817, 54.1661
2, 900.00000, 117.411, 117.264, 118.331, 0, 230.204, 218.854, 172.575, 53.5874
2, 1800.00000, 117.43, 117.269, 118.311, 0, 224.616, 214.036, 170.448, 50.4264
2, 2700.00000, 117.9, 117.741, 118.797, 0, 224.755, 214.434, 169.04, 52.031
3, 0.00000, 125.614, 125.437, 126.558, 0, 232.506, 218.464, 170.898, 56.4032
3, 900.00000, 125.633, 125.445, 126.555, 0, 224.255, 210.534, 164.807, 54.3774
3, 1800.00000, 125.652, 125.479, 126.592, 0, 229.08, 214.724, 167.879, 55.9056
3, 2700.00000, 125.419, 125.23, 126.385, 0, 233.934, 219.631, 171.447, 57.2096
4, 0.00000, 125.511, 125.325, 126.47, 0, 230.355, 216.042, 168.208, 56.863
4, 900.00000, 125.523, 125.338, 126.503, 0, 233.896, 219.744, 170.063, 58.5749
4, 1800.00000, 125.322, 125.108, 126.296, 0, 238.813, 225.33, 176.528, 57.2946
4, 2700.00000, 133.463, 133.173, 134.261, 0, 217.6, 205.851, 164.31, 48.9695
5, 0.00000, 133.365, 133.028, 134.159, 0, 218.929, 210.056, 166.414, 49.1349
5, 900.00000, 133.376, 133.069, 134.185, 0, 221.342, 210.384, 167.273, 49.9553
5, 1800.00000, 138.565, 138.226, 139.377, 0, 230.97, 219.439, 173.497, 53.244
5, 2700.00000, 138.752, 138.374, 139.482, 0, 216.531, 208.025, 166.019, 47.3943
6, 0.00000, 139.13, 138.766, 139.785, 0, 194.219, 184.878, 149.706, 41.1151
6, 900.00000, 138.898, 138.516, 139.625, 0, 204.536, 193.601, 155.039, 45.5591
6, 1800.00000, 125.847, 125.522, 126.693, 0, 203.27, 196.947, 152.767, 48.1618
6, 2700.00000, 125.996, 125.739, 126.844, 0, 198.707, 186.569, 148.021, 46.2708
7, 0.00000, 125.908, 125.519, 126.704, 0, 194.797, 191.918, 150.187, 43.7813
7, 900.00000, 126.049, 125.689, 126.822, 0, 181.704, 174.984, 138.548, 40.6701
7, 1800.00000, 126.257, 125.887, 126.958, 0, 176.484, 171.822, 139.529, 35.3026
7, 2700.00000, 126.341, 126.012, 126.99, 0, 171.477, 163.318, 138.9, 29.7072
8, 0.00000, 126.285, 125.858, 126.873, 0, 168.294, 167.16, 141.15, 27.0604
8, 900.00000, 126.43, 126.087, 127.055, 0, 167.209, 159.857, 137.142, 27.4932
8, 1800.00000, 126.2, 125.935, 126.873, 0, 181.291, 166.933, 147.765, 29.365
8, 2700.00000, 126.072, 125.769, 126.734, 0, 182.666, 169.659, 150.91, 27.9019
9, 0.00000, 125.996, 125.594, 126.55, 0, 178.258, 173.106, 155.717, 20.8486
9, 900.00000, 125.872, 125.556, 126.489, 0, 191.438, 179.706, 163.695, 24.3597
9, 1800.00000, 126.073, 125.654, 126.561, 0, 175.782, 173.185, 159.078, 16.0095
9, 2700.00000, 126.196, 125.89, 126.763, 0, 176.299, 165.056, 152.108, 21.137
10, 0.00000, 126.327, 125.929, 126.762, 0, 164.956, 162.253, 151.999, 12.2022
10, 900.00000, 126.116, 125.757, 126.631, 0, 175.775, 168.922, 156.003, 17.6609
10, 1800.00000, 126.259, 125.908, 126.746, 0, 168.943, 161.855, 151.484, 15.4144
10, 2700.00000, 125.934, 125.594, 126.509, 0, 184.445, 175.616, 160.755, 21.0189
11, 0.00000, 125.939, 125.632, 126.533, 0, 186.974, 175.135, 161.379, 22.3789
11, 900.00000, 126.215, 125.8, 126.624, 0, 173.16, 171.82, 162.377, 10.624
11, 1800.00000, 125.798, 125.53, 126.393, 0, 192.601, 178.453, 166.248, 22.9574
11, 2700.00000, 126.159, 125.84, 126.647, 0, 169.57, 160.384, 151.297, 15.937
12, 0.00000, 126.133, 125.813, 126.659, 0, 180.041, 171.8, 158.194, 19.3503
12, 900.00000, 125.824, 125.451, 126.431, 0, 187.185, 181.451, 159.832, 25.4098
12, 1800.00000, 125.922, 125.53, 126.41, 0, 181.602, 177.307, 164.257, 16.017
12, 2700.00000, 125.752, 125.46, 126.366, 0, 195.127, 183.305, 167.486, 24.2628
13, 0.00000, 126.006, 125.654, 126.486, 0, 178.725, 170.889, 162.617, 14.0936
13, 900.00000, 125.818, 125.493, 126.372, 0, 187.854, 177.096, 165.754, 19.3015
13, 1800.00000, 125.813, 125.478, 126.36, 0, 187.237, 177.365, 165.384, 19.1466
13, 2700.00000, 125.124, 124.797, 125.841, 0, 221.41, 208.055, 187.693, 29.7644
14, 0.00000, 125.18, 124.886, 125.851, 0, 223.9, 208.147, 194.075, 26.0127
14, 900.00000, 125.291, 125.012, 125.928, 0, 218.498, 202.248, 191.523, 23.5847
14, 1800.00000, 125.527, 125.235, 126.143, 0, 208.224, 194.078, 182.02, 22.8497
14, 2700.00000, 125.769, 125.457, 126.302, 0, 191.049, 179.241, 171.011, 17.4912
15, 0.00000, 125.734, 125.394, 126.264, 0, 189.858, 179.003, 170.755, 16.6631
15, 900.00000, 125.972, 125.645, 126.438, 0, 178.701, 167.833, 164.895, 12.4279
15, 1800.00000, 125.816, 125.483, 126.316, 0, 184.252, 173.4, 167.617, 14.5979
15, 2700.00000, 125.752, 125.406, 126.267, 0, 192.87, 183.829, 174.52, 16.0486
16, 0.00000, 125.617, 125.284, 126.163, 0, 198.315, 187.675, 177.893, 17.8257
16, 900.00000, 125.636, 125.341, 126.226, 0, 198.419, 185.308, 174.243, 21.0823
16, 1800.00000, 125.731, 125.4, 126.256, 0, 190.871, 181.2, 171.787, 16.6721
16, 2700.00000, 125.879, 125.561, 126.402, 0, 184.763, 174.026, 165.392, 16.8918
17, 0.00000, 125.665, 125.289, 126.2, 0, 195.897, 189.75, 175.776, 18.2239
17, 900.00000, 125.807, 125.342, 126.179, 0, 186.357, 190.13, 178.3, 11.2169
17, 1800.00000, 125.803, 125.454, 126.353, 0, 186.337, 180.722, 161.407, 23.0201
17, 2700.00000, 125.737, 125.414, 126.304, 0, 191.915, 185.155, 165.04, 24.5655
18, 0.00000, 125.877, 125.544, 126.363, 0, 182.784, 177.464, 161.903, 19.1063
18, 900.00000, 125.252, 124.842, 125.833, 0, 213.395, 214.315, 185.01, 29.4445
18, 1800.00000, 125.07, 124.617, 125.656, 0, 228.489, 233.188, 199.303, 32.4833
18, 2700.00000, 125.197, 124.576, 125.668, 0, 213.779, 232.827, 194.262, 34.2306
19, 0.00000, 124.942, 124.389, 125.567, 0, 226.757, 239.594, 194.775, 40.7453
19, 900.00000, 124.91, 124.478, 125.675, 0, 234.698, 238.063, 190.154, 46.9701
19, 1800.00000, 116.865, 116.476, 117.601, 0, 233.308, 240.644, 192.186, 46.0877
19, 2700.00000, 116.418, 116.071, 117.309, 0, 263.079, 266.74, 210.54, 55.4425
20, 0.00000, 116.761, 116.438, 117.558, 0, 239.479, 240.972, 193.85, 47.2565
20, 900.00000, 116.092, 115.808, 117.026, 0, 285.257, 283.509, 230.573, 54.9116
20, 1800.00000, 116.587, 116.369, 117.476, 0, 253.687, 246.117, 200.697, 50.5121
20, 2700.00000, 113.014, 112.827, 113.999, 0, 260.494, 252.89, 199.941, 58.0563
21, 0.00000, 112.882, 112.626, 113.791, 0, 263.732, 260.462, 210.159, 52.9991
21, 900.00000, 113.361, 113.104, 114.188, 0, 233.689, 231.255, 186.625, 46.7494
21, 1800.00000, 124.65, 124.329, 125.613, 0, 252.243, 244.119, 192.574, 56.7007
21, 2700.00000, 124.555, 124.272, 125.62, 0, 260.425, 249.872, 192.391, 64.1011
22, 0.00000, 124.944, 124.618, 125.888, 0, 237.792, 231.302, 178.757, 56.6779
22, 900.00000, 124.886, 124.532, 125.835, 0, 238.865, 234.31, 179.05, 58.2918
22, 1800.00000, 124.936, 124.559, 125.83, 0, 232.974, 230.611, 177.815, 54.6285
22, 2700.00000, 128.725, 128.312, 129.576, 0, 233.33, 231.285, 179.731, 53.1794
23, 0.00000, 128.54, 128.143, 129.532, 0, 245.528, 241.21, 181.144, 62.9673
23, 900.00000, 128.696, 128.3, 129.647, 0, 242.793, 239.48, 180.95, 60.8574
23, 1800.00000, 131.41, 130.985, 132.333, 0, 249.419, 245.12, 188.531, 59.4396
23, 2700.00000, 131.628, 131.184, 132.502, 0, 236.82, 235.044, 179.845, 56.6684
24, 0.00000, 131.558, 131.148, 132.476, 0, 240.283, 235.203, 179.804, 58.6618
24, 900.00000, 131.621, 131.211, 132.519, 0, 242.482, 238.817, 182.625, 58.6529
