hour, t(sec), |V|1 (volts), |V|2 (volts), |V|3 (volts), |V|4 (volts), |I|1 (amps), |I|2 (amps), |I|3 (amps), |I|4 (amps)
0, 900.00000, 124.09, 125.526, 126.737, 0, 370.491, 226.697, 164.904, 183.981
0, 1800.00000, 124.378, 125.747, 126.937, 0, 354.291, 216.291, 155.385, 177.726
0, 2700.00000, 124.499, 125.88, 126.984, 0, 342.114, 203.558, 148.777, 173.664
1, 0.00000, 124.298, 125.668, 126.818, 0, 352.671, 215.524, 156.823, 175.243
1, 900.00000, 124.483, 125.751, 126.897, 0, 339.883, 211.541, 152.685, 166.9
1, 1800.00000, 124.601, 125.882, 126.977, 0, 334.238, 204.932, 149.703, 165.072
1, 2700.00000, 124.511, 125.784, 126.912, 0, 338.953, 210.184, 152.187, 166.646
2, 0.00000, 124.291, 125.745, 126.888, 0, 355.267, 211.337, 152.564, 181.832
2, 900.00000, 124.572, 125.865, 126.98, 0, 337.178, 206.647, 149.838, 167.438
2, 1800.00000, 124.512, 125.758, 126.932, 0, 339.061, 212.194, 150.926, 167.331
2, 2700.00000, 124.823, 126.002, 127.125, 0, 323.796, 202.875, 144.944, 159.08
3, 0.00000, 124.993, 126.234, 127.292, 0, 318.506, 192.917, 139.283, 160.284
3, 900.00000, 124.933, 126.108, 127.245, 0, 318.784, 198.633, 138.854, 159.77
3, 1800.00000, 125.209, 126.3, 127.377, 0, 301.308, 188.473, 133.008, 149.461
3, 2700.00000, 124.696, 125.969, 127.12, 0, 331.992, 203.164, 143.345, 168.091
4, 0.00000, 124.77, 126.074, 127.202, 0, 329.339, 198.04, 139.789, 169.263
4, 900.00000, 124.779, 126.167, 127.258, 0, 332.094, 193.766, 138.476, 173.817
4, 1800.00000, 124.508, 125.904, 127.062, 0, 344.73, 204.634, 145.87, 178.124
4, 2700.00000, 124.901, 126.225, 127.316, 0, 324.858, 191.423, 136.37, 168.908
5, 0.00000, 124.879, 126.037, 127.198, 0, 320.74, 200.876, 140.933, 159.627
5, 900.00000, 124.928, 126.146, 127.274, 0, 319.455, 194.719, 136.969, 162.584
5, 1800.00000, 124.72, 126.135, 127.246, 0, 339.087, 198.062, 141.83, 177.125
5, 2700.00000, 124.903, 126.154, 127.298, 0, 325.789, 198.359, 139.246, 166.208
6, 0.00000, 125.244, 126.404, 127.514, 0, 306.974, 187.067, 129.824, 157.566
6, 900.00000, 124.922, 126.178, 127.348, 0, 325.236, 195.72, 136.524, 168.264
6, 1800.00000, 124.804, 126.111, 127.274, 0, 334.358, 199.65, 143.011, 171.328
6, 2700.00000, 125.13, 126.335, 127.49, 0, 315.262, 188.955, 132.668, 162.976
7, 0.00000, 124.962, 126.131, 127.355, 0, 320.264, 195.69, 136.168, 163.796
7, 900.00000, 124.856, 126.083, 127.299, 0, 327.425, 196.814, 138.84, 168.384
7, 1800.00000, 125.178, 126.319, 127.506, 0, 306.427, 183.714, 126.993, 159.857
7, 2700.00000, 125.309, 126.405, 127.586, 0, 297.35, 178.337, 122.105, 155.943
8, 0.00000, 125.232, 126.222, 127.432, 0, 296.795, 185.917, 128.418, 149.181
8, 900.00000, 125.613, 126.5, 127.667, 0, 274.269, 172.564, 117.991, 138.209
8, 1800.00000, 125.438, 126.408, 127.601, 0, 284.919, 175.967, 119.877, 146.26
8, 2700.00000, 125.025, 126.125, 127.362, 0, 305.104, 184.102, 126.506, 158.901
9, 0.00000, 124.701, 125.833, 127.105, 0, 321.792, 197.886, 138.019, 163.427
9, 900.00000, 124.896, 125.969, 127.218, 0, 308.333, 189.901, 131.234, 157.283
9, 1800.00000, 124.96, 126.037, 127.272, 0, 304.413, 185.685, 127.929, 156.857
9, 2700.00000, 125.266, 126.228, 127.418, 0, 287.28, 178.725, 123.497, 145.215
10, 0.00000, 125.397, 126.245, 127.449, 0, 276.437, 178.129, 121.089, 136.974
10, 900.00000, 125.029, 126.096, 127.294, 0, 300.682, 183.306, 127.666, 153.936
10, 1800.00000, 125.288, 126.269, 127.429, 0, 283.386, 173.582, 120.622, 144.651
10, 2700.00000, 125.147, 126.079, 127.318, 0, 288.998, 182.989, 124.798, 145.143
11, 0.00000, 125.252, 126.144, 127.35, 0, 282.432, 179.496, 124.094, 140.039
11, 900.00000, 125.364, 126.289, 127.442, 0, 280.488, 175.516, 123.022, 139.693
11, 1800.00000, 124.937, 125.985, 127.213, 0, 304.065, 188.817, 130.364, 154.088
11, 2700.00000, 125.108, 126.114, 127.327, 0, 296.28, 185.025, 126.59, 150.279
12, 0.00000, 125.223, 126.309, 127.431, 0, 292.588, 174.916, 123.453, 151.036
12, 900.00000, 124.688, 125.919, 127.151, 0, 321.694, 190.998, 132.761, 168.682
12, 1800.00000, 124.759, 125.928, 127.167, 0, 318.679, 192.892, 134.118, 164.383
12, 2700.00000, 124.758, 125.997, 127.219, 0, 320.041, 189.136, 131.365, 168.534
13, 0.00000, 125, 126.09, 127.322, 0, 304.392, 184.967, 127.01, 157.678
13, 900.00000, 124.824, 125.947, 127.2, 0, 313.155, 190.671, 131.852, 161.267
13, 1800.00000, 124.707, 125.854, 127.091, 0, 319.574, 195.133, 137.637, 162.123
13, 2700.00000, 124.114, 125.406, 126.73, 0, 349.248, 211.233, 150.554, 177.594
14, 0.00000, 124.325, 125.578, 126.861, 0, 337.851, 203.115, 145.324, 172.249
14, 900.00000, 124.486, 125.69, 126.969, 0, 328.54, 198.273, 140.122, 168.225
14, 1800.00000, 124.684, 125.859, 127.093, 0, 319.253, 192.14, 136.413, 163.353
14, 2700.00000, 124.667, 125.858, 127.08, 0, 321.889, 193.821, 137.961, 164.365
15, 0.00000, 124.6, 125.72, 126.992, 0, 323.882, 200.788, 142.265, 161.63
15, 900.00000, 124.837, 125.955, 127.199, 0, 312.305, 189.891, 132.686, 159.965
15, 1800.00000, 124.695, 125.81, 127.101, 0, 322.565, 200.369, 139.633, 162.485
15, 2700.00000, 124.64, 125.894, 127.097, 0, 328.776, 195.29, 141.33, 168.161
16, 0.00000, 124.462, 125.752, 127.023, 0, 339.443, 202.716, 143.869, 174.956
16, 900.00000, 124.531, 125.789, 127.081, 0, 335.651, 202.348, 140.973, 173.594
16, 1800.00000, 124.653, 125.83, 127.131, 0, 326.111, 199.824, 136.934, 168.056
16, 2700.00000, 124.796, 126.051, 127.292, 0, 324.659, 191.496, 133.345, 170.991
17, 0.00000, 124.677, 125.856, 127.131, 0, 328.716, 201.974, 141.478, 166.634
17, 900.00000, 124.584, 125.939, 127.135, 0, 337.864, 198.003, 141.235, 176.408
17, 1800.00000, 124.512, 125.876, 127.084, 0, 343.883, 203.71, 144.497, 178.531
17, 2700.00000, 124.523, 125.855, 127.049, 0, 343.019, 206.285, 147.134, 175.172
18, 0.00000, 124.439, 125.905, 127.068, 0, 352.676, 205.233, 147.603, 184.37
18, 900.00000, 123.626, 125.441, 126.65, 0, 401.481, 225.62, 165.164, 214.107
18, 1800.00000, 123.577, 125.311, 126.508, 0, 404.678, 235.809, 176.225, 206.658
18, 2700.00000, 123.482, 125.211, 126.422, 0, 408.757, 240.445, 179.71, 206.96
19, 0.00000, 123.417, 125.119, 126.386, 0, 407.978, 242.013, 177.072, 207.788
19, 900.00000, 123.56, 125.207, 126.43, 0, 400.104, 238.955, 176.799, 201.045
19, 1800.00000, 123.245, 125.061, 126.299, 0, 421.652, 246.868, 183.536, 215.176
19, 2700.00000, 123.11, 124.959, 126.194, 0, 425.669, 248.086, 186.752, 216.471
20, 0.00000, 123.298, 125.061, 126.29, 0, 414.667, 243.943, 182.229, 210.041
20, 900.00000, 123.318, 124.916, 126.203, 0, 405.043, 247.857, 183.425, 198.949
20, 1800.00000, 123.349, 125.064, 126.314, 0, 410.996, 244.108, 181.02, 207.323
20, 2700.00000, 123.171, 124.903, 126.188, 0, 418.503, 250.429, 185.051, 210.186
21, 0.00000, 122.855, 124.632, 125.911, 0, 435.696, 262.308, 199.881, 213.176
21, 900.00000, 123.283, 125.021, 126.314, 0, 412.155, 242.548, 177.109, 211.702
21, 1800.00000, 123.614, 125.059, 126.334, 0, 384.825, 239.141, 175.064, 187.55
21, 2700.00000, 123.508, 125.068, 126.358, 0, 393.897, 239.112, 173.398, 197.56
22, 0.00000, 123.863, 125.249, 126.505, 0, 372.507, 232.237, 168.199, 182.307
22, 900.00000, 123.699, 125.151, 126.401, 0, 382.412, 236.523, 173.113, 187.228
22, 1800.00000, 123.686, 125.111, 126.378, 0, 382.462, 239.107, 174.001, 186.084
22, 2700.00000, 123.831, 125.341, 126.538, 0, 378.127, 227.484, 168.237, 188.695
23, 0.00000, 123.893, 125.275, 126.538, 0, 370.526, 230.172, 166.683, 181.977
23, 900.00000, 123.997, 125.427, 126.627, 0, 369.902, 226.044, 166.461, 182.387
23, 1800.00000, 124.049, 125.349, 126.583, 0, 363.566, 230.102, 168.546, 173.886
23, 2700.00000, 124.098, 125.448, 126.687, 0, 364.705, 227.4, 164.581, 178.53
24, 0.00000, 124.092, 125.431, 126.696, 0, 363.706, 227.215, 162.511, 179.198
24, 900.00000, 124.089, 125.525, 126.737, 0, 370.498, 226.7, 164.905, 183.986
