hour, t(sec), |V|1 (volts), |V|2 (volts), |V|3 (volts), |V|4 (volts), |I|1 (amps), |I|2 (amps), |I|3 (amps), |I|4 (amps)
0, 900.00000, 123.139, 122.586, 124.933, 0, 89.6242, 93.3187, 49.6739, 42.3521
0, 1800.00000, 123.597, 122.997, 125.308, 0, 80.9965, 86.4094, 43.0474, 41.2926
0, 2700.00000, 123.794, 123.16, 125.344, 0, 76.0753, 82.9786, 42.6108, 37.7282
1, 0.00000, 123.509, 122.903, 125.198, 0, 80.5213, 86.692, 42.9797, 41.3289
1, 900.00000, 123.567, 122.965, 125.266, 0, 80.5042, 86.6947, 42.4689, 41.8253
1, 1800.00000, 123.765, 123.136, 125.368, 0, 78.0097, 85.2362, 42.5255, 39.9191
1, 2700.00000, 123.616, 123.026, 125.312, 0, 80.7298, 86.4485, 42.3157, 41.9091
2, 0.00000, 123.542, 122.99, 125.293, 0, 81.3759, 85.8193, 41.5395, 42.588
2, 900.00000, 123.783, 123.179, 125.416, 0, 77.871, 84.1129, 41.368, 40.3157
2, 1800.00000, 123.601, 123.061, 125.337, 0, 80.5578, 84.5316, 41.0835, 41.9557
2, 2700.00000, 123.893, 123.344, 125.555, 0, 78.4437, 83.08, 40.9145, 40.3806
3, 0.00000, 124.343, 123.824, 125.862, 0, 71.1156, 75.4864, 37.5416, 36.2495
3, 900.00000, 124.089, 123.599, 125.716, 0, 74.1751, 77.3529, 37.7385, 38.4426
3, 1800.00000, 124.335, 123.873, 125.932, 0, 71.8501, 74.3551, 35.8326, 37.6325
3, 2700.00000, 123.888, 123.352, 125.565, 0, 76.4639, 80.678, 38.8489, 40.2209
4, 0.00000, 124.026, 123.514, 125.681, 0, 74.6999, 78.2944, 37.5924, 39.3516
4, 900.00000, 124.175, 123.642, 125.732, 0, 72.977, 77.425, 38.7851, 36.93
4, 1800.00000, 123.774, 123.218, 125.458, 0, 78.3643, 82.6728, 40.8849, 40.1597
4, 2700.00000, 124.21, 123.686, 125.803, 0, 74.0838, 77.9533, 38.5347, 37.9463
5, 0.00000, 123.857, 123.376, 125.599, 0, 80.4258, 82.6426, 40.7074, 41.23
5, 900.00000, 124.033, 123.573, 125.756, 0, 77.3024, 78.8876, 37.8508, 40.6077
5, 1800.00000, 124.061, 123.465, 125.711, 0, 77.3305, 83.2979, 40.2845, 40.6841
5, 2700.00000, 123.975, 123.484, 125.704, 0, 80.6151, 83.1967, 41.0824, 41.2365
6, 0.00000, 124.426, 123.95, 126.059, 0, 73.7368, 75.9306, 36.4657, 38.7239
6, 900.00000, 124.135, 123.578, 125.814, 0, 76.2367, 80.0645, 38.5843, 40.0423
6, 1800.00000, 124.071, 123.449, 125.711, 0, 79.0243, 84.6322, 42.8888, 39.5946
6, 2700.00000, 124.429, 123.858, 126.041, 0, 73.0796, 77.2559, 37.5428, 38.1226
7, 0.00000, 123.816, 123.295, 125.591, 0, 85.0725, 86.8233, 45.609, 40.7852
7, 900.00000, 124.035, 123.233, 125.572, 0, 78.0133, 87.8489, 45.6527, 38.5989
7, 1800.00000, 124.2, 123.607, 125.849, 0, 78.8069, 82.7, 42.356, 38.907
7, 2700.00000, 124.272, 123.702, 125.948, 0, 77.9906, 81.1101, 40.5078, 39.4915
8, 0.00000, 123.908, 123.335, 125.678, 0, 85.0144, 87.6216, 44.8637, 41.9147
8, 900.00000, 124.377, 123.751, 126.05, 0, 77.5003, 82.2349, 39.9345, 40.4863
8, 1800.00000, 124.289, 123.708, 126.013, 0, 76.7612, 80.0531, 38.0603, 40.8013
8, 2700.00000, 123.927, 123.307, 125.722, 0, 79.119, 82.7741, 38.786, 42.6582
9, 0.00000, 123.426, 122.747, 125.36, 0, 89.2139, 94.3205, 44.6074, 47.7885
9, 900.00000, 123.62, 123.025, 125.543, 0, 84.7299, 87.5445, 40.4388, 46.173
9, 1800.00000, 123.422, 122.887, 125.29, 0, 90.8933, 91.9967, 48.5348, 43.3753
9, 2700.00000, 123.949, 123.214, 125.626, 0, 81.5118, 89.3456, 44.2454, 42.0982
10, 0.00000, 123.691, 123.165, 125.534, 0, 89.0584, 90.6818, 46.7634, 43.5521
10, 900.00000, 123.606, 122.877, 125.362, 0, 87.716, 95.1615, 48.2437, 44.0709
10, 1800.00000, 123.749, 123.088, 125.61, 0, 87.1022, 92.6669, 44.0363, 46.4877
10, 2700.00000, 123.382, 122.718, 125.368, 0, 91.8871, 97.1417, 45.9939, 49.1705
11, 0.00000, 123.594, 122.888, 125.479, 0, 87.5742, 94.0874, 44.5061, 47.0706
11, 900.00000, 123.582, 123.103, 125.554, 0, 94.0588, 94.1057, 47.5234, 47.0082
11, 1800.00000, 123.425, 122.611, 125.213, 0, 88.505, 98.6958, 48.4984, 46.3504
11, 2700.00000, 123.61, 122.883, 125.401, 0, 87.0133, 94.8634, 46.3867, 45.4502
12, 0.00000, 123.918, 123.239, 125.666, 0, 83.6949, 90.3512, 43.745, 44.0176
12, 900.00000, 123.192, 122.41, 125.111, 0, 93.8245, 102.728, 49.9543, 49.3593
12, 1800.00000, 123.311, 122.745, 125.245, 0, 91.8558, 94.1089, 47.3759, 46.0997
12, 2700.00000, 123.348, 122.629, 125.183, 0, 90.7541, 98.2381, 49.6082, 45.7793
13, 0.00000, 123.484, 122.895, 125.381, 0, 90.3124, 93.2686, 46.9349, 45.3685
13, 900.00000, 123.299, 122.606, 125.194, 0, 92.0214, 97.9793, 49.0996, 46.6341
13, 1800.00000, 123.271, 122.475, 125.121, 0, 92.008, 101.145, 50.2407, 47.4279
13, 2700.00000, 122.53, 121.69, 124.595, 0, 100.413, 109.727, 53.8365, 52.3774
14, 0.00000, 122.817, 122.057, 124.831, 0, 96.2718, 103.27, 50.8795, 49.7604
14, 900.00000, 122.977, 122.29, 124.944, 0, 93.3652, 98.4732, 49.3607, 47.2565
14, 1800.00000, 123.173, 122.466, 125.137, 0, 93.2872, 99.4794, 48.6327, 48.5089
14, 2700.00000, 123.289, 122.523, 125.186, 0, 91.1097, 99.4341, 48.0415, 48.1985
15, 0.00000, 123.125, 122.223, 124.938, 0, 93.3513, 105.298, 53.3083, 47.601
15, 900.00000, 123.379, 122.65, 125.288, 0, 90.9303, 97.9459, 47.5053, 47.753
15, 1800.00000, 123.171, 122.454, 125.14, 0, 94.3409, 100.859, 49.4872, 48.9029
15, 2700.00000, 123.309, 122.562, 125.186, 0, 92.9483, 100.694, 50.5324, 47.2102
16, 0.00000, 123.051, 122.331, 125.04, 0, 96.3649, 102.994, 50.9922, 49.4971
16, 900.00000, 123.091, 122.385, 125.125, 0, 95.518, 102.14, 48.8267, 50.7941
16, 1800.00000, 122.996, 122.435, 125.146, 0, 98.8943, 101.049, 48.4131, 52.0945
16, 2700.00000, 123.402, 122.721, 125.352, 0, 93.1661, 99.0316, 48.49, 48.3233
17, 0.00000, 123.04, 122.47, 125.14, 0, 100.194, 102.516, 51.1785, 50.7254
17, 900.00000, 122.916, 122.515, 125.052, 0, 105.723, 103.597, 54.928, 50.3037
17, 1800.00000, 123.238, 122.451, 125.157, 0, 95.4519, 105.16, 50.7828, 50.6335
17, 2700.00000, 123.242, 122.387, 125.025, 0, 94.7176, 107.01, 54.1811, 48.2704
18, 0.00000, 123.343, 122.551, 125.109, 0, 92.6121, 103.184, 52.3842, 46.8082
18, 900.00000, 122.363, 121.525, 124.262, 0, 107.927, 119.648, 64.9645, 50.3599
18, 1800.00000, 122.234, 121.435, 124.159, 0, 111.887, 122.629, 67.9439, 50.6951
18, 2700.00000, 121.745, 121.045, 123.726, 0, 123.477, 131.186, 78.283, 50.1079
19, 0.00000, 121.512, 120.817, 123.604, 0, 124.765, 132.046, 76.8736, 52.5529
19, 900.00000, 121.951, 120.954, 123.746, 0, 114.393, 131.344, 75.1869, 50.4195
19, 1800.00000, 121.668, 120.774, 123.589, 0, 120.358, 134.167, 77.4513, 51.7991
19, 2700.00000, 121.4, 120.529, 123.451, 0, 123.837, 136.912, 77.8759, 54.3643
20, 0.00000, 121.749, 120.714, 123.695, 0, 117.035, 134.895, 73.4433, 55.2743
20, 900.00000, 121.179, 120.555, 123.468, 0, 127.295, 132.657, 74.7492, 56.1573
20, 1800.00000, 121.912, 120.992, 123.946, 0, 111.854, 126.19, 65.7019, 55.257
20, 2700.00000, 121.695, 120.757, 123.801, 0, 114.291, 129.231, 66.3154, 57.4582
21, 0.00000, 121.456, 120.322, 123.344, 0, 116.806, 137.003, 75.9798, 54.4983
21, 900.00000, 121.873, 121.088, 124.03, 0, 111.697, 121.489, 61.9608, 55.8288
21, 1800.00000, 122.154, 121.208, 124.109, 0, 104.108, 118.79, 60.243, 53.2308
21, 2700.00000, 122.204, 121.247, 124.106, 0, 102.32, 117.662, 60.2478, 51.9511
22, 0.00000, 122.486, 121.527, 124.29, 0, 99.8527, 115.414, 60.0241, 49.9144
22, 900.00000, 122.392, 121.364, 124.177, 0, 100.479, 117.9, 61.2542, 50.6846
22, 1800.00000, 122.353, 121.385, 124.155, 0, 100.525, 116.19, 60.8782, 49.8241
22, 2700.00000, 122.685, 121.805, 124.465, 0, 96.808, 109.875, 57.4313, 47.7142
23, 0.00000, 122.514, 121.644, 124.389, 0, 98.9819, 111.495, 57.4407, 49.4701
23, 900.00000, 122.896, 122.054, 124.7, 0, 94.1821, 106.31, 53.9058, 47.9259
23, 1800.00000, 122.778, 122.035, 124.662, 0, 95.4244, 104.11, 53.0808, 47.7357
23, 2700.00000, 122.872, 122.156, 124.75, 0, 95.9691, 104.164, 53.4761, 47.5702
24, 0.00000, 122.856, 122.129, 124.735, 0, 94.3658, 102.757, 52.1807, 47.3893
24, 900.00000, 123.139, 122.586, 124.932, 0, 89.627, 93.3221, 49.6748, 42.3544
