hour, t(sec), |V|1 (volts), |V|2 (volts), |V|3 (volts), |V|4 (volts), |I|1 (amps), |I|2 (amps), |I|3 (amps), |I|4 (amps)
0, 900.00000, 129.214, 128.393, 130.307, 0, 275.715, 303.843, 207.433, 86.8066
0, 1800.00000, 129.516, 128.705, 130.551, 0, 259.56, 287.883, 196.149, 82.2358
0, 2700.00000, 123.249, 122.523, 124.311, 0, 255.029, 283.03, 193.523, 80.2269
1, 0.00000, 123.029, 122.308, 124.132, 0, 266.151, 293.991, 200.821, 83.7755
1, 900.00000, 123.164, 122.461, 124.233, 0, 258.411, 285.223, 195.763, 80.4315
1, 1800.00000, 118.687, 118.091, 119.703, 0, 250.649, 274.134, 192.139, 74.1697
1, 2700.00000, 118.571, 117.981, 119.625, 0, 257.275, 279.929, 195.065, 77.1606
2, 0.00000, 118.536, 117.946, 119.584, 0, 257.44, 280.129, 196.288, 76.1808
2, 900.00000, 118.67, 118.079, 119.719, 0, 252.517, 275.099, 191.403, 76.0493
2, 1800.00000, 118.638, 118.041, 119.694, 0, 250.897, 273.693, 189.403, 76.5705
2, 2700.00000, 119.146, 118.565, 120.15, 0, 241.118, 262.99, 183.715, 71.9176
3, 0.00000, 125.15, 124.461, 126.197, 0, 244.628, 270.664, 181.756, 79.9624
3, 900.00000, 125.175, 124.478, 126.19, 0, 235.724, 262.009, 175.859, 77.2564
3, 1800.00000, 125.336, 124.655, 126.308, 0, 228.496, 254.068, 172.167, 73.3397
3, 2700.00000, 124.955, 124.254, 125.993, 0, 244.648, 270.432, 183.778, 77.9131
4, 0.00000, 125.072, 124.37, 126.083, 0, 239.35, 265.518, 180.573, 76.1765
4, 900.00000, 125.052, 124.364, 126.119, 0, 245.505, 270.601, 182.442, 79.5149
4, 1800.00000, 124.78, 124.07, 125.889, 0, 254.893, 279.679, 189.737, 81.3954
4, 2700.00000, 130.981, 130.256, 131.937, 0, 231.355, 253.847, 173.65, 72.4047
5, 0.00000, 130.858, 130.125, 131.833, 0, 233.928, 255.895, 175.316, 72.9365
5, 900.00000, 130.924, 130.189, 131.879, 0, 231.864, 254.647, 174.534, 72.2675
5, 1800.00000, 134.576, 133.852, 135.475, 0, 239.364, 258.761, 182.712, 69.4045
5, 2700.00000, 134.717, 133.992, 135.596, 0, 229.293, 248.337, 174.336, 67.4804
6, 0.00000, 135.068, 134.343, 135.886, 0, 209.88, 229.3, 160.086, 62.6817
6, 900.00000, 134.788, 134.008, 135.672, 0, 222.655, 243.217, 169.639, 66.7413
6, 1800.00000, 125.032, 124.335, 126.159, 0, 241.661, 261.759, 178.398, 76.3493
6, 2700.00000, 125.307, 124.589, 126.415, 0, 226.803, 248.725, 165.612, 75.5534
7, 0.00000, 125.19, 124.479, 126.294, 0, 223.571, 242.48, 165.432, 70.5721
7, 900.00000, 125.156, 124.453, 126.293, 0, 225.14, 241.68, 164.165, 71.7407
7, 1800.00000, 125.481, 124.839, 126.605, 0, 210.259, 222.622, 150.94, 67.3244
7, 2700.00000, 125.674, 125.045, 126.742, 0, 196.301, 207.575, 141.818, 61.8058
8, 0.00000, 125.538, 124.914, 126.607, 0, 199.018, 208.189, 144.889, 60.1758
8, 900.00000, 125.894, 125.297, 126.911, 0, 180.503, 188.311, 131.698, 53.9923
8, 1800.00000, 125.691, 125.044, 126.778, 0, 191.717, 203.506, 137.53, 61.8627
8, 2700.00000, 125.473, 124.792, 126.586, 0, 199.349, 211.744, 144.419, 63.0671
9, 0.00000, 125.175, 124.577, 126.349, 0, 212.495, 216.822, 152.481, 63.3196
9, 900.00000, 125.291, 124.66, 126.428, 0, 205.511, 213.824, 148.5, 62.6031
9, 1800.00000, 125.455, 124.879, 126.557, 0, 193.628, 197.489, 139.462, 57.1245
9, 2700.00000, 125.622, 125.095, 126.751, 0, 191.286, 191.919, 134.329, 58.1548
10, 0.00000, 125.829, 125.312, 126.855, 0, 173.859, 174.443, 125.179, 49.7628
10, 900.00000, 125.51, 125.005, 126.619, 0, 193.219, 191.933, 137.504, 55.9481
10, 1800.00000, 125.816, 125.309, 126.8, 0, 172.85, 172.329, 127.803, 45.562
10, 2700.00000, 125.626, 125.09, 126.609, 0, 175.905, 177.184, 132.323, 45.0675
11, 0.00000, 125.656, 125.092, 126.637, 0, 176.348, 179.789, 132.724, 46.2972
11, 900.00000, 125.742, 125.232, 126.765, 0, 179.488, 179.275, 130.939, 49.247
11, 1800.00000, 125.378, 124.858, 126.468, 0, 194.344, 195.468, 139.538, 56.2496
11, 2700.00000, 125.658, 125.142, 126.672, 0, 179.485, 181.015, 129.833, 51.2178
12, 0.00000, 125.684, 125.17, 126.699, 0, 185.327, 187.386, 135.341, 51.853
12, 900.00000, 125.284, 124.779, 126.353, 0, 198.645, 197.866, 145.769, 53.3712
12, 1800.00000, 125.284, 124.695, 126.383, 0, 201.378, 207.509, 145.765, 59.8583
12, 2700.00000, 125.299, 124.765, 126.399, 0, 199.756, 202.398, 144.299, 57.7341
13, 0.00000, 125.513, 124.957, 126.574, 0, 186.199, 189.208, 134.973, 53.6701
13, 900.00000, 125.292, 124.737, 126.403, 0, 197.364, 199.717, 142.403, 57.1071
13, 1800.00000, 125.175, 124.643, 126.315, 0, 206.103, 206.231, 148.427, 58.6916
13, 2700.00000, 124.595, 123.982, 125.787, 0, 228.033, 231.979, 169.321, 61.9624
14, 0.00000, 124.764, 124.138, 125.931, 0, 220.96, 226.619, 164.527, 60.6243
14, 900.00000, 124.968, 124.327, 126.081, 0, 208.457, 216.248, 156.318, 57.5448
14, 1800.00000, 125.158, 124.576, 126.254, 0, 203.16, 206.791, 151.364, 54.7209
14, 2700.00000, 125.254, 124.7, 126.332, 0, 199.328, 201.331, 147.723, 53.588
15, 0.00000, 125.075, 124.552, 126.266, 0, 209.404, 206.894, 149.666, 59.5197
15, 900.00000, 125.431, 124.896, 126.516, 0, 189.233, 188.905, 138.095, 51.879
15, 1800.00000, 125.17, 124.601, 126.318, 0, 203.486, 205.792, 146.794, 58.8736
15, 2700.00000, 125.107, 124.545, 126.256, 0, 211.954, 214.375, 154.62, 59.6044
16, 0.00000, 124.951, 124.385, 126.148, 0, 219.077, 221.321, 158.08, 63.2155
16, 900.00000, 125.072, 124.514, 126.232, 0, 211.287, 213.873, 153.214, 60.4295
16, 1800.00000, 125.184, 124.637, 126.302, 0, 202.673, 204.802, 147.153, 57.5711
16, 2700.00000, 125.335, 124.797, 126.424, 0, 196.776, 198.219, 143.567, 54.8643
17, 0.00000, 125.054, 124.487, 126.201, 0, 212.888, 216.265, 154.709, 60.9504
17, 900.00000, 125.138, 124.633, 126.208, 0, 209.722, 210.874, 154.478, 56.7248
17, 1800.00000, 125.063, 124.577, 126.139, 0, 217.267, 218.102, 158.912, 59.6431
17, 2700.00000, 124.999, 124.534, 126.101, 0, 223.535, 223.931, 161.576, 63.0114
18, 0.00000, 125.121, 124.615, 126.14, 0, 217.182, 222.115, 160.354, 60.2614
18, 900.00000, 124.406, 123.918, 125.538, 0, 254.383, 258.069, 187.603, 69.6267
18, 1800.00000, 124.098, 123.593, 125.341, 0, 279.791, 284.924, 202.998, 80.4912
18, 2700.00000, 124.092, 123.627, 125.3, 0, 276.552, 278.371, 202.351, 76.1023
19, 0.00000, 124.002, 123.502, 125.186, 0, 275.417, 280.171, 203.566, 75.3345
19, 900.00000, 124.024, 123.531, 125.229, 0, 279.661, 284.779, 205.1, 78.2246
19, 1800.00000, 117.647, 117.262, 118.898, 0, 293.288, 296.772, 215.414, 80.9465
19, 2700.00000, 117.45, 117.023, 118.678, 0, 300.474, 307.314, 226.602, 78.8921
20, 0.00000, 117.763, 117.377, 118.901, 0, 280.284, 283.727, 213.034, 70.2854
20, 900.00000, 117.431, 116.935, 118.63, 0, 295.693, 308.24, 225.921, 78.2247
20, 1800.00000, 117.706, 117.218, 118.851, 0, 284.34, 296.189, 216.835, 75.431
20, 2700.00000, 114.852, 114.398, 116.07, 0, 294.481, 305.72, 221.442, 80.5992
21, 0.00000, 114.494, 114.045, 115.813, 0, 314.677, 323.708, 234.589, 86.4756
21, 900.00000, 115.136, 114.657, 116.262, 0, 272.379, 284.777, 208.089, 72.5891
21, 1800.00000, 123.953, 123.297, 125.12, 0, 278.642, 295.03, 210.376, 78.8792
21, 2700.00000, 123.81, 123.176, 125.07, 0, 290.795, 306.13, 214.901, 85.7466
22, 0.00000, 124.138, 123.539, 125.331, 0, 274.423, 287.12, 202.855, 79.7284
22, 900.00000, 124.051, 123.443, 125.212, 0, 277.72, 290.933, 208.292, 77.9361
22, 1800.00000, 124.09, 123.471, 125.216, 0, 272.93, 287.476, 206.178, 76.115
22, 2700.00000, 127.055, 126.394, 128.104, 0, 265.822, 281.268, 204.163, 71.6502
23, 0.00000, 127.008, 126.321, 128.074, 0, 265.555, 282.109, 204.21, 72.1321
23, 900.00000, 127.058, 126.386, 128.157, 0, 272.362, 288.693, 207.147, 75.7544
23, 1800.00000, 129.125, 128.361, 130.173, 0, 270.359, 291.487, 208.161, 76.0483
23, 2700.00000, 129.236, 128.532, 130.319, 0, 267.645, 284.205, 202.181, 76.1015
24, 0.00000, 129.267, 128.538, 130.32, 0, 262.396, 281.061, 199.801, 74.6982
24, 900.00000, 129.215, 128.393, 130.308, 0, 275.709, 303.837, 207.429, 86.8047
