hour, t(sec), |V|1 (volts), |V|2 (volts), |V|3 (volts), |V|4 (volts), |I|1 (amps), |I|2 (amps), |I|3 (amps), |I|4 (amps)
0, 900.00000, 127.306, 127.031, 127.522, 0, 126.015, 126.048, 125.989, 0.487983
0, 1800.00000, 127.656, 127.387, 127.868, 0, 111.71, 111.737, 111.688, 0.421468
0, 2700.00000, 132.509, 132.209, 132.686, 0, 111.651, 111.67, 111.639, 0.393664
1, 0.00000, 132.474, 132.177, 132.654, 0, 109.534, 109.554, 109.522, 0.386649
1, 900.00000, 132.444, 132.151, 132.623, 0, 113.014, 113.035, 113.002, 0.395531
1, 1800.00000, 126.59, 126.348, 126.798, 0, 111.273, 111.301, 111.249, 0.400039
1, 2700.00000, 126.51, 126.264, 126.715, 0, 113.896, 113.925, 113.872, 0.410184
2, 0.00000, 126.577, 126.332, 126.788, 0, 108.735, 108.762, 108.711, 0.395599
2, 900.00000, 126.726, 126.48, 126.932, 0, 104.006, 104.032, 103.984, 0.375534
2, 1800.00000, 126.754, 126.504, 126.962, 0, 100.361, 100.386, 100.34, 0.366715
2, 2700.00000, 126.79, 126.547, 126.995, 0, 102.392, 102.418, 102.371, 0.366553
3, 0.00000, 126.995, 126.761, 127.194, 0, 97.0305, 97.0538, 97.0111, 0.334511
3, 900.00000, 126.982, 126.745, 127.185, 0, 94.6488, 94.6717, 94.6297, 0.332209
3, 1800.00000, 127.027, 126.794, 127.227, 0, 95.4666, 95.4892, 95.4476, 0.3285
3, 2700.00000, 126.798, 126.555, 127.008, 0, 99.9025, 99.9276, 99.8813, 0.361162
4, 0.00000, 126.845, 126.605, 127.054, 0, 99.6851, 99.71, 99.6637, 0.35727
4, 900.00000, 126.813, 126.575, 127.022, 0, 103.821, 103.847, 103.798, 0.371343
4, 1800.00000, 126.688, 126.433, 126.904, 0, 104.015, 104.043, 103.992, 0.392276
4, 2700.00000, 126.971, 126.727, 127.177, 0, 95.8508, 95.8748, 95.8309, 0.343749
5, 0.00000, 126.811, 126.559, 127.022, 0, 100.874, 100.9, 100.852, 0.3735
5, 900.00000, 126.894, 126.646, 127.102, 0, 98.1229, 98.1477, 98.1025, 0.356479
5, 1800.00000, 126.784, 126.54, 126.995, 0, 101.634, 101.66, 101.612, 0.369832
5, 2700.00000, 126.825, 126.579, 127.035, 0, 100.762, 100.788, 100.74, 0.367065
6, 0.00000, 127.217, 126.971, 127.417, 0, 85.4229, 85.4431, 85.4067, 0.301657
6, 900.00000, 126.976, 126.71, 127.192, 0, 93.0396, 93.0638, 93.0202, 0.355739
6, 1800.00000, 126.785, 126.507, 127.009, 0, 103.152, 103.182, 103.128, 0.414777
6, 2700.00000, 127.074, 126.797, 127.297, 0, 92.1554, 92.1814, 92.1349, 0.367446
7, 0.00000, 126.701, 126.406, 126.938, 0, 106.898, 106.932, 106.872, 0.456036
7, 900.00000, 126.777, 126.467, 127.009, 0, 101.359, 101.391, 101.336, 0.437671
7, 1800.00000, 126.967, 126.668, 127.197, 0, 97.8231, 97.8539, 97.7999, 0.414309
7, 2700.00000, 127.07, 126.772, 127.3, 0, 93.3248, 93.3533, 93.3031, 0.393445
8, 0.00000, 126.86, 126.55, 127.092, 0, 100.316, 100.348, 100.293, 0.43478
8, 900.00000, 127.14, 126.837, 127.373, 0, 91.0832, 91.112, 91.0615, 0.390452
8, 1800.00000, 127.187, 126.882, 127.425, 0, 85.7545, 85.7812, 85.734, 0.371569
8, 2700.00000, 126.335, 126.022, 126.586, 0, 88.0359, 88.0649, 88.0134, 0.398962
9, 0.00000, 126.086, 125.767, 126.339, 0, 94.5771, 94.6104, 94.551, 0.438108
9, 900.00000, 126.238, 125.925, 126.49, 0, 88.3009, 88.3307, 88.2774, 0.402338
9, 1800.00000, 126.835, 126.517, 127.082, 0, 95.7289, 95.7613, 95.7043, 0.434215
9, 2700.00000, 127.018, 126.707, 127.257, 0, 91.1859, 91.217, 91.1624, 0.404472
10, 0.00000, 127.049, 126.744, 127.289, 0, 89.6776, 89.7077, 89.6546, 0.393122
10, 900.00000, 126.8, 126.489, 127.042, 0, 98.9448, 98.9786, 98.9191, 0.440508
10, 1800.00000, 126.931, 126.626, 127.174, 0, 94.6589, 94.6899, 94.6348, 0.416011
10, 2700.00000, 128.609, 128.279, 128.854, 0, 99.7366, 99.7681, 99.7137, 0.450043
11, 0.00000, 126.782, 126.468, 127.032, 0, 98.3911, 98.4238, 98.3657, 0.445208
11, 900.00000, 126.874, 126.57, 127.115, 0, 98.1445, 98.1769, 98.1194, 0.429973
11, 1800.00000, 124.83, 124.541, 125.083, 0, 96.7378, 96.7728, 96.708, 0.433594
11, 2700.00000, 124.993, 124.71, 125.238, 0, 92.2435, 92.2753, 92.2167, 0.401178
12, 0.00000, 125.031, 124.754, 125.271, 0, 94.1623, 94.1939, 94.1355, 0.400825
12, 900.00000, 124.439, 124.15, 124.698, 0, 116.313, 116.355, 116.275, 0.528119
12, 1800.00000, 124.884, 124.591, 125.138, 0, 93.691, 93.7235, 93.6634, 0.420599
12, 2700.00000, 124.333, 124.052, 124.594, 0, 110.325, 110.365, 110.289, 0.496919
13, 0.00000, 124.696, 124.404, 124.955, 0, 93.3106, 93.3437, 93.2815, 0.424087
13, 900.00000, 124.441, 124.145, 124.705, 0, 103.43, 103.468, 103.396, 0.479519
13, 1800.00000, 123.9, 123.608, 124.164, 0, 105.174, 105.214, 105.138, 0.488362
13, 2700.00000, 123.271, 122.965, 123.565, 0, 126.676, 126.729, 126.627, 0.637619
14, 0.00000, 123.662, 123.356, 123.95, 0, 109.223, 109.266, 109.182, 0.542373
14, 900.00000, 123.913, 123.611, 124.198, 0, 98.1736, 98.2115, 98.1385, 0.480444
14, 1800.00000, 123.841, 123.548, 124.121, 0, 107.05, 107.091, 107.011, 0.512405
14, 2700.00000, 119.484, 119.251, 119.751, 0, 97.2763, 97.0734, 97.5082, 0.0243051
15, 0.00000, 126.595, 126.264, 126.856, 0, 99.6865, 99.7237, 99.6578, 0.477877
15, 900.00000, 126.905, 126.584, 127.165, 0, 87.9725, 88.0032, 87.9482, 0.410795
15, 1800.00000, 126.752, 126.428, 127.014, 0, 92.539, 92.5717, 92.5131, 0.436372
15, 2700.00000, 126.673, 126.355, 126.931, 0, 98.016, 98.0502, 97.9888, 0.454836
16, 0.00000, 126.58, 126.259, 126.845, 0, 100.338, 100.374, 100.31, 0.47398
16, 900.00000, 126.583, 126.27, 126.849, 0, 101.59, 101.626, 101.56, 0.47588
16, 1800.00000, 126.575, 126.266, 126.837, 0, 102.578, 102.614, 102.548, 0.472835
16, 2700.00000, 126.651, 126.341, 126.908, 0, 101.693, 101.728, 101.665, 0.463864
17, 0.00000, 126.436, 126.123, 126.695, 0, 109.789, 109.827, 109.758, 0.506786
17, 900.00000, 126.415, 126.124, 126.66, 0, 111.74, 111.776, 111.71, 0.4827
17, 1800.00000, 128.029, 127.726, 128.251, 0, 113.127, 113.16, 113.103, 0.467519
17, 2700.00000, 128.041, 127.746, 128.257, 0, 112.463, 112.494, 112.437, 0.453624
18, 0.00000, 128.256, 127.968, 128.465, 0, 102.171, 102.198, 102.153, 0.397392
18, 900.00000, 127.427, 127.14, 127.648, 0, 135.826, 135.865, 135.796, 0.545261
18, 1800.00000, 127.361, 127.074, 127.578, 0, 138.845, 138.886, 138.815, 0.55428
18, 2700.00000, 131.34, 131.015, 131.529, 0, 155.07, 155.107, 155.048, 0.600911
19, 0.00000, 131.015, 130.689, 131.211, 0, 169.539, 169.581, 169.514, 0.667142
19, 900.00000, 131.148, 130.827, 131.336, 0, 164.59, 164.631, 164.567, 0.633001
19, 1800.00000, 130.489, 130.175, 130.683, 0, 174.26, 174.305, 174.233, 0.673784
19, 2700.00000, 130.182, 129.865, 130.395, 0, 186.75, 186.801, 186.716, 0.755047
20, 0.00000, 130.586, 130.269, 130.788, 0, 166.952, 166.994, 166.925, 0.658618
20, 900.00000, 124.797, 124.524, 125.057, 0, 175.983, 176.043, 175.926, 0.766503
20, 1800.00000, 125.234, 124.963, 125.474, 0, 157.51, 157.561, 157.466, 0.654696
20, 2700.00000, 124.742, 124.473, 124.991, 0, 169.62, 169.677, 169.567, 0.720386
21, 0.00000, 124.759, 124.465, 125.009, 0, 162.377, 162.436, 162.327, 0.723523
21, 900.00000, 125.198, 124.92, 125.445, 0, 146.466, 146.515, 146.425, 0.626028
21, 1800.00000, 121.366, 121.126, 121.619, 0, 147.557, 147.609, 147.503, 0.622724
21, 2700.00000, 121.246, 121.011, 121.499, 0, 154.417, 154.472, 154.358, 0.650196
22, 0.00000, 121.5, 121.265, 121.743, 0, 145.592, 145.643, 145.54, 0.598305
22, 900.00000, 121.365, 121.129, 121.607, 0, 150.499, 150.553, 150.445, 0.618772
22, 1800.00000, 121.522, 121.287, 121.762, 0, 141.346, 141.395, 141.297, 0.576577
22, 2700.00000, 123.128, 122.878, 123.369, 0, 136.816, 136.861, 136.773, 0.562983
23, 0.00000, 122.824, 122.571, 123.078, 0, 152.071, 152.123, 152.018, 0.648569
23, 900.00000, 123.126, 122.877, 123.369, 0, 140.71, 140.758, 140.665, 0.580243
23, 1800.00000, 127.026, 126.736, 127.253, 0, 134.465, 134.504, 134.435, 0.550966
23, 2700.00000, 127.077, 126.794, 127.302, 0, 135.041, 135.081, 135.01, 0.545699
24, 0.00000, 127.091, 126.805, 127.318, 0, 133.363, 133.403, 133.333, 0.543261
24, 900.00000, 127.306, 127.031, 127.522, 0, 126.013, 126.047, 125.988, 0.487732
