hour, t(sec), |V|1 (volts), |V|2 (volts), |V|3 (volts), |V|4 (volts), |I|1 (amps), |I|2 (amps), |I|3 (amps), |I|4 (amps)
0, 900.00000, 126.709, 126.847, 127.409, 0, 91.9042, 78.7697, 76.3745, 14.4317
0, 1800.00000, 126.986, 127.101, 127.648, 0, 86.0809, 73.8448, 71.6068, 13.4486
0, 2700.00000, 131.99, 132.05, 132.591, 0, 81.3893, 69.7614, 67.5773, 12.7995
1, 0.00000, 131.721, 131.81, 132.317, 0, 87.6971, 75.2659, 74.192, 12.9139
1, 900.00000, 131.83, 131.907, 132.405, 0, 85.1538, 73.2548, 72.2823, 12.3286
1, 1800.00000, 125.954, 126.076, 126.561, 0, 84.7199, 73.1347, 71.8686, 12.2119
1, 2700.00000, 125.83, 125.968, 126.466, 0, 87.5581, 75.3992, 73.7631, 13.0021
2, 0.00000, 125.783, 125.918, 126.405, 0, 88.2916, 76.21, 75.1114, 12.6042
2, 900.00000, 125.926, 126.05, 126.529, 0, 85.7901, 74.0141, 73.056, 12.2184
2, 1800.00000, 125.855, 125.973, 126.466, 0, 86.8637, 75.1423, 73.9342, 12.3081
2, 2700.00000, 126.026, 126.126, 126.603, 0, 83.7027, 72.7625, 71.7233, 11.4347
3, 0.00000, 126.384, 126.511, 126.945, 0, 75.7384, 64.2235, 64.0699, 11.5245
3, 900.00000, 126.33, 126.434, 126.888, 0, 75.6726, 64.7704, 64.2409, 11.1144
3, 1800.00000, 126.432, 126.522, 126.977, 0, 74.3098, 63.9722, 63.1466, 10.7204
3, 2700.00000, 126.092, 126.198, 126.669, 0, 80.4141, 69.2954, 68.6215, 11.4061
4, 0.00000, 126.228, 126.332, 126.8, 0, 77.4523, 66.4723, 65.7448, 11.3014
4, 900.00000, 126.366, 126.486, 126.922, 0, 74.4065, 62.9482, 63.17, 11.2738
4, 1800.00000, 125.991, 126.099, 126.583, 0, 82.5094, 70.9411, 70.4501, 11.7477
4, 2700.00000, 126.284, 126.368, 126.836, 0, 77.539, 67.0718, 66.3623, 10.7773
5, 0.00000, 126.086, 126.168, 126.646, 0, 81.5239, 70.917, 70.3336, 10.8397
5, 900.00000, 126.156, 126.236, 126.726, 0, 80.3853, 69.9401, 68.76, 11.027
5, 1800.00000, 126.029, 126.119, 126.583, 0, 82.9993, 72.3637, 71.9819, 10.7577
5, 2700.00000, 126.094, 126.167, 126.65, 0, 81.714, 71.5318, 70.5415, 10.6516
6, 0.00000, 126.382, 126.426, 126.926, 0, 76.2693, 67.0068, 65.175, 10.263
6, 900.00000, 126.183, 126.229, 126.77, 0, 79.288, 69.347, 67.3442, 11.0378
6, 1800.00000, 126.121, 126.2, 126.703, 0, 80.9457, 69.5811, 69.4376, 11.3485
6, 2700.00000, 126.432, 126.494, 127, 0, 73.92, 63.0988, 62.7957, 10.8986
7, 0.00000, 126.179, 126.198, 126.757, 0, 78.504, 68.5103, 67.5177, 10.4544
7, 900.00000, 126.112, 126.121, 126.73, 0, 79.9955, 69.8872, 67.6093, 11.3721
7, 1800.00000, 126.393, 126.393, 126.937, 0, 74.9803, 65.4758, 64.8718, 9.74147
7, 2700.00000, 126.446, 126.417, 126.984, 0, 74.032, 65.458, 64.0758, 9.28523
8, 0.00000, 126.12, 126.077, 126.69, 0, 81.7433, 73.2188, 70.8748, 9.86522
8, 900.00000, 126.461, 126.396, 126.96, 0, 74.509, 66.9162, 65.9184, 8.0708
8, 1800.00000, 126.437, 126.395, 126.957, 0, 73.7145, 65.3321, 64.6276, 8.68034
8, 2700.00000, 125.472, 125.437, 126.05, 0, 78.6345, 69.7677, 68.1025, 9.75079
9, 0.00000, 124.92, 124.894, 125.488, 0, 92.0566, 82.772, 81.9691, 9.61399
9, 900.00000, 125.113, 125.077, 125.675, 0, 87.1156, 78.3603, 77.1936, 9.31672
9, 1800.00000, 125.9, 125.816, 126.42, 0, 85.4116, 77.9687, 76.619, 8.13348
9, 2700.00000, 126.127, 126.058, 126.597, 0, 81.4069, 73.7214, 73.9919, 7.43448
10, 0.00000, 126.104, 126.004, 126.551, 0, 82.2377, 75.719, 75.5208, 6.51898
10, 900.00000, 125.873, 125.796, 126.363, 0, 87.0398, 79.5938, 79.0125, 7.6579
10, 1800.00000, 125.933, 125.828, 126.416, 0, 86.8119, 80.4127, 79.0137, 7.14311
10, 2700.00000, 127.622, 127.482, 128.096, 0, 89.4541, 83.3908, 81.9909, 6.80457
11, 0.00000, 125.814, 125.697, 126.332, 0, 87.9557, 81.687, 79.3099, 7.7125
11, 900.00000, 125.854, 125.763, 126.343, 0, 89.4331, 82.6588, 81.428, 7.39777
11, 1800.00000, 123.783, 123.717, 124.285, 0, 89.4813, 82.4604, 81.4979, 7.47826
11, 2700.00000, 123.968, 123.901, 124.473, 0, 86.1828, 79.3559, 77.841, 7.65035
12, 0.00000, 124.041, 123.994, 124.551, 0, 86.1374, 78.8657, 77.5097, 7.98303
12, 900.00000, 123.624, 123.576, 124.166, 0, 93.2665, 85.6526, 84.1832, 8.38925
12, 1800.00000, 123.73, 123.695, 124.301, 0, 91.0884, 82.9479, 80.9477, 9.26076
12, 2700.00000, 123.602, 123.566, 124.128, 0, 87.1729, 79.4525, 78.6444, 8.0834
13, 0.00000, 123.627, 123.552, 124.163, 0, 88.1689, 81.3046, 79.2825, 8.03718
13, 900.00000, 123.469, 123.409, 124.022, 0, 90.8556, 83.4148, 81.6142, 8.44257
13, 1800.00000, 122.803, 122.768, 123.358, 0, 95.7952, 87.7369, 86.5064, 8.67163
13, 2700.00000, 122.286, 122.262, 122.932, 0, 104.567, 95.6944, 93.3019, 10.2471
14, 0.00000, 122.451, 122.404, 123.071, 0, 101.732, 93.5988, 91.1732, 9.55297
14, 900.00000, 122.677, 122.61, 123.262, 0, 96.2427, 88.8608, 86.6756, 8.65717
14, 1800.00000, 122.798, 122.748, 123.359, 0, 95.1635, 87.5146, 86.1445, 8.36096
14, 2700.00000, 118.309, 118.313, 118.831, 0, 93.7903, 86.1783, 85.7465, 7.87793
15, 0.00000, 125.349, 125.265, 125.856, 0, 97.6974, 89.8902, 89.7905, 7.72328
15, 900.00000, 125.587, 125.485, 126.077, 0, 93.29, 86.3355, 85.8524, 7.1016
15, 1800.00000, 125.441, 125.37, 125.96, 0, 95.6285, 87.6196, 87.3562, 8.0228
15, 2700.00000, 125.394, 125.342, 125.928, 0, 97.7315, 89.2938, 88.8636, 8.54613
16, 0.00000, 125.287, 125.241, 125.825, 0, 99.5043, 90.7915, 90.6996, 8.62795
16, 900.00000, 125.427, 125.384, 125.937, 0, 95.8146, 87.2739, 87.9483, 8.07082
16, 1800.00000, 125.435, 125.378, 125.955, 0, 95.8446, 87.8231, 87.4939, 8.07941
16, 2700.00000, 125.598, 125.527, 126.121, 0, 92.6219, 85.0467, 84.043, 8.04149
17, 0.00000, 125.371, 125.331, 125.923, 0, 97.5487, 88.885, 88.1167, 8.97297
17, 900.00000, 125.276, 125.24, 125.82, 0, 101.053, 92.9428, 91.4344, 8.89244
17, 1800.00000, 126.94, 126.914, 127.498, 0, 100.421, 91.6297, 89.6381, 9.87323
17, 2700.00000, 126.951, 126.933, 127.479, 0, 100.108, 91.3475, 90.083, 9.3711
18, 0.00000, 127.024, 127.007, 127.585, 0, 98.8255, 90.2226, 87.5334, 10.1755
18, 900.00000, 126.431, 126.456, 127.041, 0, 110.523, 100.67, 98.0589, 11.3341
18, 1800.00000, 126.217, 126.298, 126.844, 0, 116.905, 105.312, 103.811, 12.3179
18, 2700.00000, 130.445, 130.464, 131.025, 0, 118.471, 107.557, 105.844, 11.7486
19, 0.00000, 130.443, 130.455, 131.064, 0, 116.351, 105.625, 102.62, 12.4285
19, 900.00000, 130.596, 130.617, 131.189, 0, 112.947, 102.091, 99.8811, 12.0205
19, 1800.00000, 129.986, 130.062, 130.602, 0, 116.889, 104.488, 103.284, 12.9218
19, 2700.00000, 129.806, 129.88, 130.433, 0, 119.974, 107.542, 106.627, 12.7823
20, 0.00000, 129.817, 129.846, 130.424, 0, 121.248, 110.282, 108.202, 12.0407
20, 900.00000, 124.164, 124.258, 124.83, 0, 121.811, 110.32, 108.835, 12.2222
20, 1800.00000, 124.373, 124.481, 125.074, 0, 118.439, 106.566, 103.811, 13.4184
20, 2700.00000, 124.089, 124.243, 124.781, 0, 118.786, 105.499, 104.68, 13.6149
21, 0.00000, 123.642, 123.78, 124.357, 0, 129.393, 115.959, 114.701, 13.997
21, 900.00000, 124.189, 124.288, 124.885, 0, 116.762, 104.93, 102.507, 13.1561
21, 1800.00000, 120.491, 120.62, 121.213, 0, 113.01, 101.479, 98.1435, 13.5054
21, 2700.00000, 120.647, 120.815, 121.339, 0, 108.218, 95.6859, 94.3626, 13.1863
22, 0.00000, 120.777, 120.914, 121.45, 0, 107.047, 95.4524, 93.481, 12.655
22, 900.00000, 120.627, 120.765, 121.336, 0, 110.386, 98.7086, 95.598, 13.4874
22, 1800.00000, 120.598, 120.725, 121.294, 0, 110.97, 99.6879, 96.5677, 13.1064
22, 2700.00000, 122.217, 122.318, 122.908, 0, 108.036, 97.0496, 93.7697, 12.9291
23, 0.00000, 122.323, 122.426, 123.015, 0, 103.789, 92.6305, 89.8355, 12.7642
23, 900.00000, 122.408, 122.542, 123.085, 0, 104.101, 92.131, 90.3399, 12.9077
23, 1800.00000, 126.178, 126.255, 126.869, 0, 104.8, 93.1667, 89.9659, 13.4812
23, 2700.00000, 126.354, 126.44, 126.991, 0, 101.182, 89.4542, 87.9469, 12.4712
24, 0.00000, 126.412, 126.481, 127.057, 0, 98.7986, 87.5472, 85.4028, 12.4037
24, 900.00000, 126.71, 126.847, 127.409, 0, 91.9033, 78.7688, 76.3739, 14.4316
