hour, t(sec), |V|1 (volts), |V|2 (volts), |V|3 (volts), |V|4 (volts), |I|1 (amps), |I|2 (amps), |I|3 (amps), |I|4 (amps)
0, 900.00000, 125.04, 125.053, 125.92, 0, 257.058, 222.326, 205.326, 45.7234
0, 1800.00000, 125.272, 125.315, 126.128, 0, 246.396, 209.779, 196.248, 44.9126
0, 2700.00000, 125.53, 125.601, 126.366, 0, 241.018, 202.967, 191.977, 44.4948
1, 0.00000, 125.367, 125.46, 126.24, 0, 247.826, 208.198, 195.646, 47.125
1, 900.00000, 125.499, 125.601, 126.348, 0, 239.792, 199.798, 189.495, 45.928
1, 1800.00000, 125.491, 125.596, 126.326, 0, 236.794, 197.036, 187.227, 45.3656
1, 2700.00000, 125.492, 125.569, 126.297, 0, 233.539, 195.793, 186.191, 43.2482
2, 0.00000, 125.385, 125.47, 126.233, 0, 240.005, 201.443, 189.491, 45.6717
2, 900.00000, 125.535, 125.628, 126.362, 0, 233.661, 194.38, 184.751, 44.7735
2, 1800.00000, 125.502, 125.573, 126.324, 0, 232.31, 194.407, 183.957, 43.981
2, 2700.00000, 125.616, 125.697, 126.425, 0, 225.763, 187.85, 178.253, 43.4188
3, 0.00000, 125.827, 125.927, 126.615, 0, 218.232, 179.957, 172.08, 42.6457
3, 900.00000, 125.741, 125.814, 126.536, 0, 219.306, 182.793, 172.822, 42.3158
3, 1800.00000, 125.92, 126.023, 126.686, 0, 210.233, 171.564, 165.894, 41.6392
3, 2700.00000, 125.546, 125.639, 126.375, 0, 227.297, 188.337, 178.613, 44.5351
4, 0.00000, 125.626, 125.709, 126.447, 0, 224.66, 186.848, 176.504, 43.8372
4, 900.00000, 125.712, 125.784, 126.526, 0, 221.65, 184.905, 174.261, 43.0074
4, 1800.00000, 125.461, 125.539, 126.312, 0, 230.906, 191.797, 181.441, 45.1016
4, 2700.00000, 125.69, 125.737, 126.492, 0, 219.415, 184.251, 172.865, 41.9867
5, 0.00000, 125.605, 125.645, 126.412, 0, 219.399, 183.945, 173.022, 41.9375
5, 900.00000, 125.672, 125.731, 126.467, 0, 216.897, 180.214, 171.257, 41.7861
5, 1800.00000, 125.33, 125.403, 126.175, 0, 230.599, 193.284, 180.896, 44.7824
5, 2700.00000, 125.467, 125.478, 126.273, 0, 221.144, 188.733, 174.496, 41.4299
6, 0.00000, 125.751, 125.724, 126.509, 0, 208.568, 179.663, 165.32, 38.1899
6, 900.00000, 125.48, 125.435, 126.29, 0, 220.554, 190.692, 174.932, 40.1932
6, 1800.00000, 125.465, 125.397, 126.299, 0, 221.585, 192.197, 175.292, 40.6647
6, 2700.00000, 125.609, 125.507, 126.403, 0, 208.791, 182.442, 166.123, 37.39
7, 0.00000, 125.411, 125.267, 126.238, 0, 214.36, 189.353, 170.615, 38.1809
7, 900.00000, 125.332, 125.116, 126.122, 0, 219.941, 199.769, 179.154, 35.57
7, 1800.00000, 125.788, 125.563, 126.524, 0, 197.65, 179.173, 161.352, 31.6368
7, 2700.00000, 125.865, 125.612, 126.575, 0, 193.319, 177.308, 159.197, 29.8027
8, 0.00000, 125.711, 125.426, 126.416, 0, 198.573, 183.884, 165.119, 29.3129
8, 900.00000, 125.973, 125.715, 126.663, 0, 187.362, 171.249, 155.513, 27.7692
8, 1800.00000, 125.847, 125.617, 126.565, 0, 192.43, 173.63, 158.77, 29.3577
8, 2700.00000, 125.569, 125.303, 126.311, 0, 205.871, 188.083, 171.259, 30.1883
9, 0.00000, 125.35, 125.072, 126.1, 0, 213.673, 196.209, 178.314, 30.8632
9, 900.00000, 125.436, 125.213, 126.183, 0, 208.817, 187.464, 173.786, 30.6668
9, 1800.00000, 125.454, 125.178, 126.196, 0, 206.189, 189.725, 171.521, 30.2968
9, 2700.00000, 125.731, 125.465, 126.423, 0, 193.513, 177.18, 162.453, 27.0841
10, 0.00000, 125.739, 125.463, 126.439, 0, 192.875, 178.17, 160.914, 27.96
10, 900.00000, 125.524, 125.239, 126.229, 0, 203.88, 189.139, 171.613, 28.2466
10, 1800.00000, 125.631, 125.349, 126.335, 0, 200.246, 185.686, 167.951, 28.2833
10, 2700.00000, 125.458, 125.222, 126.217, 0, 209.859, 190.608, 174.139, 31.1595
11, 0.00000, 125.494, 125.255, 126.228, 0, 209.658, 190.439, 175.768, 29.583
11, 900.00000, 125.739, 125.457, 126.439, 0, 198.304, 183.955, 166.191, 28.1336
11, 1800.00000, 125.449, 125.235, 126.187, 0, 216.352, 196.278, 181.2, 30.6886
11, 2700.00000, 125.608, 125.313, 126.306, 0, 210.824, 198.419, 178.044, 29.0229
12, 0.00000, 125.739, 125.503, 126.433, 0, 207.352, 190.396, 174.519, 28.6275
12, 900.00000, 125.342, 125.064, 126.087, 0, 222.238, 207.089, 186.647, 31.2751
12, 1800.00000, 125.381, 125.115, 126.135, 0, 221.448, 205.072, 184.9, 32.0163
12, 2700.00000, 125.447, 125.183, 126.205, 0, 221.977, 206.423, 185.44, 32.1041
13, 0.00000, 125.62, 125.332, 126.352, 0, 212.299, 197.463, 178.09, 30.0263
13, 900.00000, 125.467, 125.183, 126.22, 0, 218.36, 202.633, 182.893, 31.0992
13, 1800.00000, 125.38, 125.097, 126.143, 0, 223.338, 207.449, 186.708, 32.1523
13, 2700.00000, 124.793, 124.54, 125.652, 0, 248.668, 227.421, 206.735, 36.6239
14, 0.00000, 124.939, 124.763, 125.8, 0, 243.166, 215.788, 200.967, 37.1512
14, 900.00000, 125.018, 124.868, 125.889, 0, 240.751, 211.827, 197.505, 38.2032
14, 1800.00000, 125.249, 125.043, 126.07, 0, 230.904, 207.802, 190.971, 34.894
14, 2700.00000, 125.3, 125.061, 126.105, 0, 231.005, 211.409, 191.333, 34.6399
15, 0.00000, 125.282, 125.021, 126.083, 0, 228.245, 208.94, 189.881, 33.4915
15, 900.00000, 125.475, 125.214, 126.27, 0, 221.024, 202.735, 182.755, 33.4476
15, 1800.00000, 125.252, 124.993, 126.076, 0, 228.278, 209.606, 187.693, 35.5206
15, 2700.00000, 125.206, 124.983, 126.045, 0, 235.022, 213.893, 192.748, 36.8992
16, 0.00000, 125.121, 124.898, 125.975, 0, 236.401, 214.813, 193.459, 37.4841
16, 900.00000, 125.183, 124.95, 126.031, 0, 233.167, 213.278, 190.622, 37.2145
16, 1800.00000, 125.302, 125.034, 126.105, 0, 223.7, 207.187, 184.279, 34.6675
16, 2700.00000, 125.354, 125.064, 126.143, 0, 224.26, 209.676, 185.787, 34.0642
17, 0.00000, 125.229, 124.961, 126.033, 0, 227.769, 211.008, 188.178, 34.7958
17, 900.00000, 125.239, 124.964, 126.028, 0, 229.595, 215.966, 189.081, 36.1633
17, 1800.00000, 125.353, 125.069, 126.088, 0, 230.213, 218.223, 192.583, 33.7357
17, 2700.00000, 125.332, 125.095, 126.079, 0, 232.156, 217.288, 192.758, 34.8319
18, 0.00000, 125.258, 125.008, 126.018, 0, 241.488, 228.481, 199.942, 37.2533
18, 900.00000, 124.642, 124.427, 125.495, 0, 271.351, 255.564, 222.66, 43.5453
18, 1800.00000, 124.591, 124.414, 125.457, 0, 275.113, 256.15, 224.825, 44.4436
18, 2700.00000, 124.655, 124.421, 125.537, 0, 276.923, 262.896, 225.112, 46.9984
19, 0.00000, 124.567, 124.328, 125.445, 0, 276.066, 262.14, 225.102, 46.2133
19, 900.00000, 124.616, 124.449, 125.496, 0, 277.085, 258.003, 225.354, 45.7827
19, 1800.00000, 124.495, 124.31, 125.395, 0, 281.561, 264.026, 228.176, 47.6652
19, 2700.00000, 124.226, 124.159, 125.226, 0, 295.103, 267.113, 235.25, 52.305
20, 0.00000, 124.358, 124.268, 125.311, 0, 290.217, 264.183, 233.161, 49.8834
20, 900.00000, 124.204, 124.279, 125.259, 0, 290.896, 250.293, 227.784, 55.5878
20, 1800.00000, 124.35, 124.304, 125.318, 0, 290.187, 260.129, 232.186, 50.5703
20, 2700.00000, 124.187, 124.175, 125.174, 0, 289.678, 256.654, 231.014, 51.2149
21, 0.00000, 123.847, 123.892, 124.9, 0, 308.579, 268.581, 245.25, 55.6587
21, 900.00000, 124.291, 124.245, 125.276, 0, 283.939, 252.67, 225.519, 50.9453
21, 1800.00000, 124.493, 124.442, 125.42, 0, 276.982, 245.765, 223.11, 47.056
21, 2700.00000, 124.563, 124.537, 125.498, 0, 271.147, 238.529, 216.821, 47.5468
22, 0.00000, 124.818, 124.757, 125.702, 0, 259.887, 230.524, 208.657, 44.7164
22, 900.00000, 124.653, 124.59, 125.541, 0, 270.078, 240.585, 218.181, 45.2796
22, 1800.00000, 124.591, 124.547, 125.505, 0, 273.889, 243.011, 219.653, 47.3278
22, 2700.00000, 124.774, 124.768, 125.696, 0, 269.973, 235.845, 215.18, 48.0608
23, 0.00000, 124.788, 124.775, 125.704, 0, 264.892, 230.535, 211.948, 46.6201
23, 900.00000, 124.973, 124.992, 125.873, 0, 259.46, 223.329, 206.846, 46.6487
23, 1800.00000, 124.831, 124.882, 125.746, 0, 263.387, 223.71, 209.974, 47.9942
23, 2700.00000, 125.043, 125.05, 125.926, 0, 251.865, 216.515, 200.746, 45.3658
24, 0.00000, 124.986, 125.01, 125.878, 0, 254.223, 217.205, 202.724, 45.9908
24, 900.00000, 125.04, 125.052, 125.92, 0, 257.063, 222.331, 205.329, 45.725
