hour, t(sec), |V|1 (volts), |V|2 (volts), |V|3 (volts), |V|4 (volts), |I|1 (amps), |I|2 (amps), |I|3 (amps), |I|4 (amps)
0, 900.00000, 126.256, 127.064, 126.875, 0, 308.041, 213.649, 270.707, 81.258
0, 1800.00000, 126.439, 127.228, 127.048, 0, 299.494, 207.184, 262.684, 79.459
0, 2700.00000, 131.547, 132.198, 132.109, 0, 278.526, 194.091, 242.327, 72.4465
1, 0.00000, 131.342, 132.051, 131.906, 0, 290.807, 201.678, 254.632, 76.6608
1, 900.00000, 131.417, 132.122, 131.968, 0, 286.642, 198.203, 251.608, 76.1778
1, 1800.00000, 125.594, 126.324, 126.192, 0, 279.119, 194.323, 243.066, 72.8316
1, 2700.00000, 125.507, 126.275, 126.1, 0, 284.031, 195.733, 248.177, 75.9992
2, 0.00000, 125.429, 126.209, 126.054, 0, 288.748, 199.419, 250.652, 76.7106
2, 900.00000, 125.594, 126.338, 126.194, 0, 279.642, 193.338, 243.307, 74.1577
2, 1800.00000, 125.437, 126.231, 126.038, 0, 289.964, 199.021, 253.764, 78.3421
2, 2700.00000, 125.649, 126.391, 126.233, 0, 277.487, 191.474, 242.411, 74.0244
3, 0.00000, 125.947, 126.662, 126.507, 0, 260.079, 177.096, 226.646, 71.5076
3, 900.00000, 125.703, 126.484, 126.269, 0, 276.204, 187.4, 242.695, 76.7806
3, 1800.00000, 125.954, 126.669, 126.499, 0, 259.364, 176.453, 227.218, 71.5924
3, 2700.00000, 125.565, 126.34, 126.158, 0, 281.235, 192.444, 245.827, 76.5021
4, 0.00000, 125.664, 126.421, 126.247, 0, 276.021, 188.887, 241.304, 75.087
4, 900.00000, 125.832, 126.562, 126.414, 0, 264.952, 180.153, 230.284, 72.9975
4, 1800.00000, 125.549, 126.308, 126.17, 0, 279.873, 191.479, 242.692, 75.9401
4, 2700.00000, 125.839, 126.545, 126.435, 0, 265.873, 182.811, 229.861, 71.3086
5, 0.00000, 125.64, 126.396, 126.227, 0, 277.291, 189.338, 242.587, 75.8085
5, 900.00000, 125.756, 126.489, 126.345, 0, 269.978, 184.298, 234.814, 73.7191
5, 1800.00000, 125.651, 126.376, 126.28, 0, 275.801, 191.159, 237.329, 72.5432
5, 2700.00000, 125.639, 126.387, 126.24, 0, 278.552, 191.74, 242.39, 74.6277
6, 0.00000, 125.862, 126.57, 126.437, 0, 268.317, 184.92, 233.688, 71.7193
6, 900.00000, 125.62, 126.351, 126.231, 0, 280.825, 193.827, 244.375, 74.7209
6, 1800.00000, 125.701, 126.406, 126.315, 0, 273.392, 187.584, 237.429, 73.6768
6, 2700.00000, 125.908, 126.602, 126.49, 0, 262.11, 177.16, 228.884, 73.214
7, 0.00000, 125.662, 126.363, 126.275, 0, 274.658, 187.686, 239.907, 74.8004
7, 900.00000, 125.599, 126.273, 126.242, 0, 278.58, 193.006, 240.937, 73.2596
7, 1800.00000, 125.958, 126.619, 126.577, 0, 257.335, 173.497, 221.608, 71.9247
7, 2700.00000, 126.007, 126.645, 126.622, 0, 254.878, 173.044, 219.448, 70.1579
8, 0.00000, 125.834, 126.476, 126.463, 0, 263.364, 180.212, 226.901, 71.2168
8, 900.00000, 126.119, 126.721, 126.735, 0, 247.62, 168.398, 212.415, 67.8534
8, 1800.00000, 126.034, 126.668, 126.65, 0, 250.641, 168.563, 215.854, 70.4189
8, 2700.00000, 125.074, 125.73, 125.725, 0, 264.13, 179.594, 227.338, 72.4012
9, 0.00000, 124.834, 125.511, 125.533, 0, 275.421, 188.757, 234.719, 74.0533
9, 900.00000, 124.967, 125.629, 125.645, 0, 266.481, 181.589, 227.519, 72.5951
9, 1800.00000, 125.73, 126.357, 126.424, 0, 263.94, 181.463, 223.11, 70.4676
9, 2700.00000, 125.996, 126.597, 126.667, 0, 249.232, 169.505, 209.756, 68.1603
10, 0.00000, 125.938, 126.557, 126.603, 0, 254.298, 173.548, 215.356, 69.0411
10, 900.00000, 125.818, 126.432, 126.529, 0, 258.693, 177.912, 215.872, 69.1102
10, 1800.00000, 125.951, 126.516, 126.638, 0, 251.35, 175.096, 210.603, 65.2473
10, 2700.00000, 127.548, 128.141, 128.242, 0, 267.416, 186.276, 225.981, 69.3124
11, 0.00000, 125.744, 126.331, 126.436, 0, 262.306, 183.569, 221.852, 67.2765
11, 900.00000, 126.009, 126.575, 126.68, 0, 246.747, 170.488, 207.264, 65.2165
11, 1800.00000, 123.66, 124.331, 124.4, 0, 271.22, 188.03, 227.207, 71.1716
11, 2700.00000, 123.736, 124.411, 124.438, 0, 270.871, 187.858, 229.431, 70.9687
12, 0.00000, 124.057, 124.655, 124.748, 0, 249.385, 173.262, 208.404, 65.1975
12, 900.00000, 123.569, 124.249, 124.319, 0, 276.348, 192.151, 231.658, 72.0253
12, 1800.00000, 123.598, 124.292, 124.317, 0, 276.166, 190.619, 233.892, 73.1078
12, 2700.00000, 123.371, 124.066, 124.112, 0, 274.141, 189.582, 230.54, 72.3073
13, 0.00000, 123.474, 124.14, 124.204, 0, 269.679, 186.657, 226.925, 70.9738
13, 900.00000, 123.335, 124.018, 124.08, 0, 275.979, 191.124, 232.294, 72.5244
13, 1800.00000, 122.822, 123.497, 123.576, 0, 276.885, 193.307, 232.507, 71.4791
13, 2700.00000, 122.323, 123.041, 123.131, 0, 300.7, 212.298, 254.085, 75.5006
14, 0.00000, 122.529, 123.202, 123.341, 0, 288.932, 204.365, 241.621, 72.4072
14, 900.00000, 122.596, 123.266, 123.393, 0, 286.716, 202.781, 240.556, 71.818
14, 1800.00000, 122.817, 123.463, 123.58, 0, 275.137, 193.792, 231.222, 69.5804
14, 2700.00000, 118.297, 118.969, 119.029, 0, 273.39, 194.613, 231.445, 67.712
15, 0.00000, 125.383, 126.019, 126.162, 0, 281.541, 197.448, 234.614, 71.9986
15, 900.00000, 125.56, 126.177, 126.313, 0, 273.811, 191.963, 228.846, 70.0466
15, 1800.00000, 125.354, 126.029, 126.097, 0, 285.683, 198.746, 241.757, 74.2333
15, 2700.00000, 125.524, 126.125, 126.273, 0, 273.072, 192.778, 228.187, 68.7712
16, 0.00000, 125.343, 126.011, 126.114, 0, 284.589, 198.322, 238.409, 73.7524
16, 900.00000, 125.323, 126.027, 126.075, 0, 287.897, 199.226, 243.503, 75.7311
16, 1800.00000, 125.336, 126.061, 126.077, 0, 287.279, 197.049, 243.369, 77.0821
16, 2700.00000, 125.5, 126.159, 126.248, 0, 278.099, 193.523, 233.23, 72.3189
17, 0.00000, 125.368, 126.06, 126.091, 0, 283.854, 196.261, 241.347, 74.8172
17, 900.00000, 125.452, 126.114, 126.19, 0, 278.35, 195.005, 233.124, 71.3526
17, 1800.00000, 126.973, 127.668, 127.711, 0, 289.462, 202.127, 242.264, 74.7633
17, 2700.00000, 126.974, 127.674, 127.718, 0, 289.578, 202.589, 241.424, 74.5604
18, 0.00000, 126.935, 127.628, 127.676, 0, 295.359, 209.684, 246.879, 73.5131
18, 900.00000, 126.473, 127.224, 127.285, 0, 318.153, 227.673, 264.394, 77.8724
18, 1800.00000, 126.497, 127.256, 127.284, 0, 315.711, 224.588, 263.763, 78.2055
18, 2700.00000, 130.711, 131.423, 131.473, 0, 322.325, 231.004, 269.452, 78.4082
19, 0.00000, 130.522, 131.29, 131.281, 0, 332.736, 236.512, 280.766, 82.3188
19, 900.00000, 130.638, 131.376, 131.396, 0, 326.453, 233.306, 274.025, 79.8497
19, 1800.00000, 130.124, 130.905, 130.885, 0, 329.349, 233.114, 277.171, 82.373
19, 2700.00000, 130.043, 130.791, 130.814, 0, 329.826, 236.084, 278.22, 80.2468
20, 0.00000, 130.054, 130.78, 130.844, 0, 333.174, 241.461, 279.118, 78.8272
20, 900.00000, 124.418, 125.25, 125.224, 0, 332.23, 236.581, 282.378, 81.7618
20, 1800.00000, 124.462, 125.289, 125.258, 0, 336.6, 241.596, 286.147, 81.2552
20, 2700.00000, 124.19, 125.067, 124.977, 0, 336.745, 237.656, 287.758, 84.6765
21, 0.00000, 124.015, 124.836, 124.887, 0, 343.924, 247.986, 288.056, 82.3712
21, 900.00000, 124.215, 125.065, 125.014, 0, 336.997, 239.425, 286.864, 83.3792
21, 1800.00000, 120.433, 121.306, 121.199, 0, 332.792, 237.427, 286.319, 81.6407
21, 2700.00000, 120.484, 121.401, 121.254, 0, 328.595, 230.025, 282.047, 84.4145
22, 0.00000, 120.657, 121.542, 121.417, 0, 321.263, 225.505, 274.844, 81.9157
22, 900.00000, 120.544, 121.406, 121.303, 0, 327.847, 233.76, 281.216, 80.508
22, 1800.00000, 120.457, 121.336, 121.216, 0, 334.283, 239.011, 287.548, 81.5636
22, 2700.00000, 122.172, 122.959, 122.937, 0, 317.974, 228.773, 270.743, 76.3205
23, 0.00000, 122.08, 122.919, 122.819, 0, 323.15, 229.199, 279.006, 80.3264
23, 900.00000, 122.344, 123.145, 123.068, 0, 308.614, 218.131, 264.948, 77.3758
23, 1800.00000, 126.079, 126.835, 126.758, 0, 314.176, 223.051, 272.536, 77.9241
23, 2700.00000, 126.198, 126.977, 126.876, 0, 308.85, 216.237, 267.134, 79.2664
24, 0.00000, 126.111, 126.907, 126.793, 0, 314.612, 220.444, 272.849, 80.6204
24, 900.00000, 126.257, 127.064, 126.875, 0, 308.039, 213.647, 270.705, 81.2582
