hour, t(sec), |V|1 (volts), |V|2 (volts), |V|3 (volts), |V|4 (volts), |I|1 (amps), |I|2 (amps), |I|3 (amps), |I|4 (amps)
0, 900.00000, 123.647, 124.811, 125.433, 0, 139.776, 91.3653, 92.264, 47.7983
0, 1800.00000, 123.983, 124.978, 125.723, 0, 132.582, 89.6694, 86.2992, 44.6247
0, 2700.00000, 124.304, 125.291, 125.907, 0, 128.612, 86.2639, 86.3726, 42.1553
1, 0.00000, 124.379, 125.237, 126.007, 0, 123.71, 85.465, 80.5897, 40.8706
1, 900.00000, 124.417, 125.309, 126.033, 0, 123.698, 84.5255, 80.9004, 41.052
1, 1800.00000, 124.45, 125.331, 125.998, 0, 121.276, 82.6129, 80.4759, 39.6933
1, 2700.00000, 124.238, 125.21, 125.865, 0, 126.784, 85.1457, 83.4086, 42.4393
2, 0.00000, 124.382, 125.201, 125.999, 0, 121.287, 84.4241, 78.386, 40.2191
2, 900.00000, 124.594, 125.354, 126.157, 0, 116.996, 81.9713, 75.642, 38.5812
2, 1800.00000, 124.481, 125.219, 126.145, 0, 119.047, 84.5424, 74.5874, 40.4822
2, 2700.00000, 124.635, 125.37, 126.209, 0, 115.389, 81.2149, 73.6196, 38.564
3, 0.00000, 125.006, 125.651, 126.459, 0, 107.539, 76.631, 69.344, 35.1473
3, 900.00000, 124.825, 125.466, 126.412, 0, 110.934, 79.9876, 68.6556, 38.0022
3, 1800.00000, 124.911, 125.581, 126.416, 0, 110.511, 78.8406, 70.7181, 36.4572
3, 2700.00000, 124.596, 125.275, 126.2, 0, 114.993, 82.5936, 72.461, 38.5555
4, 0.00000, 124.676, 125.372, 126.25, 0, 114.004, 81.1369, 72.3697, 38.0678
4, 900.00000, 124.913, 125.576, 126.391, 0, 108.153, 76.3381, 69.5253, 35.7286
4, 1800.00000, 124.549, 125.224, 126.142, 0, 115.168, 82.3589, 73.3581, 38.1674
4, 2700.00000, 124.894, 125.512, 126.393, 0, 107.238, 76.6666, 67.8929, 35.824
5, 0.00000, 124.697, 125.355, 126.293, 0, 110.778, 78.6525, 68.6207, 38.2172
5, 900.00000, 124.655, 125.341, 126.233, 0, 113.292, 80.4245, 71.5872, 38.1141
5, 1800.00000, 124.64, 125.269, 126.149, 0, 108.029, 77.1079, 68.5342, 36.0301
5, 2700.00000, 124.584, 125.275, 126.173, 0, 110.607, 77.6444, 68.5429, 38.3896
6, 0.00000, 124.84, 125.456, 126.412, 0, 106.858, 76.2745, 64.9835, 37.6181
6, 900.00000, 124.473, 125.174, 126.128, 0, 114.315, 80.2271, 70.624, 39.8315
6, 1800.00000, 124.741, 125.386, 126.287, 0, 105.844, 72.9826, 65.9796, 36.8794
6, 2700.00000, 124.844, 125.418, 126.389, 0, 102.433, 71.799, 62.6032, 36.1779
7, 0.00000, 124.469, 125.182, 126.118, 0, 110.129, 74.3637, 67.704, 39.5236
7, 900.00000, 124.31, 125.114, 125.995, 0, 114.661, 75.5735, 71.0738, 41.4724
7, 1800.00000, 125.034, 125.63, 126.592, 0, 98.0715, 65.7518, 58.2283, 36.6912
7, 2700.00000, 125.047, 125.657, 126.618, 0, 98.4826, 65.7514, 58.2008, 37.1144
8, 0.00000, 124.712, 125.463, 126.356, 0, 106.157, 68.4772, 63.7215, 40.2336
8, 900.00000, 125.328, 125.856, 126.831, 0, 90.8693, 60.4752, 52.8219, 34.8886
8, 1800.00000, 125.245, 125.698, 126.786, 0, 91.3908, 63.285, 52.3746, 34.9561
8, 2700.00000, 124.856, 125.413, 126.494, 0, 99.8533, 67.7925, 58.2313, 37.8234
9, 0.00000, 124.914, 125.403, 126.545, 0, 94.0682, 63.8956, 52.5903, 37.2351
9, 900.00000, 124.894, 125.346, 126.515, 0, 95.6322, 66.9244, 54.4611, 36.6854
9, 1800.00000, 124.979, 125.456, 126.571, 0, 92.5325, 63.0897, 52.2398, 36.2017
9, 2700.00000, 125.512, 125.855, 126.967, 0, 79.7168, 54.8441, 43.4246, 32.2412
10, 0.00000, 125.547, 125.869, 127.037, 0, 78.6558, 54.6642, 41.1415, 33.0397
10, 900.00000, 125.219, 125.694, 126.719, 0, 86.2734, 57.2324, 48.5934, 34.2415
10, 1800.00000, 125.272, 125.78, 126.741, 0, 86.6219, 56.6674, 49.8827, 33.8797
10, 2700.00000, 125.007, 125.526, 126.588, 0, 93.1027, 62.6101, 53.3424, 36.0955
11, 0.00000, 124.857, 125.487, 126.437, 0, 98.8508, 64.7854, 59.0942, 37.2279
11, 900.00000, 125.381, 125.894, 126.837, 0, 85.8849, 55.838, 49.5023, 33.6762
11, 1800.00000, 125.136, 125.596, 126.702, 0, 91.1392, 62.8341, 51.3729, 35.555
11, 2700.00000, 125.252, 125.775, 126.832, 0, 90.4104, 60.322, 49.8198, 36.5767
12, 0.00000, 125.4, 125.935, 126.84, 0, 88.5334, 58.3242, 52.279, 33.6462
12, 900.00000, 124.776, 125.536, 126.376, 0, 101.292, 63.3365, 60.6185, 39.3154
12, 1800.00000, 124.899, 125.455, 126.545, 0, 98.3507, 66.766, 56.1266, 38.1225
12, 2700.00000, 125.058, 125.696, 126.622, 0, 95.5937, 61.755, 56.0697, 37.0071
13, 0.00000, 125.152, 125.667, 126.765, 0, 94.5345, 64.1225, 53.4495, 37.0112
13, 900.00000, 124.928, 125.549, 126.563, 0, 99.014, 65.0949, 57.4849, 38.3239
13, 1800.00000, 125.017, 125.611, 126.599, 0, 95.3038, 62.202, 55.3356, 37.0302
13, 2700.00000, 124.02, 124.925, 125.771, 0, 117.639, 73.8993, 73.5876, 43.7422
14, 0.00000, 124.362, 125.012, 126.041, 0, 109.486, 73.8664, 67.5409, 39.1566
14, 900.00000, 124.618, 125.101, 126.279, 0, 102.979, 72.8546, 61.4849, 37.2375
14, 1800.00000, 124.902, 125.48, 126.466, 0, 97.6393, 64.8012, 58.7991, 36.2089
14, 2700.00000, 125.214, 125.67, 126.744, 0, 89.4, 60.6451, 51.1977, 34.5292
15, 0.00000, 125.305, 125.659, 126.854, 0, 85.0077, 58.9005, 46.4332, 34.214
15, 900.00000, 125.546, 125.813, 127.071, 0, 80.7619, 57.7488, 42.7789, 33.2949
15, 1800.00000, 125.249, 125.579, 126.853, 0, 85.8342, 60.7447, 45.4409, 35.4868
15, 2700.00000, 125.261, 125.664, 126.744, 0, 86.4522, 59.2692, 49.7875, 33.0292
16, 0.00000, 125.121, 125.505, 126.692, 0, 88.7614, 62.0224, 49.5007, 34.8568
16, 900.00000, 125.24, 125.602, 126.82, 0, 85.715, 59.9791, 46.1629, 34.9117
16, 1800.00000, 125.062, 125.533, 126.709, 0, 91.5824, 62.5569, 49.7345, 37.2648
16, 2700.00000, 125.106, 125.632, 126.687, 0, 92.0151, 61.2534, 52.1602, 36.2371
17, 0.00000, 124.854, 125.46, 126.488, 0, 97.3762, 63.9847, 55.9472, 38.0917
17, 900.00000, 124.899, 125.55, 126.463, 0, 96.8571, 62.9655, 56.9117, 37.2916
17, 1800.00000, 124.707, 125.534, 126.34, 0, 106.674, 67.5348, 64.0466, 40.9416
17, 2700.00000, 124.856, 125.583, 126.442, 0, 101.99, 66.4246, 60.558, 38.8302
18, 0.00000, 124.745, 125.504, 126.362, 0, 106.528, 70.2589, 63.7995, 39.8998
18, 900.00000, 123.963, 125.034, 125.664, 0, 122.815, 76.8845, 77.928, 45.2615
18, 1800.00000, 124.049, 125.071, 125.697, 0, 119.902, 75.5574, 76.5106, 43.7233
18, 2700.00000, 124.03, 125.202, 125.7, 0, 123.199, 74.1286, 79.071, 46.5583
19, 0.00000, 123.308, 124.815, 125.144, 0, 142.628, 83.1826, 93.7721, 54.5337
19, 900.00000, 123.543, 124.948, 125.278, 0, 137.185, 81.1716, 91.2063, 51.3699
19, 1800.00000, 123.491, 124.933, 125.223, 0, 136.713, 79.5563, 90.8602, 52.0404
19, 2700.00000, 123.196, 124.706, 124.896, 0, 142.535, 83.1893, 98.465, 52.8857
20, 0.00000, 123.4, 124.773, 125.122, 0, 138.455, 83.3697, 93.2038, 50.5216
20, 900.00000, 123.013, 124.34, 124.802, 0, 146.039, 92.3419, 99.7638, 50.0685
20, 1800.00000, 123.147, 124.533, 124.955, 0, 146.051, 90.5757, 98.365, 51.6858
20, 2700.00000, 123.071, 124.451, 124.859, 0, 143.194, 87.8682, 96.4306, 51.2328
21, 0.00000, 123.036, 124.227, 124.791, 0, 140.74, 90.5569, 95.2552, 47.7304
21, 900.00000, 123.189, 124.391, 125.034, 0, 140.684, 90.4938, 92.1057, 49.2112
21, 1800.00000, 123.071, 124.435, 124.935, 0, 148.072, 92.7542, 98.8323, 52.2349
21, 2700.00000, 123.313, 124.58, 125.122, 0, 140.604, 88.5015, 93.081, 49.7109
22, 0.00000, 123.568, 124.792, 125.345, 0, 136.441, 85.7456, 89.4329, 48.7245
22, 900.00000, 123.221, 124.613, 125.043, 0, 145.822, 89.8307, 97.4035, 52.2812
22, 1800.00000, 123.31, 124.569, 125.155, 0, 142.517, 90.7575, 93.2779, 50.3331
22, 2700.00000, 123.565, 124.765, 125.298, 0, 138.815, 88.9124, 93.1318, 47.6821
23, 0.00000, 123.291, 124.66, 125.108, 0, 145.948, 90.525, 98.2024, 51.6701
23, 900.00000, 123.786, 124.949, 125.469, 0, 134.321, 85.5324, 90.2308, 46.3623
23, 1800.00000, 123.366, 124.583, 125.167, 0, 144.4, 93.7728, 96.9208, 48.8917
23, 2700.00000, 123.858, 124.928, 125.59, 0, 131.455, 85.4995, 85.8351, 45.634
24, 0.00000, 123.656, 124.762, 125.458, 0, 136.844, 89.7454, 89.2255, 47.221
24, 900.00000, 123.647, 124.81, 125.433, 0, 139.78, 91.3671, 92.2653, 47.8003
