hour, t(sec), |V|1 (volts), |V|2 (volts), |V|3 (volts), |V|4 (volts), |I|1 (amps), |I|2 (amps), |I|3 (amps), |I|4 (amps)
0, 900.00000, 128.156, 128.345, 128.83, 0, 9.3803, 4.54747E-013, 2.27374E-013, 9.3803
0, 1800.00000, 128.473, 128.438, 128.912, 0, 4.66288, 2.27374E-013, 1.13687E-013, 4.66288
0, 2700.00000, 128.265, 128.263, 128.724, 0, 5.1706, 2.27374E-013, 9.37486E-013, 5.1706
1, 0.00000, 128.239, 128.197, 128.658, 0, 4.2981, 2.27374E-013, 4.54747E-013, 4.2981
1, 900.00000, 128.289, 128.232, 128.688, 0, 3.92362, 2.54212E-013, 5.68434E-013, 3.92362
1, 1800.00000, 128.299, 128.253, 128.701, 0, 4.07206, 2.54212E-013, 5.08423E-013, 4.07206
1, 2700.00000, 128.262, 128.219, 128.667, 0, 4.1931, 3.21555E-013, 0, 4.1931
2, 0.00000, 128.244, 128.195, 128.649, 0, 4.06634, 0, 1.13687E-013, 4.06634
2, 900.00000, 128.328, 128.256, 128.706, 0, 3.60889, 2.27374E-013, 4.68743E-013, 3.60889
2, 1800.00000, 128.283, 128.214, 128.67, 0, 3.77195, 4.68743E-013, 1.13687E-013, 3.77195
2, 2700.00000, 128.345, 128.295, 128.741, 0, 4.01982, 4.09904E-013, 1.13687E-013, 4.01982
3, 0.00000, 128.43, 128.404, 128.835, 0, 4.28384, 4.68743E-013, 1.13687E-013, 4.28384
3, 900.00000, 128.4, 128.344, 128.782, 0, 3.7663, 4.68743E-013, 4.54747E-013, 3.7663
3, 1800.00000, 128.652, 128.598, 129.028, 0, 3.73103, 2.27374E-013, 1.13687E-013, 3.73103
3, 2700.00000, 128.541, 128.448, 128.899, 0, 3.15015, 2.27374E-013, 4.68743E-013, 3.15015
4, 0.00000, 128.57, 128.49, 128.937, 0, 3.3662, 4.09904E-013, 4.68743E-013, 3.3662
4, 900.00000, 128.538, 128.531, 128.977, 0, 4.82303, 4.09904E-013, 4.54747E-013, 4.82303
4, 1800.00000, 128.438, 128.404, 128.874, 0, 4.57773, 1.13687E-013, 4.68743E-013, 4.57773
4, 2700.00000, 128.75, 128.712, 129.16, 0, 4.30733, 1.13687E-013, 0, 4.30732
5, 0.00000, 128.643, 128.639, 129.099, 0, 5.15113, 2.27374E-013, 3.41061E-013, 5.15113
5, 900.00000, 128.713, 128.673, 129.127, 0, 4.35772, 1.13687E-013, 5.68434E-013, 4.35772
5, 1800.00000, 128.749, 128.648, 129.101, 0, 3.01213, 1.13687E-013, 0, 3.01213
5, 2700.00000, 128.668, 128.667, 129.12, 0, 5.13865, 2.54212E-013, 5.08423E-013, 5.13865
6, 0.00000, 128.858, 128.775, 129.218, 0, 3.41843, 7.19019E-013, 3.41061E-013, 3.41843
6, 900.00000, 128.764, 128.656, 129.134, 0, 3.30243, 6.9153E-013, 9.71341E-013, 3.30243
6, 1800.00000, 128.643, 128.639, 129.138, 0, 5.66154, 3.21555E-013, 1.13687E-013, 5.66154
6, 2700.00000, 128.911, 128.931, 129.348, 0, 4.44946, 2.27374E-013, 3.41061E-013, 4.44946
7, 0.00000, 128.568, 128.813, 129.262, 0, 9.43933, 2.27374E-013, 4.68743E-013, 9.43933
7, 900.00000, 128.763, 128.782, 129.238, 0, 5.06213, 2.54212E-013, 4.68743E-013, 5.06213
7, 1800.00000, 128.836, 129.044, 129.408, 0, 7.01236, 3.41061E-013, 2.27374E-013, 7.01236
7, 2700.00000, 128.897, 129.065, 129.429, 0, 6.18846, 0, 5.08423E-013, 6.18846
8, 0.00000, 128.733, 128.979, 129.356, 0, 8.03883, 2.27374E-013, 0, 8.03883
8, 900.00000, 129.005, 129.091, 129.461, 0, 4.61268, 2.54212E-013, 1.13687E-013, 4.61268
8, 1800.00000, 128.95, 129.039, 129.417, 0, 4.72293, 4.09904E-013, 2.27374E-013, 4.72293
8, 2700.00000, 128.933, 129.053, 129.385, 0, 4.17156, 5.08423E-013, 1.13687E-013, 4.17156
9, 0.00000, 128.814, 128.94, 129.279, 0, 4.41392, 0, 5.68434E-013, 4.41392
9, 900.00000, 128.86, 128.975, 129.307, 0, 4.05226, 2.27374E-013, 1.13687E-013, 4.05226
9, 1800.00000, 128.857, 129.429, 129.612, 0, 10.2468, 2.27374E-013, 4.54747E-013, 10.2468
9, 2700.00000, 129.237, 129.531, 129.7, 0, 4.38668, 3.21555E-013, 5.68434E-013, 4.38668
10, 0.00000, 129.022, 129.539, 129.701, 0, 8.81475, 4.54747E-013, 4.68743E-013, 8.81475
10, 900.00000, 129.075, 129.462, 129.633, 0, 6.2993, 2.27374E-013, 0, 6.2993
10, 1800.00000, 129.19, 129.514, 129.68, 0, 4.9379, 5.08423E-013, 3.41061E-013, 4.9379
10, 2700.00000, 129.525, 130.062, 130.034, 0, 4.79082, 3.21555E-013, 1.13687E-013, 4.79082
11, 0.00000, 129.58, 130.082, 130.052, 0, 4.12728, 2.27374E-013, 4.68743E-013, 4.12728
11, 900.00000, 129.345, 130.171, 130.123, 0, 10.5497, 2.27374E-013, 1.13687E-013, 10.5497
11, 1800.00000, 129.656, 130.231, 130.128, 0, 4.10931, 0, 1.13687E-013, 4.10931
11, 2700.00000, 129.701, 130.304, 130.187, 0, 4.53713, 2.27374E-013, 5.68434E-013, 4.53713
12, 0.00000, 129.738, 130.373, 130.247, 0, 5.04832, 0, 3.41061E-013, 5.04832
12, 900.00000, 129.564, 130.197, 130.1, 0, 5.34839, 2.27374E-013, 0, 5.34839
12, 1800.00000, 129.436, 130.219, 130.122, 0, 8.47727, 5.08423E-013, 4.68743E-013, 8.47727
12, 2700.00000, 129.556, 130.317, 130.176, 0, 6.94309, 2.27374E-013, 4.54747E-013, 6.94309
13, 0.00000, 129.566, 130.352, 130.221, 0, 7.70494, 3.21555E-013, 2.27374E-013, 7.70494
13, 900.00000, 129.544, 130.286, 130.164, 0, 6.90691, 3.21555E-013, 4.54747E-013, 6.90691
13, 1800.00000, 129.571, 130.235, 130.112, 0, 5.32752, 2.27374E-013, 3.41061E-013, 5.32752
13, 2700.00000, 129.343, 130.007, 129.93, 0, 5.84243, 3.21555E-013, 5.68434E-013, 5.84243
14, 0.00000, 129.396, 130.072, 129.99, 0, 6.04253, 4.54747E-013, 2.27374E-013, 6.04253
14, 900.00000, 129.406, 130.118, 130.028, 0, 6.62473, 3.21555E-013, 1.13687E-013, 6.62473
14, 1800.00000, 129.512, 130.206, 130.101, 0, 6.06358, 2.27374E-013, 4.68743E-013, 6.06358
14, 2700.00000, 129.678, 130.3, 130.173, 0, 4.2544, 6.82121E-013, 5.08423E-013, 4.2544
15, 0.00000, 129.623, 130.252, 130.143, 0, 4.68593, 3.21555E-013, 4.68743E-013, 4.68593
15, 900.00000, 129.713, 130.343, 130.223, 0, 4.52378, 0, 5.68434E-013, 4.52378
15, 1800.00000, 129.619, 130.28, 130.184, 0, 5.6505, 4.54747E-013, 0, 5.6505
15, 2700.00000, 129.582, 130.303, 130.2, 0, 6.77428, 2.27374E-013, 2.27374E-013, 6.77428
16, 0.00000, 129.547, 130.258, 130.163, 0, 6.63541, 4.54747E-013, 2.27374E-013, 6.63541
16, 900.00000, 129.646, 130.285, 130.184, 0, 4.99792, 5.08423E-013, 0, 4.99792
16, 1800.00000, 129.549, 130.294, 130.184, 0, 7.11084, 3.21555E-013, 4.68743E-013, 7.11083
16, 2700.00000, 129.436, 129.991, 130.015, 0, 6.26432, 5.08423E-013, 5.08423E-013, 6.26432
17, 0.00000, 129.226, 129.927, 129.956, 0, 9.327, 5.08423E-013, 3.41061E-013, 9.327
17, 900.00000, 128.99, 129.965, 129.957, 0, 14.4473, 2.27374E-013, 0, 14.4473
17, 1800.00000, 129.055, 129.316, 129.514, 0, 4.59212, 3.21555E-013, 0, 4.59212
17, 2700.00000, 129.025, 129.327, 129.51, 0, 5.25109, 5.08423E-013, 1.13687E-013, 5.25109
18, 0.00000, 129.029, 129.36, 129.53, 0, 5.72003, 1.13687E-013, 4.68743E-013, 5.72003
18, 900.00000, 128.553, 129.163, 129.343, 0, 11.4035, 2.27374E-013, 0, 11.4035
18, 1800.00000, 128.426, 129.159, 129.334, 0, 13.8922, 4.68743E-013, 0, 13.8922
18, 2700.00000, 127.535, 128.392, 128.805, 0, 21.383, 2.27374E-013, 2.27374E-013, 21.383
19, 0.00000, 127.517, 128.319, 128.739, 0, 20.2978, 2.27374E-013, 4.68743E-013, 20.2978
19, 900.00000, 127.846, 128.37, 128.778, 0, 14.5308, 0, 5.68434E-013, 14.5308
19, 1800.00000, 127.518, 128.113, 128.604, 0, 17.6141, 2.27374E-013, 4.68743E-013, 17.6141
19, 2700.00000, 127.427, 128.031, 128.542, 0, 17.857, 0, 4.68743E-013, 17.857
20, 0.00000, 127.8, 128.084, 128.584, 0, 11.3575, 3.21555E-013, 1.13687E-013, 11.3575
20, 900.00000, 127.305, 127.985, 128.51, 0, 19.4882, 6.9153E-013, 4.68743E-013, 19.4882
20, 1800.00000, 127.899, 128.081, 128.587, 0, 9.33505, 5.08423E-013, 2.27374E-013, 9.33505
20, 2700.00000, 127.863, 128.04, 128.553, 0, 9.22237, 2.27374E-013, 4.68743E-013, 9.22237
21, 0.00000, 127.666, 127.923, 128.461, 0, 11.2819, 3.21555E-013, 2.27374E-013, 11.2819
21, 900.00000, 127.884, 128.059, 128.579, 0, 9.35668, 3.21555E-013, 1.13687E-013, 9.35668
21, 1800.00000, 128.08, 128.095, 128.614, 0, 6.204, 4.68743E-013, 0, 6.204
21, 2700.00000, 128.078, 128.104, 128.619, 0, 6.28024, 6.82121E-013, 3.41061E-013, 6.28024
22, 0.00000, 128.176, 128.2, 128.701, 0, 6.21096, 2.54212E-013, 1.13687E-013, 6.21096
22, 900.00000, 128.172, 128.157, 128.659, 0, 5.46538, 5.08423E-013, 3.41061E-013, 5.46538
22, 1800.00000, 128.15, 128.146, 128.646, 0, 5.64447, 2.27374E-013, 0, 5.64447
22, 2700.00000, 128.234, 128.254, 128.752, 0, 6.08768, 3.21555E-013, 1.13687E-013, 6.08768
23, 0.00000, 128.209, 128.219, 128.734, 0, 6.02808, 1.13687E-013, 4.68743E-013, 6.02808
23, 900.00000, 128.354, 128.319, 128.817, 0, 4.93573, 2.27374E-013, 1.13687E-013, 4.93573
23, 1800.00000, 128.216, 128.224, 128.733, 0, 5.96203, 2.54212E-013, 1.13687E-013, 5.96203
23, 2700.00000, 128.247, 128.288, 128.789, 0, 6.54497, 2.27374E-013, 2.27374E-013, 6.54497
24, 0.00000, 128.281, 128.267, 128.772, 0, 5.45095, 4.68743E-013, 0, 5.45095
24, 900.00000, 128.156, 128.345, 128.83, 0, 9.38037, 0, 5.08423E-013, 9.38037
