hour, t(sec), |V|1 (volts), |V|2 (volts), |V|3 (volts), |V|4 (volts), |I|1 (amps), |I|2 (amps), |I|3 (amps), |I|4 (amps)
0, 900.00000, 124.335, 123.131, 126.686, 0, 114.195, 137.03, 51.4207, 76.8898
0, 1800.00000, 124.763, 123.572, 126.952, 0, 105.385, 128.241, 47.3764, 72.2922
0, 2700.00000, 129.919, 128.762, 131.934, 0, 99.0795, 120.319, 44.5478, 67.7678
1, 0.00000, 129.522, 128.361, 131.585, 0, 108.015, 129.417, 52.2383, 69.1163
1, 900.00000, 129.865, 128.725, 131.852, 0, 98.5799, 119.602, 45.0535, 66.6524
1, 1800.00000, 124.102, 123.029, 126.107, 0, 95.1041, 115.57, 42.5522, 65.3323
1, 2700.00000, 123.932, 122.842, 126.071, 0, 98.8356, 119.586, 41.9781, 69.6697
2, 0.00000, 123.876, 122.718, 125.906, 0, 99.1642, 121.97, 46.0838, 67.5261
2, 900.00000, 124.052, 122.957, 126.055, 0, 97.034, 117.998, 44.5359, 65.641
2, 1800.00000, 123.895, 122.751, 125.929, 0, 99.5727, 121.77, 46.2369, 67.3331
2, 2700.00000, 124.146, 123.049, 126.045, 0, 95.4414, 116.629, 46.183, 62.7093
3, 0.00000, 124.502, 123.469, 126.38, 0, 89.9136, 109.754, 40.8816, 61.4913
3, 900.00000, 124.264, 123.147, 126.101, 0, 93.5689, 115.683, 46.1899, 61.5925
3, 1800.00000, 124.572, 123.525, 126.36, 0, 87.6873, 107.968, 41.5794, 59.0192
3, 2700.00000, 124.075, 122.928, 125.948, 0, 95.5094, 118.231, 47.3978, 62.7499
4, 0.00000, 124.245, 123.105, 126.084, 0, 92.326, 114.99, 45.1177, 61.837
4, 900.00000, 124.415, 123.301, 126.214, 0, 89.4442, 111.47, 43.3845, 60.2692
4, 1800.00000, 124.012, 122.834, 125.914, 0, 95.9811, 119.133, 47.2536, 63.6607
4, 2700.00000, 124.487, 123.358, 126.221, 0, 88.27, 110.559, 44.1224, 58.6615
5, 0.00000, 124.227, 123.086, 126.033, 0, 92.5989, 114.824, 46.5151, 60.4636
5, 900.00000, 124.276, 123.141, 126.091, 0, 92.9044, 115.111, 46.4183, 60.8246
5, 1800.00000, 124.266, 123.103, 125.982, 0, 91.337, 114.524, 48.02, 58.5831
5, 2700.00000, 124.27, 123.102, 126.01, 0, 91.9366, 115.166, 47.7662, 59.4117
6, 0.00000, 124.567, 123.418, 126.239, 0, 88.6794, 111.506, 46.1514, 57.5486
6, 900.00000, 124.22, 123.004, 126.018, 0, 94.0312, 117.926, 48.3797, 61.3199
6, 1800.00000, 124.377, 123.211, 126.228, 0, 89.6584, 111.689, 42.5204, 61.3158
6, 2700.00000, 124.353, 123.197, 126.153, 0, 94.4923, 116.339, 49.0058, 59.6492
7, 0.00000, 124.337, 123.098, 126.089, 0, 89.1489, 112.716, 45.8785, 58.8632
7, 900.00000, 124.135, 122.871, 126.002, 0, 95.2743, 118.894, 48.1059, 62.5708
7, 1800.00000, 124.684, 123.465, 126.301, 0, 84.7694, 107.706, 45.1534, 54.9579
7, 2700.00000, 124.837, 123.609, 126.38, 0, 81.0451, 104.341, 43.68, 53.1441
8, 0.00000, 124.484, 123.253, 126.149, 0, 88.4574, 111.132, 47.3729, 56.1428
8, 900.00000, 125.022, 123.845, 126.425, 0, 77.3802, 99.0029, 44.4605, 47.7468
8, 1800.00000, 124.779, 123.575, 126.272, 0, 82.1119, 104.431, 46.7178, 50.5907
8, 2700.00000, 123.731, 122.463, 125.379, 0, 87.7599, 111.403, 48.1095, 55.5813
9, 0.00000, 123.604, 122.319, 125.236, 0, 86.8025, 110.618, 47.6032, 55.2974
9, 900.00000, 123.589, 122.325, 125.187, 0, 88.5252, 112.019, 50.5257, 53.9551
9, 1800.00000, 124.489, 123.185, 125.868, 0, 83.178, 107.832, 51.8508, 48.8226
9, 2700.00000, 124.853, 123.642, 126.138, 0, 77.5166, 99.8396, 48.6378, 44.6791
10, 0.00000, 124.869, 123.645, 126.036, 0, 76.8018, 99.7972, 51.673, 41.9319
10, 900.00000, 124.615, 123.357, 125.915, 0, 81.2577, 104.863, 52.0076, 46.0908
10, 1800.00000, 124.792, 123.57, 126.018, 0, 78.7139, 101.509, 51.7063, 43.4185
10, 2700.00000, 126.288, 124.982, 127.483, 0, 84.3031, 108.737, 58.6674, 43.6578
11, 0.00000, 124.413, 123.166, 125.755, 0, 85.6735, 108.716, 55.6169, 46.3844
11, 900.00000, 124.697, 123.513, 125.987, 0, 81.9233, 103.62, 52.8367, 44.3745
11, 1800.00000, 122.4, 121.117, 123.693, 0, 84.7556, 109.702, 56.4857, 46.3812
11, 2700.00000, 122.384, 121.115, 123.697, 0, 89.1428, 113.935, 59.8127, 47.1928
12, 0.00000, 122.622, 121.44, 123.966, 0, 86.6026, 109.086, 55.9483, 46.4411
12, 900.00000, 122.071, 120.747, 123.469, 0, 93.4877, 119.404, 62.11, 49.9787
12, 1800.00000, 121.945, 120.643, 123.498, 0, 98.9462, 124.113, 62.6098, 53.8307
12, 2700.00000, 121.935, 120.63, 123.286, 0, 90.7933, 116.639, 61.0078, 48.5088
13, 0.00000, 122.006, 120.698, 123.366, 0, 91.6484, 117.16, 61.4742, 48.5713
13, 900.00000, 121.801, 120.493, 123.238, 0, 94.5385, 119.833, 62.2233, 50.3441
13, 1800.00000, 121.178, 119.939, 122.663, 0, 98.5393, 122.008, 64.6896, 50.3793
13, 2700.00000, 120.498, 119.209, 122.231, 0, 107.44, 131.612, 67.2325, 56.9789
14, 0.00000, 121.043, 119.756, 122.661, 0, 94.2197, 118.46, 57.3951, 53.7426
14, 900.00000, 121.216, 119.913, 122.693, 0, 90.6689, 115.698, 58.2482, 50.3399
14, 1800.00000, 121.414, 120.161, 122.853, 0, 89.5462, 113.349, 57.756, 48.701
14, 2700.00000, 117.131, 115.998, 118.456, 0, 84.4428, 106.78, 55.2984, 45.0842
15, 0.00000, 124.158, 122.839, 125.489, 0, 86.2829, 110.828, 57.0071, 46.9557
15, 900.00000, 124.408, 123.091, 125.625, 0, 83.0763, 108.05, 57.2193, 44.312
15, 1800.00000, 123.914, 122.581, 125.3, 0, 94.288, 119.466, 63.3936, 48.9589
15, 2700.00000, 123.971, 122.702, 125.402, 0, 94.6245, 118.13, 62.0352, 49.091
16, 0.00000, 123.736, 122.398, 125.18, 0, 98.3475, 123.684, 65.7184, 50.6551
16, 900.00000, 123.8, 122.45, 125.153, 0, 96.8353, 122.927, 67.1631, 48.6634
16, 1800.00000, 123.755, 122.396, 125.134, 0, 98.6143, 125.04, 67.938, 49.8276
16, 2700.00000, 123.965, 122.62, 125.298, 0, 95.4172, 121.511, 65.8969, 48.5093
17, 0.00000, 123.673, 122.358, 125.202, 0, 101.016, 125.96, 65.5164, 52.9147
17, 900.00000, 123.763, 122.454, 125.2, 0, 99.604, 125.196, 66.2578, 51.4705
17, 1800.00000, 125.31, 123.984, 126.88, 0, 102.625, 128.317, 64.1158, 56.1919
17, 2700.00000, 125.305, 124.003, 126.805, 0, 102.402, 127.746, 65.9198, 54.0681
18, 0.00000, 125.366, 124.042, 126.927, 0, 101.572, 127.831, 62.83, 56.8278
18, 900.00000, 124.569, 123.141, 126.265, 0, 114.217, 143.257, 72.0515, 62.2383
18, 1800.00000, 124.255, 122.928, 126.17, 0, 123.933, 149.901, 74.7811, 66.3121
18, 2700.00000, 128.696, 127.312, 130.471, 0, 118.378, 145.095, 72.1391, 64.1262
19, 0.00000, 128.339, 126.894, 130.229, 0, 124.892, 153.185, 75.5621, 68.2426
19, 900.00000, 128.588, 127.209, 130.43, 0, 119.555, 146.237, 71.425, 65.8586
19, 1800.00000, 127.816, 126.428, 129.788, 0, 127.912, 154.914, 75.9707, 69.6919
19, 2700.00000, 127.75, 126.379, 129.723, 0, 125.659, 152.023, 74.5996, 68.4107
20, 0.00000, 128.061, 126.668, 129.9, 0, 119.023, 146.092, 71.5257, 65.5833
20, 900.00000, 122.132, 120.796, 124.152, 0, 123.98, 150.438, 74.1416, 67.4042
20, 1800.00000, 122.22, 120.876, 124.361, 0, 127.226, 153.959, 72.5077, 72.1464
20, 2700.00000, 121.891, 120.57, 124.096, 0, 128.337, 154.404, 72.019, 73.2074
21, 0.00000, 121.832, 120.515, 124.096, 0, 125.838, 150.93, 67.8542, 74.0923
21, 900.00000, 122.12, 120.725, 124.218, 0, 123.524, 151.489, 70.4223, 71.5481
21, 1800.00000, 118.377, 117.213, 120.52, 0, 123.29, 146.06, 68.3602, 69.6476
21, 2700.00000, 118.426, 117.242, 120.488, 0, 121.671, 145.312, 69.407, 67.7321
22, 0.00000, 118.627, 117.481, 120.629, 0, 120.376, 142.926, 69.4689, 65.6235
22, 900.00000, 118.558, 117.403, 120.667, 0, 120.707, 143.366, 66.3487, 68.9884
22, 1800.00000, 118.373, 117.203, 120.428, 0, 125.661, 148.822, 73.0574, 67.7087
22, 2700.00000, 120.245, 119.073, 122.318, 0, 116.037, 138.806, 63.2661, 67.6428
23, 0.00000, 120.261, 119.074, 122.368, 0, 113.192, 136.246, 59.8912, 68.3547
23, 900.00000, 120.47, 119.35, 122.602, 0, 112.266, 133.577, 57.6838, 68.3051
23, 1800.00000, 124.104, 122.884, 126.34, 0, 116.234, 138.814, 57.66, 72.7272
23, 2700.00000, 124.501, 123.266, 126.56, 0, 106.928, 130.357, 53.5608, 68.318
24, 0.00000, 124.459, 123.181, 126.506, 0, 106.587, 131.191, 53.8391, 68.595
24, 900.00000, 124.335, 123.131, 126.686, 0, 114.194, 137.029, 51.4204, 76.8896
