hour, t(sec), |V|1 (volts), |V|2 (volts), |V|3 (volts), |V|4 (volts), |I|1 (amps), |I|2 (amps), |I|3 (amps), |I|4 (amps)
0, 900.00000, 123.512, 123.411, 124.746, 0, 280.75, 251.5, 214.251, 58.4616
0, 1800.00000, 123.758, 123.664, 124.975, 0, 273.789, 244.678, 207.645, 58.1187
0, 2700.00000, 124.329, 124.216, 125.528, 0, 264.258, 237.834, 198.116, 58.383
1, 0.00000, 124.092, 124.029, 125.32, 0, 273.312, 242.977, 205.318, 59.6846
1, 900.00000, 124.154, 124.113, 125.388, 0, 272.532, 240.866, 203.719, 60.3201
1, 1800.00000, 123.958, 123.901, 125.174, 0, 266.513, 236.765, 198.298, 59.9089
1, 2700.00000, 123.879, 123.828, 125.075, 0, 268.534, 237.59, 201.884, 58.3884
2, 0.00000, 123.796, 123.713, 125.02, 0, 271.319, 242.91, 203.001, 60.1656
2, 900.00000, 124.003, 123.941, 125.196, 0, 263.766, 233.945, 197.266, 58.3269
2, 1800.00000, 123.885, 123.832, 125.072, 0, 266.569, 235.183, 201.106, 57.2999
2, 2700.00000, 123.924, 123.876, 125.111, 0, 260.663, 229.917, 194.526, 57.9242
3, 0.00000, 124.31, 124.244, 125.429, 0, 244.617, 217.101, 182.997, 54.0289
3, 900.00000, 124.11, 124.053, 125.241, 0, 249.933, 220.899, 188.439, 53.834
3, 1800.00000, 124.289, 124.246, 125.427, 0, 246.616, 216.93, 183.426, 55.3015
3, 2700.00000, 123.833, 123.77, 125.033, 0, 262.045, 232.504, 195.728, 58.1961
4, 0.00000, 123.961, 123.878, 125.137, 0, 257.56, 230.044, 192.902, 56.8591
4, 900.00000, 124.158, 124.047, 125.302, 0, 248.085, 223.473, 185.715, 55.0755
4, 1800.00000, 123.753, 123.65, 124.969, 0, 264.41, 236.89, 197.612, 58.8663
4, 2700.00000, 123.963, 123.842, 125.099, 0, 247.247, 222.755, 185.118, 54.8563
5, 0.00000, 123.73, 123.659, 124.893, 0, 255.545, 225.935, 192.176, 55.5036
5, 900.00000, 123.816, 123.73, 124.98, 0, 253.826, 225.732, 189.912, 56.104
5, 1800.00000, 123.216, 123.101, 124.417, 0, 259.331, 234.108, 192.697, 59.0087
5, 2700.00000, 123.315, 123.21, 124.462, 0, 253, 226.586, 190.679, 54.8152
6, 0.00000, 123.714, 123.585, 124.776, 0, 237.421, 213.234, 180.615, 49.9267
6, 900.00000, 123.384, 123.228, 124.507, 0, 248.664, 224.389, 189.335, 52.3066
6, 1800.00000, 123.48, 123.307, 124.589, 0, 242.413, 218.707, 184.906, 50.6858
6, 2700.00000, 123.465, 123.28, 124.507, 0, 227.519, 205.189, 175.384, 45.8538
7, 0.00000, 123.157, 122.952, 124.264, 0, 235.992, 213.114, 180.823, 48.6418
7, 900.00000, 123.225, 122.957, 124.271, 0, 229.652, 210.193, 178.68, 45.183
7, 1800.00000, 123.865, 123.605, 124.849, 0, 210.185, 191.626, 163.192, 41.5297
7, 2700.00000, 123.955, 123.682, 124.923, 0, 206.108, 188.598, 160.096, 40.7605
8, 0.00000, 123.727, 123.467, 124.714, 0, 214.556, 194.309, 167.42, 41.4514
8, 900.00000, 124.092, 123.843, 125.06, 0, 201.299, 181.526, 155.152, 40.5622
8, 1800.00000, 123.961, 123.706, 124.936, 0, 203.668, 184.03, 157.981, 40.1738
8, 2700.00000, 123.652, 123.358, 124.654, 0, 213.535, 195.089, 167.03, 41.1236
9, 0.00000, 123.372, 123.096, 124.409, 0, 223.044, 202.128, 173.519, 43.6159
9, 900.00000, 123.404, 123.15, 124.464, 0, 224.038, 202.122, 172.684, 45.195
9, 1800.00000, 123.412, 123.115, 124.449, 0, 214.442, 196.524, 165.11, 43.8781
9, 2700.00000, 123.769, 123.501, 124.755, 0, 201.844, 182.75, 154.905, 41.3873
10, 0.00000, 123.771, 123.523, 124.755, 0, 200.773, 180.798, 154.164, 40.9783
10, 900.00000, 123.552, 123.26, 124.567, 0, 208.924, 191.479, 160.024, 43.5204
10, 1800.00000, 123.674, 123.389, 124.689, 0, 208.178, 190.758, 158.672, 44.0915
10, 2700.00000, 123.492, 123.246, 124.619, 0, 226.639, 204.844, 170.158, 49.9976
11, 0.00000, 123.589, 123.337, 124.687, 0, 223.923, 202.513, 169.22, 48.3727
11, 900.00000, 123.99, 123.724, 124.986, 0, 205.286, 186.75, 157.337, 42.4174
11, 1800.00000, 123.833, 123.574, 124.919, 0, 222.375, 202.344, 168.224, 48.0672
11, 2700.00000, 124.118, 123.842, 125.106, 0, 209.332, 191.706, 162.223, 41.7872
12, 0.00000, 124.323, 124.042, 125.317, 0, 206.976, 190.618, 157.999, 43.7797
12, 900.00000, 123.703, 123.399, 124.797, 0, 228.724, 211.846, 174.396, 48.9074
12, 1800.00000, 123.858, 123.567, 124.889, 0, 219.765, 201.943, 170.523, 43.8162
12, 2700.00000, 124.085, 123.785, 125.157, 0, 221.328, 205.424, 168.967, 47.2257
13, 0.00000, 124.261, 123.961, 125.3, 0, 215.582, 198.392, 165.593, 44.6361
13, 900.00000, 124.051, 123.755, 125.125, 0, 223.187, 205.028, 171.054, 46.5178
13, 1800.00000, 123.968, 123.681, 125.045, 0, 225.189, 206.157, 172.199, 47.1578
13, 2700.00000, 123.118, 122.831, 124.377, 0, 260.395, 238.237, 196.549, 57.0549
14, 0.00000, 123.297, 123.021, 124.566, 0, 256.752, 234.284, 191.473, 58.3351
14, 900.00000, 123.427, 123.156, 124.681, 0, 251.057, 229.079, 186.907, 57.3399
14, 1800.00000, 123.761, 123.484, 124.937, 0, 237.975, 217.807, 178.635, 53.047
14, 2700.00000, 123.945, 123.66, 125.058, 0, 230.301, 211.477, 174.771, 49.6398
15, 0.00000, 123.876, 123.593, 124.999, 0, 229.082, 208.458, 173.497, 49.357
15, 900.00000, 124.144, 123.849, 125.231, 0, 220.132, 201.662, 166.912, 47.4829
15, 1800.00000, 123.734, 123.461, 124.827, 0, 227.825, 207.154, 175.075, 46.688
15, 2700.00000, 123.809, 123.516, 124.915, 0, 228.034, 210.001, 173.316, 49.0286
16, 0.00000, 123.59, 123.306, 124.73, 0, 235.371, 215.842, 179, 50.3376
16, 900.00000, 123.624, 123.358, 124.761, 0, 233.88, 213.771, 177.999, 49.7604
16, 1800.00000, 123.671, 123.411, 124.779, 0, 231.076, 210.566, 177.069, 47.9041
16, 2700.00000, 123.824, 123.513, 124.904, 0, 223.472, 207.369, 170.984, 47.3148
17, 0.00000, 123.584, 123.325, 124.691, 0, 233.242, 212.491, 179.2, 47.9003
17, 900.00000, 123.663, 123.378, 124.749, 0, 230.617, 214.367, 176.339, 49.0083
17, 1800.00000, 123.966, 123.697, 125.044, 0, 238.131, 220.239, 182.995, 49.4379
17, 2700.00000, 123.938, 123.699, 125.033, 0, 239.073, 219.733, 181.966, 51.0088
18, 0.00000, 123.974, 123.699, 125.037, 0, 238.868, 223.273, 183.891, 49.8251
18, 900.00000, 123.183, 122.89, 124.395, 0, 268.33, 253.56, 203.601, 59.7535
18, 1800.00000, 123.136, 122.908, 124.347, 0, 271.923, 252.204, 206.761, 58.7867
18, 2700.00000, 123.473, 123.23, 124.688, 0, 272.848, 254.506, 207.686, 59.1451
19, 0.00000, 123.144, 122.914, 124.421, 0, 286.146, 265.959, 217.515, 62.1146
19, 900.00000, 123.241, 123.036, 124.529, 0, 285.664, 264.138, 215.008, 63.7166
19, 1800.00000, 123.101, 122.887, 124.378, 0, 286.626, 266.059, 217.244, 62.7329
19, 2700.00000, 122.683, 122.511, 124.128, 0, 309.144, 284.945, 228.436, 72.931
20, 0.00000, 122.842, 122.661, 124.253, 0, 305.613, 281.629, 225.738, 72.1165
20, 900.00000, 122.365, 122.293, 123.948, 0, 326.908, 294.018, 236.915, 80.1184
20, 1800.00000, 122.767, 122.62, 124.186, 0, 311.166, 284.287, 231.524, 71.2815
20, 2700.00000, 122.226, 122.113, 123.673, 0, 314.937, 285.363, 234.035, 72.0076
21, 0.00000, 121.941, 121.818, 123.465, 0, 326.047, 295.031, 239.499, 77.1443
21, 900.00000, 122.404, 122.241, 123.813, 0, 306.983, 280.413, 228.992, 69.7748
21, 1800.00000, 122.775, 122.657, 124.157, 0, 304.808, 274.222, 228.194, 67.7533
21, 2700.00000, 122.822, 122.7, 124.202, 0, 300.388, 270.886, 224.205, 67.5067
22, 0.00000, 123.154, 123.036, 124.461, 0, 288.245, 258.705, 216.078, 63.6786
22, 900.00000, 122.973, 122.844, 124.308, 0, 297.758, 268.524, 223.33, 65.8492
22, 1800.00000, 122.908, 122.796, 124.255, 0, 300.36, 269.935, 225.133, 66.4405
22, 2700.00000, 123.269, 123.132, 124.626, 0, 296.201, 268.314, 219.441, 68.2508
23, 0.00000, 123.108, 123.002, 124.503, 0, 302.492, 271.269, 224.424, 69.0091
23, 900.00000, 123.43, 123.332, 124.773, 0, 292.477, 261.816, 216.727, 66.8622
23, 1800.00000, 123.074, 123.013, 124.463, 0, 303.277, 268.602, 224.881, 68.9015
23, 2700.00000, 123.354, 123.27, 124.675, 0, 288.767, 256.796, 215.084, 64.7954
24, 0.00000, 123.231, 123.147, 124.582, 0, 294.079, 261.714, 218.713, 66.3291
24, 900.00000, 123.512, 123.411, 124.745, 0, 280.761, 251.51, 214.257, 58.4668
