hour, t(sec), |V|1 (volts), |V|2 (volts), |V|3 (volts), |V|4 (volts), |I|1 (amps), |I|2 (amps), |I|3 (amps), |I|4 (amps)
0, 900.00000, 127.506, 126.717, 127.509, 0, 1.81899E-012, 56.9834, 56.9294, 57.0817
0, 1800.00000, 127.627, 126.872, 127.65, 0, 2.57244E-012, 53.1035, 53.0543, 53.1925
0, 2700.00000, 127.423, 126.696, 127.455, 0, 1.81899E-012, 50.7617, 50.7154, 50.8434
1, 0.00000, 127.331, 126.586, 127.336, 0, 0, 54.2544, 54.2051, 54.3411
1, 900.00000, 127.376, 126.651, 127.393, 0, 1.81899E-012, 51.9353, 51.8888, 52.0168
1, 1800.00000, 127.442, 126.734, 127.464, 0, 2.57244E-012, 50.2156, 50.1714, 50.2933
1, 2700.00000, 127.401, 126.672, 127.401, 0, 1.81899E-012, 52.6908, 52.6444, 52.7744
2, 0.00000, 127.364, 126.636, 127.374, 0, 0, 52.3554, 52.3089, 52.4379
2, 900.00000, 127.447, 126.728, 127.466, 0, 2.57244E-012, 51.0391, 50.9938, 51.1196
2, 1800.00000, 127.393, 126.668, 127.415, 0, 2.57244E-012, 50.8029, 50.7571, 50.8847
2, 2700.00000, 127.644, 126.953, 127.685, 0, 2.57244E-012, 47.4167, 47.3754, 47.4907
3, 0.00000, 127.782, 127.089, 127.801, 0, 1.81899E-012, 49.9209, 49.879, 49.9954
3, 900.00000, 127.703, 127.022, 127.742, 0, 2.57244E-012, 47.2705, 47.2304, 47.3421
3, 1800.00000, 127.808, 127.149, 127.86, 0, 1.81899E-012, 44.8249, 44.7875, 44.8913
3, 2700.00000, 127.612, 126.915, 127.654, 0, 1.81899E-012, 48.1977, 48.1555, 48.2723
4, 0.00000, 127.667, 126.977, 127.712, 0, 0, 47.6013, 47.5596, 47.6742
4, 900.00000, 127.72, 127.017, 127.757, 0, 1.81899E-012, 49.6815, 49.6381, 49.757
4, 1800.00000, 127.555, 126.826, 127.606, 0, 3.63798E-012, 50.1452, 50.0986, 50.2263
4, 2700.00000, 127.797, 127.115, 127.862, 0, 1.81899E-012, 45.3808, 45.3409, 45.4515
5, 0.00000, 127.7, 127.001, 127.77, 0, 1.81899E-012, 45.9808, 45.9392, 46.0549
5, 900.00000, 127.743, 127.055, 127.812, 0, 0, 45.2814, 45.2411, 45.3532
5, 1800.00000, 127.893, 127.205, 127.955, 0, 1.81899E-012, 46.0908, 46.0506, 46.1628
5, 2700.00000, 127.923, 127.243, 127.997, 0, 1.81899E-012, 44.1267, 44.088, 44.1969
6, 0.00000, 128.075, 127.423, 128.168, 0, 0, 40.1593, 40.1249, 40.2233
6, 900.00000, 127.921, 127.217, 128.029, 0, 0, 43.1005, 43.0598, 43.1742
6, 1800.00000, 127.902, 127.137, 128.001, 0, 0, 49.2632, 49.2136, 49.351
6, 2700.00000, 128.031, 127.28, 128.151, 0, 2.57244E-012, 46.9258, 46.8785, 47.009
7, 0.00000, 127.877, 127.12, 128.05, 0, 1.81899E-012, 43.3447, 43.2978, 43.426
7, 900.00000, 127.86, 127.08, 128.031, 0, 0, 43.8437, 43.7951, 43.9304
7, 1800.00000, 127.871, 127.119, 128.064, 0, 1.81899E-012, 41.2407, 41.1953, 41.3191
7, 2700.00000, 127.904, 127.178, 128.123, 0, 0, 37.211, 37.17, 37.2816
8, 0.00000, 127.798, 127.055, 128.025, 0, 1.81899E-012, 36.9955, 36.9536, 37.0691
8, 900.00000, 127.943, 127.235, 128.205, 0, 1.81899E-012, 32.9672, 32.9302, 33.0304
8, 1800.00000, 127.868, 127.136, 128.115, 0, 0, 36.388, 36.3466, 36.4579
8, 2700.00000, 127.523, 126.751, 127.775, 0, 0, 38.4623, 38.4154, 38.5401
9, 0.00000, 127.377, 126.583, 127.618, 0, 1.81899E-012, 40.2471, 40.1971, 40.3305
9, 900.00000, 127.413, 126.646, 127.666, 0, 1.81899E-012, 37.9652, 37.9188, 38.0416
9, 1800.00000, 127.438, 126.712, 127.728, 0, 0, 32.3281, 32.2889, 32.3923
9, 2700.00000, 127.581, 126.859, 127.857, 0, 0, 33.3754, 33.336, 33.44
10, 0.00000, 127.587, 126.907, 127.889, 0, 2.57244E-012, 28.3224, 28.2896, 28.376
10, 900.00000, 127.489, 126.775, 127.767, 0, 1.81899E-012, 32.3354, 32.2973, 32.3981
10, 1800.00000, 127.562, 126.882, 127.868, 0, 1.81899E-012, 27.8057, 27.7733, 27.8589
10, 2700.00000, 127.509, 126.829, 127.838, 0, 1.81899E-012, 26.4166, 26.3852, 26.4675
11, 0.00000, 127.545, 126.856, 127.866, 0, 1.81899E-012, 27.245, 27.2125, 27.2982
11, 900.00000, 127.667, 126.978, 127.961, 0, 0, 29.4222, 29.3882, 29.4785
11, 1800.00000, 127.489, 126.799, 127.77, 0, 0, 30.4047, 30.3697, 30.462
11, 2700.00000, 127.599, 126.922, 127.869, 0, 2.57244E-012, 29.5667, 29.5337, 29.6222
12, 0.00000, 127.693, 127.011, 127.948, 0, 1.81899E-012, 31.4802, 31.4456, 31.5383
12, 900.00000, 127.444, 126.73, 127.711, 0, 1.81899E-012, 32.9519, 32.9135, 33.0155
12, 1800.00000, 127.475, 126.743, 127.725, 0, 1.81899E-012, 35.2288, 35.1876, 35.2977
12, 2700.00000, 127.54, 126.834, 127.805, 0, 2.57244E-012, 33.3994, 33.361, 33.4618
13, 0.00000, 127.599, 126.898, 127.897, 0, 1.81899E-012, 29.7186, 29.6836, 29.7766
13, 900.00000, 127.506, 126.783, 127.795, 0, 0, 32.2016, 32.1629, 32.2652
13, 1800.00000, 127.438, 126.697, 127.707, 0, 1.81899E-012, 34.8264, 34.7844, 34.8957
13, 2700.00000, 127.11, 126.31, 127.396, 0, 1.81899E-012, 38.328, 38.2773, 38.4087
14, 0.00000, 127.198, 126.424, 127.505, 0, 1.81899E-012, 35.1544, 35.1082, 35.2272
14, 900.00000, 127.258, 126.514, 127.582, 0, 2.57244E-012, 31.9272, 31.8861, 31.9917
14, 1800.00000, 127.387, 126.648, 127.692, 0, 2.57244E-012, 33.0714, 33.03, 33.1371
14, 2700.00000, 127.397, 126.663, 127.683, 0, 1.81899E-012, 33.4755, 33.4343, 33.5414
15, 0.00000, 127.333, 126.577, 127.636, 0, 1.81899E-012, 33.896, 33.8529, 33.9654
15, 900.00000, 127.458, 126.737, 127.778, 0, 1.81899E-012, 30.2091, 30.1717, 30.2693
15, 1800.00000, 127.506, 126.752, 127.795, 0, 1.81899E-012, 34.7599, 34.7168, 34.8301
15, 2700.00000, 127.54, 126.783, 127.811, 0, 1.81899E-012, 36.6064, 36.5618, 36.6793
16, 0.00000, 127.466, 126.696, 127.734, 0, 0, 37.7949, 37.7481, 37.8707
16, 900.00000, 127.497, 126.744, 127.767, 0, 1.81899E-012, 37.0514, 37.0062, 37.1236
16, 1800.00000, 127.51, 126.776, 127.783, 0, 2.57244E-012, 34.8048, 34.7631, 34.8722
16, 2700.00000, 127.771, 127.051, 128.055, 0, 0, 32.8731, 32.8346, 32.9372
17, 0.00000, 127.677, 126.92, 127.93, 0, 2.57244E-012, 37.5721, 37.5275, 37.6465
17, 900.00000, 127.723, 127.018, 127.95, 0, 0, 35.1623, 35.1239, 35.2276
17, 1800.00000, 127.76, 127.051, 127.936, 0, 1.81899E-012, 38.189, 38.1494, 38.2594
17, 2700.00000, 127.767, 127.076, 127.929, 0, 2.57244E-012, 38.044, 38.006, 38.1116
18, 0.00000, 127.814, 127.139, 127.959, 0, 1.81899E-012, 37.3644, 37.3287, 37.43
18, 900.00000, 127.529, 126.824, 127.634, 0, 1.81899E-012, 42.7589, 42.7177, 42.8329
18, 1800.00000, 127.517, 126.765, 127.567, 0, 0, 50.2694, 50.2212, 50.3571
18, 2700.00000, 127.456, 126.722, 127.519, 0, 1.81899E-012, 47.5838, 47.5383, 47.6667
19, 0.00000, 127.353, 126.623, 127.424, 0, 2.57244E-012, 46.7739, 46.7287, 46.8553
19, 900.00000, 127.423, 126.703, 127.481, 0, 1.81899E-012, 47.3394, 47.2951, 47.4194
19, 1800.00000, 127.345, 126.582, 127.358, 0, 1.81899E-012, 54.0257, 53.9748, 54.1172
19, 2700.00000, 127.221, 126.45, 127.259, 0, 1.81899E-012, 54.1644, 54.111, 54.255
20, 0.00000, 127.306, 126.578, 127.37, 0, 0, 47.7813, 47.7354, 47.8622
20, 900.00000, 127.138, 126.391, 127.225, 0, 2.57244E-012, 49.6918, 49.641, 49.7739
20, 1800.00000, 127.296, 126.541, 127.342, 0, 0, 51.3429, 51.293, 51.4305
20, 2700.00000, 127.1, 126.303, 127.118, 0, 0, 57.4285, 57.3708, 57.5262
21, 0.00000, 126.96, 126.132, 126.993, 0, 0, 58.0411, 57.979, 58.1464
21, 900.00000, 127.135, 126.363, 127.203, 0, 0, 51.1713, 51.1186, 51.2617
21, 1800.00000, 127.094, 126.323, 127.166, 0, 0, 50.2326, 50.1806, 50.323
21, 2700.00000, 127.094, 126.309, 127.144, 0, 2.57244E-012, 53.9432, 53.8877, 54.0372
22, 0.00000, 127.231, 126.476, 127.293, 0, 0, 49.8321, 49.7824, 49.9193
22, 900.00000, 127.183, 126.421, 127.234, 0, 1.81899E-012, 50.3415, 50.2914, 50.4312
22, 1800.00000, 127.165, 126.417, 127.222, 0, 1.81899E-012, 48.82, 48.7719, 48.9062
22, 2700.00000, 127.293, 126.555, 127.368, 0, 1.81899E-012, 47.3567, 47.3099, 47.4397
23, 0.00000, 127.24, 126.484, 127.33, 0, 2.57244E-012, 48.1078, 48.0583, 48.1935
23, 900.00000, 127.372, 126.605, 127.426, 0, 0, 51.5959, 51.5447, 51.6861
23, 1800.00000, 127.352, 126.582, 127.419, 0, 1.81899E-012, 50.4551, 50.4041, 50.5456
23, 2700.00000, 127.435, 126.67, 127.497, 0, 1.81899E-012, 50.8691, 50.8184, 50.9587
24, 0.00000, 127.405, 126.652, 127.483, 0, 0, 48.8153, 48.7667, 48.9012
24, 900.00000, 127.506, 126.717, 127.509, 0, 0, 56.9841, 56.9299, 57.0823
