hour, t(sec), |V|1 (volts), |V|2 (volts), |V|3 (volts), |V|4 (volts), |I|1 (amps), |I|2 (amps), |I|3 (amps), |I|4 (amps)
0, 900.00000, 124.061, 123.885, 125.575, 0, 293.65, 273.214, 192.215, 93.8905
0, 1800.00000, 124.332, 124.166, 125.804, 0, 281.469, 260.947, 182.921, 90.9657
0, 2700.00000, 124.23, 124.075, 125.652, 0, 269.157, 248.855, 174.202, 87.4522
1, 0.00000, 124.036, 123.86, 125.492, 0, 276.865, 258.645, 179.221, 90.8182
1, 900.00000, 124.082, 123.912, 125.536, 0, 276.658, 258.415, 178.974, 90.8441
1, 1800.00000, 124.207, 124.035, 125.613, 0, 269.077, 251.479, 174.852, 87.6096
1, 2700.00000, 124.085, 123.913, 125.512, 0, 275.716, 257.634, 179.402, 89.52
2, 0.00000, 124.071, 123.886, 125.499, 0, 273.541, 256.491, 177.81, 89.3112
2, 900.00000, 124.268, 124.085, 125.662, 0, 264.745, 247.683, 171.242, 87.066
2, 1800.00000, 124.155, 123.974, 125.571, 0, 268.975, 251.074, 173.962, 88.2884
2, 2700.00000, 124.35, 124.172, 125.728, 0, 261.845, 244.648, 169.576, 85.7865
3, 0.00000, 124.71, 124.55, 126.049, 0, 244.339, 226.98, 154.465, 83.3026
3, 900.00000, 124.533, 124.384, 125.904, 0, 250.943, 232.101, 159.055, 84.8282
3, 1800.00000, 124.966, 124.821, 126.305, 0, 245.935, 227.319, 155.987, 82.9629
3, 2700.00000, 124.579, 124.416, 125.988, 0, 260.799, 242.239, 166.388, 87.4512
4, 0.00000, 124.694, 124.533, 126.079, 0, 256.012, 237.569, 163.37, 85.7251
4, 900.00000, 124.869, 124.699, 126.233, 0, 246.687, 229.399, 155.703, 84.4508
4, 1800.00000, 124.533, 124.349, 125.956, 0, 260.928, 242.796, 166.154, 87.9748
4, 2700.00000, 125.167, 124.979, 126.477, 0, 244.226, 227.836, 157.331, 80.6995
5, 0.00000, 124.928, 124.73, 126.29, 0, 255.823, 239.298, 165.265, 84.321
5, 900.00000, 125.01, 124.828, 126.361, 0, 252.981, 235.451, 162.957, 83.4343
5, 1800.00000, 124.953, 124.743, 126.292, 0, 254.559, 239.791, 165.803, 83.1524
5, 2700.00000, 124.986, 124.782, 126.308, 0, 253.943, 238.33, 166.325, 81.7151
6, 0.00000, 125.335, 125.142, 126.574, 0, 238.223, 221.973, 156.515, 75.5924
6, 900.00000, 125.037, 124.829, 126.354, 0, 250.666, 233.242, 164.466, 79.7112
6, 1800.00000, 125.095, 124.838, 126.42, 0, 246.5, 232.323, 160.552, 80.6023
6, 2700.00000, 125.66, 125.538, 126.923, 0, 220.964, 206, 141.581, 73.8744
7, 0.00000, 125.353, 125.207, 126.656, 0, 234.006, 218.854, 153.089, 75.4022
7, 900.00000, 125.361, 125.199, 126.617, 0, 232.437, 217.087, 155.008, 71.8634
7, 1800.00000, 125.939, 125.864, 127.097, 0, 202.098, 191.371, 134.023, 64.3844
7, 2700.00000, 125.999, 125.923, 127.118, 0, 199.561, 188.974, 134.685, 61.2413
8, 0.00000, 125.752, 125.655, 126.884, 0, 211.795, 201.545, 146.193, 62.1497
8, 900.00000, 126.115, 126.005, 127.186, 0, 194.073, 186.101, 133.437, 58.1064
8, 1800.00000, 126.046, 125.957, 127.165, 0, 193.301, 183.237, 129.359, 60.5213
8, 2700.00000, 125.923, 125.912, 127.051, 0, 196.167, 186.614, 133.917, 59.2559
9, 0.00000, 125.657, 125.571, 126.771, 0, 206.997, 203.191, 145.946, 60.8365
9, 900.00000, 125.744, 125.701, 126.876, 0, 202.45, 195.703, 139.908, 60.858
9, 1800.00000, 126.428, 126.581, 127.457, 0, 175.513, 171.561, 124.518, 51.1555
9, 2700.00000, 126.724, 126.859, 127.707, 0, 162.88, 161.892, 114.903, 49.7774
10, 0.00000, 126.722, 126.863, 127.678, 0, 162.798, 162.023, 117.106, 47.6264
10, 900.00000, 126.514, 126.641, 127.498, 0, 172.529, 171.914, 124.586, 50.0128
10, 1800.00000, 126.615, 126.743, 127.556, 0, 170.374, 170.317, 125.951, 46.8383
10, 2700.00000, 127.119, 127.561, 128.099, 0, 159.775, 160.097, 117.814, 45.8367
11, 0.00000, 127.172, 127.632, 128.142, 0, 158.805, 157.49, 117.312, 44.2348
11, 900.00000, 127.493, 127.925, 128.376, 0, 142.712, 145.198, 107.19, 40.9936
11, 1800.00000, 127.384, 127.933, 128.35, 0, 148.185, 148.113, 107.449, 44.6369
11, 2700.00000, 127.549, 128.1, 128.451, 0, 142.67, 143.277, 106.359, 40.7453
12, 0.00000, 127.738, 128.289, 128.619, 0, 136.244, 137.733, 101.185, 40.1497
12, 900.00000, 127.182, 127.707, 128.163, 0, 161.857, 163.286, 120.184, 46.7193
12, 1800.00000, 127.348, 127.905, 128.319, 0, 150.899, 149.447, 109.774, 44.0544
12, 2700.00000, 127.423, 128.029, 128.395, 0, 148.561, 149.344, 108.64, 44.7293
13, 0.00000, 127.586, 128.188, 128.515, 0, 140.999, 140.773, 104.426, 40.6423
13, 900.00000, 127.389, 127.982, 128.36, 0, 150.029, 150.008, 110.506, 43.752
13, 1800.00000, 127.301, 127.862, 128.257, 0, 152.375, 155.081, 113.767, 44.9314
13, 2700.00000, 126.569, 127.124, 127.687, 0, 187.441, 187.516, 138.347, 53.515
14, 0.00000, 126.828, 127.398, 127.913, 0, 173.541, 172.863, 126.98, 50.4031
14, 900.00000, 127, 127.59, 128.063, 0, 163.246, 161.617, 118.402, 47.9758
14, 1800.00000, 127.192, 127.755, 128.194, 0, 157.822, 159.769, 117.064, 46.4937
14, 2700.00000, 127.406, 127.964, 128.346, 0, 149.976, 154.249, 113.496, 44.1839
15, 0.00000, 127.365, 127.895, 128.321, 0, 148.845, 153.855, 111.54, 45.5649
15, 900.00000, 127.603, 128.148, 128.51, 0, 138.753, 143.577, 105.199, 41.814
15, 1800.00000, 127.408, 127.936, 128.379, 0, 149.622, 152.949, 110.699, 45.6291
15, 2700.00000, 127.474, 127.998, 128.421, 0, 147.726, 152.152, 110.467, 44.8764
16, 0.00000, 127.303, 127.828, 128.304, 0, 155.14, 158.836, 113.959, 48.1223
16, 900.00000, 127.312, 127.843, 128.323, 0, 155.833, 159.969, 113.885, 49.2057
16, 1800.00000, 127.303, 127.853, 128.304, 0, 157.355, 160.191, 115.738, 47.8969
16, 2700.00000, 127.02, 127.374, 128.007, 0, 166.392, 167.56, 122.92, 47.6284
17, 0.00000, 126.788, 127.143, 127.837, 0, 178.373, 179.065, 129.872, 52.3397
17, 900.00000, 126.864, 127.23, 127.839, 0, 174.762, 176.912, 130.739, 48.8661
17, 1800.00000, 125.862, 125.936, 126.938, 0, 215.348, 212.949, 156.883, 59.3359
17, 2700.00000, 125.893, 125.982, 126.974, 0, 212.152, 209.659, 152.747, 60.2009
18, 0.00000, 125.942, 126.059, 126.988, 0, 210.709, 206.432, 153.528, 56.9965
18, 900.00000, 125.256, 125.376, 126.438, 0, 242.098, 237.087, 174.906, 66.7904
18, 1800.00000, 125.208, 125.318, 126.423, 0, 245.714, 241.861, 175.252, 70.6669
18, 2700.00000, 124.097, 123.865, 125.383, 0, 283.578, 277.659, 202.885, 79.1082
19, 0.00000, 123.744, 123.562, 125.136, 0, 302.729, 292.06, 214.239, 84.9036
19, 900.00000, 123.894, 123.726, 125.283, 0, 295.891, 284.962, 206.945, 85.2066
19, 1800.00000, 123.488, 123.19, 124.94, 0, 312.155, 301.742, 216.602, 91.8483
19, 2700.00000, 123.175, 122.882, 124.731, 0, 327.884, 316.81, 225.975, 98.037
20, 0.00000, 123.335, 123.024, 124.798, 0, 321.779, 312.03, 226.187, 92.2206
20, 900.00000, 123.024, 122.78, 124.679, 0, 333.413, 317.767, 224.854, 102.912
20, 1800.00000, 123.285, 123.025, 124.819, 0, 325.262, 311.002, 224.273, 95.8086
20, 2700.00000, 123.161, 122.888, 124.77, 0, 330.543, 317.343, 224.065, 101.736
21, 0.00000, 123.023, 122.718, 124.634, 0, 331.422, 318.725, 225.561, 101.357
21, 900.00000, 123.362, 123.089, 124.896, 0, 318.275, 304.067, 217.95, 95.1673
21, 1800.00000, 123.406, 123.159, 124.945, 0, 320.134, 303.377, 218.858, 95.1459
21, 2700.00000, 123.474, 123.227, 125.049, 0, 314.435, 298.429, 210.243, 98.3064
22, 0.00000, 123.754, 123.501, 125.239, 0, 303.241, 288.152, 205.008, 92.6516
22, 900.00000, 123.561, 123.308, 125.061, 0, 314.948, 299.288, 215.504, 93.6736
22, 1800.00000, 123.55, 123.301, 125.045, 0, 313.788, 298.044, 214.76, 93.2265
22, 2700.00000, 123.822, 123.565, 125.274, 0, 304.912, 290.172, 209.369, 90.109
23, 0.00000, 123.624, 123.378, 125.166, 0, 316.624, 300.149, 215.009, 95.5715
23, 900.00000, 123.941, 123.679, 125.425, 0, 302.771, 288.785, 204.552, 93.0499
23, 1800.00000, 123.691, 123.462, 125.228, 0, 312.09, 294.346, 210.114, 95.4375
23, 2700.00000, 123.928, 123.669, 125.414, 0, 299.621, 285.168, 201.187, 93.0788
24, 0.00000, 123.839, 123.606, 125.359, 0, 303.628, 286.705, 202.958, 94.4078
24, 900.00000, 124.061, 123.885, 125.575, 0, 293.657, 273.22, 192.217, 93.8943
