hour, t(sec), |V|1 (volts), |V|2 (volts), |V|3 (volts), |V|4 (volts), |I|1 (amps), |I|2 (amps), |I|3 (amps), |I|4 (amps)
0, 900.00000, 122.024, 121.664, 123.091, 0, 252.674, 252.821, 183.437, 69.9992
0, 1800.00000, 122.11, 121.757, 123.167, 0, 253.946, 254.092, 185.415, 69.2892
0, 2700.00000, 124.641, 124.276, 125.656, 0, 251.684, 251.814, 185.053, 67.3373
1, 0.00000, 124.556, 124.194, 125.603, 0, 251.824, 251.953, 182.51, 70.0198
1, 900.00000, 124.596, 124.239, 125.639, 0, 251.496, 251.623, 182.433, 69.7622
1, 1800.00000, 126.436, 126.069, 127.434, 0, 251.073, 251.19, 184.342, 67.3903
1, 2700.00000, 126.437, 126.066, 127.434, 0, 247.909, 248.026, 180.863, 67.6918
2, 0.00000, 126.388, 126.016, 127.396, 0, 249.526, 249.645, 182.044, 68.1444
2, 900.00000, 126.519, 126.148, 127.514, 0, 244.555, 244.67, 177.95, 67.2476
2, 1800.00000, 126.5, 126.122, 127.501, 0, 242.163, 242.279, 175.157, 67.6497
2, 2700.00000, 126.962, 126.591, 127.939, 0, 238.39, 238.498, 173.036, 65.971
3, 0.00000, 127.076, 126.72, 128.044, 0, 238.785, 238.889, 173.825, 65.5616
3, 900.00000, 127.047, 126.685, 128.02, 0, 235.148, 235.252, 169.981, 65.7685
3, 1800.00000, 125.817, 125.473, 126.793, 0, 238.376, 238.484, 173.59, 65.4046
3, 2700.00000, 125.561, 125.201, 126.579, 0, 245.905, 246.023, 178.406, 68.1676
4, 0.00000, 125.647, 125.291, 126.645, 0, 242.579, 242.694, 176.665, 66.568
4, 900.00000, 125.741, 125.387, 126.729, 0, 238.745, 238.857, 173.753, 65.636
4, 1800.00000, 125.477, 125.1, 126.51, 0, 249.656, 249.782, 181.807, 68.5595
4, 2700.00000, 125.227, 124.872, 126.179, 0, 234.353, 234.467, 172.577, 62.4141
5, 0.00000, 125.186, 124.819, 126.166, 0, 230.687, 230.803, 167.071, 64.2615
5, 900.00000, 125.142, 124.781, 126.12, 0, 237.65, 237.768, 173.933, 64.3739
5, 1800.00000, 124.587, 124.234, 125.562, 0, 238.349, 238.468, 175.23, 63.7822
5, 2700.00000, 124.758, 124.402, 125.7, 0, 225.862, 225.974, 165.332, 61.1535
6, 0.00000, 125.073, 124.72, 125.954, 0, 210.285, 210.387, 154.179, 56.668
6, 900.00000, 124.819, 124.438, 125.754, 0, 221.308, 221.425, 162.437, 59.5173
6, 1800.00000, 124.948, 124.55, 125.898, 0, 210.032, 210.148, 150.974, 59.701
6, 2700.00000, 125.255, 124.979, 126.184, 0, 171.999, 172.017, 115.289, 57.2762
7, 0.00000, 125.185, 124.884, 126.12, 0, 167.092, 167.109, 111.443, 56.2408
7, 900.00000, 125.264, 124.948, 126.149, 0, 159.13, 159.144, 107.527, 52.1743
7, 1800.00000, 126.961, 126.768, 127.798, 0, 114.829, 114.805, 69.3809, 48.0351
7, 2700.00000, 126.958, 126.766, 127.76, 0, 117.071, 117.048, 74.2422, 45.0473
8, 0.00000, 126.919, 126.71, 127.713, 0, 112.91, 112.884, 71.1088, 44.1549
8, 900.00000, 127.083, 126.884, 127.858, 0, 109.542, 109.517, 69.7786, 42.1227
8, 1800.00000, 126.866, 126.664, 127.69, 0, 122.494, 122.468, 78.8066, 45.7217
8, 2700.00000, 126.251, 126.137, 127.088, 0, 100.879, 100.866, 62.5099, 45.4587
9, 0.00000, 126.238, 126.115, 127.056, 0, 92.5256, 92.5136, 57.1014, 43.8718
9, 900.00000, 126.073, 125.96, 126.925, 0, 107.733, 107.72, 67.2791, 46.6764
9, 1800.00000, 127.93, 128.031, 128.72, 0, 73.4836, 73.4177, 70.3715, 41.0947
9, 2700.00000, 128.156, 128.269, 128.926, 0, 70.6203, 70.5309, 72.5793, 39.8698
10, 0.00000, 128.242, 128.364, 128.984, 0, 69.2953, 69.1873, 74.4914, 37.5149
10, 900.00000, 128.024, 128.137, 128.777, 0, 71.8837, 71.8029, 70.8766, 38.4912
10, 1800.00000, 128.098, 128.216, 128.821, 0, 71.4262, 71.3386, 70.5335, 35.8315
10, 2700.00000, 128.808, 129.237, 129.614, 0, 121.816, 120.935, 144.834, 41.2697
11, 0.00000, 128.794, 129.221, 129.592, 0, 120.012, 119.143, 141.907, 40.8265
11, 900.00000, 129.093, 129.534, 129.827, 0, 128.604, 127.68, 150.655, 36.2451
11, 1800.00000, 128.986, 129.516, 129.799, 0, 141.108, 139.884, 167.171, 43.0013
11, 2700.00000, 129.301, 129.84, 130.043, 0, 153.147, 151.884, 178.316, 37.7943
12, 0.00000, 129.315, 129.863, 130.064, 0, 149.398, 148.118, 174.434, 38.5896
12, 900.00000, 129.047, 129.571, 129.834, 0, 145.939, 144.719, 171.679, 40.6908
12, 1800.00000, 129.036, 129.558, 129.839, 0, 143.871, 142.662, 170.274, 42.313
12, 2700.00000, 129.628, 130.224, 130.435, 0, 151.001, 149.546, 176.54, 41.8783
13, 0.00000, 129.773, 130.354, 130.561, 0, 155.597, 154.171, 180.946, 39.9696
13, 900.00000, 129.621, 130.195, 130.431, 0, 151.63, 150.231, 177.168, 41.5742
13, 1800.00000, 130.39, 130.965, 131.196, 0, 153.291, 151.892, 179.356, 41.1477
13, 2700.00000, 129.76, 130.299, 130.672, 0, 136.669, 135.418, 161.416, 48.032
14, 0.00000, 129.727, 130.271, 130.652, 0, 132.898, 131.663, 156.09, 49.2207
14, 900.00000, 129.813, 130.366, 130.736, 0, 134.215, 132.945, 158.27, 49.0871
14, 1800.00000, 130.129, 130.695, 130.988, 0, 142.495, 141.147, 167.529, 44.2371
14, 2700.00000, 131.174, 131.764, 131.992, 0, 152.814, 151.375, 178.705, 41.2087
15, 0.00000, 131.168, 131.737, 132, 0, 154.75, 153.361, 181.568, 41.7974
15, 900.00000, 131.297, 131.88, 132.101, 0, 156.493, 155.061, 181.875, 39.3568
15, 1800.00000, 131.419, 131.966, 132.255, 0, 146.789, 145.499, 173.437, 42.2468
15, 2700.00000, 131.375, 131.932, 132.204, 0, 143.165, 141.861, 168.579, 41.9553
16, 0.00000, 131.232, 131.782, 132.095, 0, 139.182, 137.911, 165.099, 44.5527
16, 900.00000, 131.315, 131.875, 132.179, 0, 142.084, 140.775, 169.031, 44.6154
16, 1800.00000, 131.339, 131.905, 132.18, 0, 142.916, 141.592, 169.047, 43.1149
16, 2700.00000, 129.641, 129.992, 130.428, 0, 100.003, 99.414, 115.798, 39.77
17, 0.00000, 129.545, 129.891, 130.374, 0, 99.6528, 99.0773, 116.912, 43.4659
17, 900.00000, 129.584, 129.962, 130.35, 0, 99.8613, 99.219, 115.498, 40.0439
17, 1800.00000, 126.663, 126.716, 127.428, 0, 89.037, 89.0336, 63.028, 42.4068
17, 2700.00000, 126.613, 126.679, 127.394, 0, 92.5102, 92.5085, 64.0298, 44.5203
18, 0.00000, 126.615, 126.69, 127.364, 0, 94.705, 94.7043, 66.0874, 42.8135
18, 900.00000, 126.061, 126.135, 126.882, 0, 117.311, 117.318, 78.6668, 48.6695
18, 1800.00000, 126.028, 126.104, 126.891, 0, 119.388, 119.396, 77.5322, 52.7355
18, 2700.00000, 123.597, 123.334, 124.432, 0, 193.352, 193.383, 143.128, 50.7286
19, 0.00000, 123.282, 123.017, 124.167, 0, 212.146, 212.185, 158.307, 54.377
19, 900.00000, 123.289, 123.034, 124.198, 0, 216.487, 216.526, 160.166, 56.8591
19, 1800.00000, 122.117, 121.757, 123.048, 0, 247.779, 247.925, 189.634, 58.8795
19, 2700.00000, 121.656, 121.293, 122.69, 0, 278.107, 278.275, 213.221, 65.7675
20, 0.00000, 121.855, 121.493, 122.821, 0, 267.035, 267.195, 206.815, 61.0377
20, 900.00000, 121.164, 120.799, 122.325, 0, 313.799, 313.996, 239.956, 74.8978
20, 1800.00000, 124.363, 123.964, 125.384, 0, 285.309, 285.472, 219.92, 66.2566
20, 2700.00000, 124.346, 123.945, 125.426, 0, 283.43, 283.594, 213.755, 70.5582
21, 0.00000, 124.091, 123.664, 125.209, 0, 295.793, 295.977, 223.571, 73.1848
21, 900.00000, 124.5, 124.087, 125.533, 0, 273.409, 273.571, 207.795, 66.4737
21, 1800.00000, 124.535, 124.118, 125.568, 0, 273.613, 273.776, 207.667, 66.8018
21, 2700.00000, 124.557, 124.148, 125.624, 0, 271.916, 272.074, 203.3, 69.4673
22, 0.00000, 124.885, 124.481, 125.881, 0, 254.039, 254.183, 190.214, 64.5869
22, 900.00000, 124.854, 124.446, 125.845, 0, 252.896, 253.04, 189.114, 64.5326
22, 1800.00000, 124.834, 124.429, 125.831, 0, 253.153, 253.297, 188.761, 65.1411
22, 2700.00000, 124.846, 124.443, 125.836, 0, 260.222, 260.369, 196.79, 64.2067
23, 0.00000, 124.79, 124.377, 125.829, 0, 261.142, 261.293, 194.841, 67.1157
23, 900.00000, 125, 124.599, 126.023, 0, 253.348, 253.49, 187.293, 66.8139
23, 1800.00000, 124.791, 124.38, 125.861, 0, 266.487, 266.641, 196.981, 70.3255
23, 2700.00000, 125.088, 124.684, 126.113, 0, 247.485, 247.623, 181.329, 66.9002
24, 0.00000, 124.969, 124.563, 126.017, 0, 255.193, 255.337, 187.456, 68.5156
24, 900.00000, 125.098, 124.706, 126.143, 0, 251.519, 251.655, 182.654, 69.592
