hour, t(sec), |V|1 (volts), |V|2 (volts), |V|3 (volts), |V|4 (volts), |I|1 (amps), |I|2 (amps), |I|3 (amps), |I|4 (amps)
0, 900.00000, 120.428, 120.205, 121.449, 0, 277.468, 275.828, 207.902, 69.5136
0, 1800.00000, 120.661, 120.445, 121.653, 0, 264.576, 262.634, 197.208, 67.1232
0, 2700.00000, 124.761, 124.496, 125.671, 0, 250.845, 251.512, 188.849, 62.8265
1, 0.00000, 124.626, 124.376, 125.639, 0, 256.437, 256.02, 185.851, 70.89
1, 900.00000, 124.755, 124.518, 125.754, 0, 247.956, 246.736, 178.37, 69.4741
1, 1800.00000, 127.812, 127.542, 128.759, 0, 243.384, 243.776, 176.674, 67.3574
1, 2700.00000, 127.719, 127.449, 128.652, 0, 248.774, 248.86, 183.081, 66.1929
2, 0.00000, 127.669, 127.408, 128.637, 0, 251.163, 250.451, 182.842, 68.4399
2, 900.00000, 127.826, 127.541, 128.77, 0, 242.695, 244.073, 176.195, 67.648
2, 1800.00000, 127.744, 127.468, 128.695, 0, 246.603, 246.836, 179.619, 67.5616
2, 2700.00000, 128.525, 128.253, 129.448, 0, 234.567, 234.807, 169.444, 65.6691
3, 0.00000, 128.766, 128.5, 129.64, 0, 222.034, 222.631, 160.754, 61.97
3, 900.00000, 128.661, 128.41, 129.55, 0, 226.417, 225.278, 164.028, 62.2323
3, 1800.00000, 126.715, 126.484, 127.566, 0, 214.833, 213.584, 156.319, 58.286
3, 2700.00000, 126.348, 126.098, 127.281, 0, 234.742, 234.147, 170.028, 64.8665
4, 0.00000, 126.428, 126.196, 127.343, 0, 231.207, 229.314, 167.925, 62.7922
4, 900.00000, 126.543, 126.291, 127.445, 0, 224.669, 224.624, 162.437, 62.633
4, 1800.00000, 126.272, 125.988, 127.207, 0, 238.554, 239.842, 174.33, 65.3512
4, 2700.00000, 125.566, 125.312, 126.46, 0, 226.255, 226.517, 164.969, 61.8477
5, 0.00000, 125.466, 125.218, 126.408, 0, 229.088, 228.133, 164.084, 64.98
5, 900.00000, 125.526, 125.284, 126.413, 0, 226.618, 225.471, 166.106, 60.3815
5, 1800.00000, 124.565, 124.313, 125.533, 0, 234.873, 235.206, 167.799, 67.7016
5, 2700.00000, 124.611, 124.378, 125.553, 0, 232.781, 231.314, 167.814, 64.699
6, 0.00000, 124.816, 124.587, 125.678, 0, 224.317, 222.58, 165.496, 58.3898
6, 900.00000, 124.563, 124.311, 125.469, 0, 237.523, 236.192, 176.411, 60.9386
6, 1800.00000, 124.581, 124.286, 125.554, 0, 235.466, 236.811, 169.307, 67.3431
6, 2700.00000, 124.73, 124.534, 125.587, 0, 197.657, 197.794, 143.526, 54.5579
7, 0.00000, 124.534, 124.322, 125.423, 0, 205.899, 205.96, 150.206, 56.122
7, 900.00000, 124.342, 124.055, 125.193, 0, 220.822, 226.217, 168.175, 56.1625
7, 1800.00000, 126.748, 126.578, 127.536, 0, 168.942, 171.595, 123.073, 47.7385
7, 2700.00000, 126.801, 126.648, 127.562, 0, 166.076, 167.259, 122.417, 44.6347
8, 0.00000, 126.608, 126.436, 127.389, 0, 176.233, 178.038, 131.097, 46.5049
8, 900.00000, 126.975, 126.818, 127.76, 0, 153.476, 154.583, 107.994, 46.3971
8, 1800.00000, 126.895, 126.737, 127.673, 0, 156.136, 157.234, 111.721, 45.3337
8, 2700.00000, 125.492, 125.407, 126.274, 0, 154.838, 155.1, 112.859, 42.4249
9, 0.00000, 125.263, 125.139, 126.16, 0, 165.414, 168.369, 113.709, 53.8885
9, 900.00000, 125.416, 125.316, 126.249, 0, 154.748, 156.345, 108.511, 47.5515
9, 1800.00000, 127.642, 127.664, 128.391, 0, 116.541, 120.213, 80.8705, 39.1736
9, 2700.00000, 127.918, 127.919, 128.679, 0, 101.795, 107.762, 65.3538, 42.6104
10, 0.00000, 127.956, 128.005, 128.728, 0, 98.9696, 101.594, 61.7817, 40.8885
10, 900.00000, 127.716, 127.715, 128.489, 0, 112.619, 118.796, 74.8091, 43.6236
10, 1800.00000, 127.843, 127.9, 128.606, 0, 106.142, 107.996, 69.2868, 39.3687
10, 2700.00000, 128.424, 128.71, 129.162, 0, 81.9167, 82.4148, 57.3125, 32.2375
11, 0.00000, 128.421, 128.699, 129.11, 0, 83.031, 83.8217, 59.1637, 29.3222
11, 900.00000, 128.612, 128.902, 129.296, 0, 78.2031, 78.7691, 56.3809, 29.4306
11, 1800.00000, 128.506, 128.786, 129.197, 0, 84.3675, 87.4585, 61.9875, 35.2933
11, 2700.00000, 128.571, 128.905, 129.253, 0, 84.3227, 85.6294, 61.9862, 31.2744
12, 0.00000, 128.734, 129.075, 129.377, 0, 81.3172, 82.2076, 61.2163, 28.9487
12, 900.00000, 128.356, 128.682, 129.076, 0, 88.8927, 90.5109, 63.9193, 32.9717
12, 1800.00000, 128.358, 128.691, 129.037, 0, 89.8481, 91.1633, 65.6858, 29.7233
12, 2700.00000, 129.526, 129.909, 130.237, 0, 86.1474, 86.9119, 64.2287, 31.4015
13, 0.00000, 129.613, 129.987, 130.266, 0, 85.0627, 85.6376, 64.3342, 27.6727
13, 900.00000, 129.476, 129.834, 130.163, 0, 87.1499, 88.36, 64.9375, 30.4206
13, 1800.00000, 130.655, 130.998, 131.402, 0, 88.1071, 90.3177, 63.9612, 35.5726
13, 2700.00000, 130.178, 130.525, 130.997, 0, 100.802, 102.431, 70.5834, 36.7429
14, 0.00000, 130.36, 130.691, 131.131, 0, 94.7188, 97.0624, 67.8003, 35.0414
14, 900.00000, 130.489, 130.834, 131.245, 0, 90.7801, 92.4303, 65.5649, 33.4613
14, 1800.00000, 130.665, 131.043, 131.438, 0, 86.9414, 87.4248, 63.3151, 33.1695
14, 2700.00000, 132.086, 132.475, 132.895, 0, 87.0463, 87.8953, 62.6712, 36.5284
15, 0.00000, 132.048, 132.348, 132.869, 0, 87.2258, 91.1304, 62.6677, 42.9601
15, 900.00000, 132.241, 132.608, 133.031, 0, 83.6715, 84.7073, 62.3761, 36.2962
15, 1800.00000, 132.572, 132.918, 133.401, 0, 86.9944, 88.6636, 60.9149, 38.8843
15, 2700.00000, 132.571, 132.91, 133.389, 0, 87.8017, 90.1695, 61.3483, 39.3311
16, 0.00000, 132.489, 132.824, 133.326, 0, 89.6874, 92.1255, 61.8798, 40.3311
16, 900.00000, 132.575, 132.953, 133.444, 0, 86.7526, 87.391, 60.4304, 40.062
16, 1800.00000, 132.608, 133.013, 133.422, 0, 85.6013, 85.2998, 60.6606, 34.372
16, 2700.00000, 130.093, 130.315, 130.893, 0, 97.7327, 99.3824, 64.1695, 38.2998
17, 0.00000, 129.97, 130.204, 130.808, 0, 101.991, 102.622, 65.6312, 40.2255
17, 900.00000, 129.948, 130.206, 130.75, 0, 104.686, 105.286, 69.2443, 38.4716
17, 1800.00000, 125.831, 125.812, 126.696, 0, 162.257, 166.628, 113.597, 52.0111
17, 2700.00000, 125.853, 125.795, 126.727, 0, 160.507, 168.997, 110.72, 56.1147
18, 0.00000, 125.738, 125.714, 126.588, 0, 172.593, 178.74, 124.189, 52.9613
18, 900.00000, 125.222, 125.165, 126.152, 0, 199.767, 208.668, 145.36, 60.8077
18, 1800.00000, 125.188, 125.107, 126.169, 0, 202.224, 213.169, 143.197, 66.7903
18, 2700.00000, 122.013, 121.694, 123.137, 0, 274.389, 285.739, 198.017, 83.3683
19, 0.00000, 121.887, 121.609, 122.967, 0, 279.087, 286.938, 207.075, 76.9616
19, 900.00000, 121.989, 121.649, 123.066, 0, 274.212, 287.768, 201.921, 80.733
19, 1800.00000, 120.387, 120.01, 121.543, 0, 304.092, 315.254, 223.272, 87.833
19, 2700.00000, 120.318, 119.977, 121.543, 0, 303.6, 311.726, 218.254, 90.5989
20, 0.00000, 120.342, 119.977, 121.546, 0, 305.743, 315.828, 221.46, 90.6576
20, 900.00000, 120.411, 120.093, 121.61, 0, 292.178, 298.195, 209.951, 86.302
20, 1800.00000, 124.78, 124.416, 125.941, 0, 305.188, 311.837, 223.711, 85.6629
20, 2700.00000, 124.809, 124.446, 126.029, 0, 300.138, 306.684, 214.139, 90.1175
21, 0.00000, 124.487, 123.961, 125.738, 0, 319.507, 337.987, 231.461, 99.2883
21, 900.00000, 124.836, 124.488, 125.994, 0, 300.22, 304.677, 219.49, 83.7255
21, 1800.00000, 124.911, 124.543, 126.016, 0, 296.179, 302.141, 219.557, 80.4293
21, 2700.00000, 125.029, 124.652, 126.148, 0, 286.339, 293.586, 208.637, 82.1986
22, 0.00000, 125.2, 124.808, 126.27, 0, 279.705, 288.376, 205.153, 79.8332
22, 900.00000, 124.995, 124.603, 126.076, 0, 293.77, 302.213, 218.276, 80.6722
22, 1800.00000, 124.963, 124.583, 126.069, 0, 295.466, 303.083, 217.765, 82.3987
22, 2700.00000, 125.139, 124.786, 126.217, 0, 287.045, 292.582, 211.773, 78.7954
23, 0.00000, 125.176, 124.856, 126.274, 0, 281.321, 283.509, 205.206, 77.8561
23, 900.00000, 125.356, 125.028, 126.449, 0, 273.86, 277.422, 197.272, 79.0088
23, 1800.00000, 125.243, 124.928, 126.312, 0, 280.206, 282.065, 206.053, 75.7082
23, 2700.00000, 125.431, 125.117, 126.518, 0, 269.049, 271.369, 193.026, 77.7808
24, 0.00000, 125.39, 125.083, 126.456, 0, 270.932, 272.485, 197.04, 75.2652
24, 900.00000, 125.4, 125.132, 126.405, 0, 276.04, 275.053, 206.402, 69.7169
