hour, t(sec), |V|1 (volts), |V|2 (volts), |V|3 (volts), |V|4 (volts), |I|1 (amps), |I|2 (amps), |I|3 (amps), |I|4 (amps)
0, 900.00000, 125.082, 124.592, 125.399, 0, 85.7393, 88.2968, 85.7239, 3.01268
0, 1800.00000, 125.328, 124.844, 125.6, 0, 81.572, 84.263, 82.8595, 2.68829
0, 2700.00000, 125.614, 125.133, 125.864, 0, 78.9126, 81.8824, 80.6838, 2.89291
1, 0.00000, 125.425, 124.948, 125.659, 0, 82.1464, 85.1042, 84.3458, 2.93218
1, 900.00000, 125.522, 125.037, 125.731, 0, 80.4167, 83.7842, 83.3285, 3.38697
1, 1800.00000, 125.473, 125.005, 125.691, 0, 80.7182, 83.7425, 83.1825, 3.02304
1, 2700.00000, 125.389, 124.957, 125.657, 0, 82.1436, 83.8968, 82.887, 1.87561
2, 0.00000, 125.267, 124.867, 125.569, 0, 84.8591, 85.5797, 84.7641, 1.18623
2, 900.00000, 125.49, 125.049, 125.74, 0, 80.369, 82.3925, 81.8804, 2.08649
2, 1800.00000, 125.43, 124.993, 125.7, 0, 80.6396, 82.3315, 81.5867, 1.79186
2, 2700.00000, 125.538, 125.092, 125.776, 0, 78.6303, 80.9126, 80.45, 2.32889
3, 0.00000, 125.942, 125.495, 126.149, 0, 70.0197, 72.8196, 72.6335, 2.87723
3, 900.00000, 125.884, 125.421, 126.087, 0, 69.4025, 72.5352, 72.2951, 3.18845
3, 1800.00000, 125.945, 125.492, 126.141, 0, 69.8904, 72.9199, 72.9156, 3.17481
3, 2700.00000, 125.573, 125.123, 125.802, 0, 75.7897, 78.1927, 78.1054, 2.54205
4, 0.00000, 125.682, 125.239, 125.918, 0, 73.9712, 76.2731, 76.0527, 2.39267
4, 900.00000, 125.86, 125.427, 126.107, 0, 70.0235, 72.0754, 71.8299, 2.12958
4, 1800.00000, 125.458, 125.024, 125.746, 0, 77.8373, 79.1936, 78.8055, 1.49501
4, 2700.00000, 125.676, 125.268, 125.965, 0, 74.3353, 75.3789, 74.8044, 1.22559
5, 0.00000, 125.543, 125.103, 125.823, 0, 75.6763, 77.3382, 76.6857, 1.74682
5, 900.00000, 125.559, 125.15, 125.858, 0, 76.4607, 77.3262, 76.7083, 1.13135
5, 1800.00000, 125.245, 124.854, 125.546, 0, 80.5557, 81.0247, 80.7638, 0.770433
5, 2700.00000, 125.364, 124.963, 125.682, 0, 77.7045, 78.3688, 77.3165, 1.29766
6, 0.00000, 125.664, 125.272, 125.985, 0, 72.8628, 73.3191, 72.1582, 1.33096
6, 900.00000, 125.433, 125.005, 125.78, 0, 75.6334, 76.2621, 75.0028, 1.46734
6, 1800.00000, 125.496, 125.046, 125.863, 0, 73.411, 74.1293, 72.8302, 1.52027
6, 2700.00000, 125.795, 125.33, 126.143, 0, 63.9975, 65.2166, 64.1465, 1.50383
7, 0.00000, 125.46, 124.975, 125.875, 0, 70.0321, 70.9932, 68.8089, 2.27869
7, 900.00000, 125.428, 124.957, 125.882, 0, 70.5526, 70.5191, 68.0698, 2.74344
7, 1800.00000, 125.807, 125.401, 126.308, 0, 65.0082, 63.2937, 61.0798, 3.51588
7, 2700.00000, 125.808, 125.42, 126.332, 0, 65.9323, 63.6392, 61.2436, 4.14256
8, 0.00000, 125.507, 125.113, 126.075, 0, 72.2773, 69.6193, 66.383, 5.22046
8, 900.00000, 125.87, 125.459, 126.372, 0, 65.259, 63.4698, 61.6189, 3.23864
8, 1800.00000, 125.891, 125.462, 126.379, 0, 62.3491, 60.9992, 59.3309, 2.7243
8, 2700.00000, 125.559, 125.141, 126.117, 0, 68.6786, 66.2101, 63.9313, 4.19248
9, 0.00000, 125.044, 124.703, 125.697, 0, 80.6074, 75.401, 72.8867, 6.82234
9, 900.00000, 125.192, 124.825, 125.789, 0, 76.9843, 72.9548, 70.9806, 5.30567
9, 1800.00000, 125.188, 124.834, 125.834, 0, 76.7592, 72.428, 69.2134, 6.61806
9, 2700.00000, 125.554, 125.201, 126.132, 0, 69.6169, 65.6125, 63.9759, 5.01339
10, 0.00000, 125.5, 125.14, 126.085, 0, 71.382, 67.9012, 65.4098, 5.24512
10, 900.00000, 125.237, 124.922, 125.877, 0, 76.7178, 71.5323, 69.0484, 6.78116
10, 1800.00000, 125.252, 124.935, 125.882, 0, 78.4383, 73.451, 71.0378, 6.54211
10, 2700.00000, 125.084, 124.717, 125.669, 0, 81.5226, 77.893, 76.0415, 4.84684
11, 0.00000, 125.167, 124.776, 125.737, 0, 80.0172, 77.0056, 74.9051, 4.50821
11, 900.00000, 125.33, 125.015, 125.988, 0, 78.6457, 73.6709, 70.3166, 7.30543
11, 1800.00000, 125.27, 124.913, 125.83, 0, 77.8022, 74.2304, 72.5205, 4.67314
11, 2700.00000, 125.476, 125.133, 126.054, 0, 74.515, 70.7686, 68.2203, 5.52486
12, 0.00000, 125.505, 125.198, 126.102, 0, 76.529, 71.8892, 69.511, 6.19089
12, 900.00000, 125.032, 124.735, 125.692, 0, 83.9677, 78.279, 75.5696, 7.42737
12, 1800.00000, 125.194, 124.854, 125.834, 0, 79.8227, 75.3879, 71.9963, 6.85997
12, 2700.00000, 125.332, 124.993, 125.936, 0, 77.7986, 73.7958, 71.2311, 5.77398
13, 0.00000, 125.35, 125.016, 125.998, 0, 79.1338, 74.3951, 71.3248, 6.85603
13, 900.00000, 125.21, 124.864, 125.853, 0, 80.7883, 76.2379, 73.3307, 6.55268
13, 1800.00000, 125.064, 124.732, 125.712, 0, 84.435, 79.4224, 76.7605, 6.76647
13, 2700.00000, 124.369, 123.986, 125.044, 0, 96.4933, 91.9639, 89.0792, 6.53361
14, 0.00000, 124.471, 124.086, 125.123, 0, 95.9496, 91.6805, 89.291, 5.88279
14, 900.00000, 124.672, 124.257, 125.273, 0, 91.3502, 88.3345, 86.2199, 4.54633
14, 1800.00000, 124.891, 124.52, 125.517, 0, 88.3775, 84.332, 82.0579, 5.57902
14, 2700.00000, 124.978, 124.626, 125.599, 0, 87.4396, 83.0438, 80.8253, 5.84514
15, 0.00000, 124.956, 124.594, 125.593, 0, 86.3792, 81.7218, 79.7196, 5.91096
15, 900.00000, 125.135, 124.794, 125.779, 0, 84.4068, 79.4408, 77.3695, 6.25377
15, 1800.00000, 125.033, 124.656, 125.651, 0, 83.1426, 79.1972, 76.8948, 5.50734
15, 2700.00000, 124.937, 124.582, 125.572, 0, 87.2127, 82.8051, 80.2665, 6.12152
16, 0.00000, 124.837, 124.496, 125.492, 0, 88.0748, 83.0934, 80.7192, 6.51047
16, 900.00000, 124.99, 124.637, 125.602, 0, 84.1484, 79.8469, 78.0473, 5.42357
16, 1800.00000, 124.988, 124.669, 125.645, 0, 84.4995, 79.3241, 76.7311, 6.86444
16, 2700.00000, 125.083, 124.768, 125.745, 0, 83.5063, 78.2082, 75.4473, 7.11154
17, 0.00000, 124.92, 124.579, 125.576, 0, 85.8199, 81.1974, 78.0117, 6.858
17, 900.00000, 124.725, 124.481, 125.457, 0, 93.0924, 86.4245, 81.8969, 9.81195
17, 1800.00000, 124.921, 124.679, 125.573, 0, 90.9, 84.5272, 81.4098, 8.37943
17, 2700.00000, 124.978, 124.711, 125.563, 0, 89.2325, 84.1398, 81.4984, 6.81528
18, 0.00000, 124.959, 124.692, 125.543, 0, 91.0112, 86.2203, 82.7899, 7.19584
18, 900.00000, 124.285, 124.047, 124.929, 0, 103.348, 97.7474, 93.3515, 8.74672
18, 1800.00000, 124.255, 123.985, 124.861, 0, 104.017, 99.4396, 95.0185, 7.88896
18, 2700.00000, 124.223, 123.949, 124.872, 0, 107.633, 103.188, 97.1836, 9.23303
19, 0.00000, 124.137, 123.84, 124.77, 0, 107.114, 103.332, 97.3337, 8.71716
19, 900.00000, 124.375, 124.024, 124.879, 0, 101.752, 100.05, 95.7673, 5.55589
19, 1800.00000, 124.247, 123.94, 124.815, 0, 103.49, 100.397, 95.4939, 7.1466
19, 2700.00000, 123.918, 123.548, 124.425, 0, 110.094, 108.782, 104.762, 5.08953
20, 0.00000, 123.878, 123.553, 124.397, 0, 113.828, 111.138, 107.687, 5.48991
20, 900.00000, 123.759, 123.316, 124.189, 0, 112.594, 113.446, 110.305, 3.33968
20, 1800.00000, 124.008, 123.625, 124.462, 0, 109.448, 108.507, 105.504, 3.8465
20, 2700.00000, 123.948, 123.553, 124.38, 0, 105.98, 105.32, 103.045, 2.96124
21, 0.00000, 123.498, 123.066, 123.941, 0, 115.968, 115.656, 113.15, 3.07854
21, 900.00000, 123.903, 123.539, 124.407, 0, 108.465, 106.41, 103.47, 4.53187
21, 1800.00000, 124.217, 123.765, 124.617, 0, 102.562, 103.112, 100.653, 2.69553
21, 2700.00000, 124.419, 123.988, 124.81, 0, 96.2952, 96.4729, 94.7713, 2.02029
22, 0.00000, 124.6, 124.178, 124.992, 0, 94.7073, 94.7451, 92.7042, 2.37039
22, 900.00000, 124.36, 123.941, 124.766, 0, 100.707, 100.515, 98.0699, 2.87713
22, 1800.00000, 124.302, 123.87, 124.687, 0, 101.935, 102.27, 99.9176, 2.61337
22, 2700.00000, 124.357, 123.95, 124.77, 0, 104.6, 104.14, 101.84, 2.86843
23, 0.00000, 124.464, 124.002, 124.837, 0, 99.7306, 100.687, 98.7697, 2.18435
23, 900.00000, 124.622, 124.202, 125, 0, 98.7864, 98.7681, 97.2733, 1.87038
23, 1800.00000, 124.445, 123.969, 124.791, 0, 101.18, 102.626, 100.846, 2.19777
23, 2700.00000, 124.685, 124.265, 125.073, 0, 96.2056, 96.1435, 94.4622, 2.05961
24, 0.00000, 124.679, 124.234, 125.041, 0, 95.4249, 96.0808, 94.6189, 1.75234
24, 900.00000, 125.081, 124.591, 125.399, 0, 85.7413, 88.2989, 85.7255, 3.01316
