hour, t(sec), |V|1 (volts), |V|2 (volts), |V|3 (volts), |V|4 (volts), |I|1 (amps), |I|2 (amps), |I|3 (amps), |I|4 (amps)
0, 900.00000, 125.076, 124.822, 126.076, 0, 189.819, 189.885, 147.669, 42.6422
0, 1800.00000, 125.225, 124.976, 126.221, 0, 186.931, 186.994, 144.66, 42.7435
0, 2700.00000, 125.248, 125.008, 126.192, 0, 175.672, 175.729, 135.891, 40.2127
1, 0.00000, 124.984, 124.746, 125.976, 0, 186.091, 186.152, 143.915, 42.6388
1, 900.00000, 125.025, 124.79, 126.021, 0, 185.73, 185.79, 143.174, 43.0135
1, 1800.00000, 125.17, 124.938, 126.128, 0, 178.793, 178.85, 137.955, 41.2684
1, 2700.00000, 125.088, 124.853, 126.057, 0, 181.455, 181.513, 139.931, 41.9591
2, 0.00000, 125.017, 124.784, 126.009, 0, 183.87, 183.929, 141.515, 42.8072
2, 900.00000, 125.166, 124.93, 126.131, 0, 179.38, 179.438, 138.143, 41.6693
2, 1800.00000, 125.017, 124.777, 126.015, 0, 185.556, 185.617, 142.621, 43.3874
2, 2700.00000, 125.205, 124.971, 126.178, 0, 179.575, 179.632, 137.694, 42.3085
3, 0.00000, 125.531, 125.308, 126.436, 0, 167.454, 167.504, 129.016, 38.8226
3, 900.00000, 125.309, 125.081, 126.265, 0, 176.738, 176.793, 135.684, 41.4694
3, 1800.00000, 125.679, 125.454, 126.613, 0, 170.432, 170.483, 130.222, 40.5979
3, 2700.00000, 125.324, 125.091, 126.313, 0, 181.641, 181.699, 139.174, 42.9062
4, 0.00000, 125.45, 125.219, 126.415, 0, 177.066, 177.122, 135.824, 41.6663
4, 900.00000, 125.642, 125.414, 126.564, 0, 168.651, 168.702, 129.787, 39.2656
4, 1800.00000, 125.323, 125.079, 126.309, 0, 179.577, 179.637, 137.72, 42.3072
4, 2700.00000, 125.833, 125.598, 126.759, 0, 168.476, 168.527, 129.112, 39.7612
5, 0.00000, 125.583, 125.34, 126.564, 0, 178.5, 178.558, 136.426, 42.5073
5, 900.00000, 125.683, 125.443, 126.653, 0, 174.813, 174.868, 133.124, 42.1059
5, 1800.00000, 125.629, 125.395, 126.598, 0, 175.717, 175.772, 134.329, 41.8119
5, 2700.00000, 125.655, 125.417, 126.621, 0, 175.786, 175.841, 134.385, 41.8216
6, 0.00000, 125.932, 125.694, 126.851, 0, 167.014, 167.066, 127.585, 39.8131
6, 900.00000, 125.714, 125.458, 126.669, 0, 173.129, 173.188, 132.776, 40.7847
6, 1800.00000, 125.804, 125.537, 126.724, 0, 167.493, 167.552, 129.598, 38.3279
6, 2700.00000, 126.303, 126.118, 127.187, 0, 148.91, 148.935, 112.787, 36.4409
7, 0.00000, 126.074, 125.871, 127.006, 0, 155.629, 155.658, 117.626, 38.3567
7, 900.00000, 126.139, 125.923, 127.037, 0, 150.743, 150.772, 114.385, 36.6974
7, 1800.00000, 126.611, 126.488, 127.497, 0, 131.248, 131.255, 95.4229, 36.1429
7, 2700.00000, 126.658, 126.536, 127.556, 0, 129.956, 129.963, 93.384, 36.8906
8, 0.00000, 126.473, 126.338, 127.41, 0, 135.681, 135.69, 97.03, 38.9795
8, 900.00000, 126.682, 126.554, 127.628, 0, 130.447, 130.454, 91.1821, 39.5931
8, 1800.00000, 126.572, 126.442, 127.55, 0, 133.888, 133.895, 93.1839, 41.0428
8, 2700.00000, 126.547, 126.476, 127.551, 0, 129.785, 129.786, 88.4526, 41.7996
9, 0.00000, 126.289, 126.211, 127.326, 0, 137.148, 137.149, 94.0698, 43.5395
9, 900.00000, 126.335, 126.264, 127.389, 0, 136.648, 136.65, 92.5318, 44.5863
9, 1800.00000, 126.99, 127.073, 128.015, 0, 112.057, 112.064, 70.4268, 42.9362
9, 2700.00000, 127.209, 127.299, 128.199, 0, 105.417, 105.424, 65.3615, 41.4805
10, 0.00000, 127.168, 127.264, 128.17, 0, 107.979, 107.987, 67.1546, 42.2069
10, 900.00000, 127.091, 127.181, 128.089, 0, 107.734, 107.741, 67.3211, 41.7859
10, 1800.00000, 127.199, 127.294, 128.184, 0, 104.677, 104.685, 65.0002, 41.111
10, 2700.00000, 127.601, 127.914, 128.682, 0, 95.1937, 95.2373, 54.8165, 45.5779
11, 0.00000, 127.717, 128.027, 128.76, 0, 90.4609, 90.5025, 52.2864, 43.7167
11, 900.00000, 127.999, 128.32, 128.985, 0, 79.9173, 79.9553, 45.8361, 40.9844
11, 1800.00000, 127.824, 128.206, 128.881, 0, 87.5555, 87.6043, 50.4696, 44.676
11, 2700.00000, 128.001, 128.392, 129.008, 0, 82.2143, 82.2597, 48.105, 42.2428
12, 0.00000, 128.234, 128.631, 129.199, 0, 73.7228, 73.7584, 43.5667, 40.0517
12, 900.00000, 127.802, 128.184, 128.848, 0, 86.6518, 86.6996, 50.456, 43.7171
12, 1800.00000, 127.837, 128.216, 128.88, 0, 86.6275, 86.675, 50.4481, 43.6892
12, 2700.00000, 127.985, 128.417, 129.016, 0, 80.7563, 80.8003, 47.8675, 42.6443
13, 0.00000, 128.08, 128.499, 129.096, 0, 78.7184, 78.7579, 46.839, 42.0423
13, 900.00000, 127.954, 128.369, 128.98, 0, 81.5958, 81.6388, 48.6624, 42.2763
13, 1800.00000, 127.866, 128.279, 128.906, 0, 83.1629, 83.2077, 49.2015, 43.1985
13, 2700.00000, 127.336, 127.727, 128.478, 0, 98.9316, 98.9867, 58.3827, 47.4192
14, 0.00000, 127.461, 127.854, 128.602, 0, 96.0797, 96.1335, 55.9383, 47.6017
14, 900.00000, 127.514, 127.913, 128.661, 0, 95.8196, 95.8744, 55.3913, 48.0628
14, 1800.00000, 127.758, 128.167, 128.85, 0, 87.399, 87.4482, 50.888, 45.3072
14, 2700.00000, 127.882, 128.307, 128.952, 0, 85.068, 85.116, 49.9624, 44.4772
15, 0.00000, 127.796, 128.204, 128.887, 0, 87.4178, 87.466, 50.9981, 45.4819
15, 900.00000, 127.974, 128.393, 129.044, 0, 83.0963, 83.1414, 48.6177, 44.413
15, 1800.00000, 127.767, 128.162, 128.871, 0, 91.7557, 91.8082, 53.2605, 46.2162
15, 2700.00000, 127.943, 128.345, 128.981, 0, 83.4484, 83.4938, 49.5057, 42.56
16, 0.00000, 127.743, 128.142, 128.841, 0, 91.3288, 91.3813, 53.3696, 45.6076
16, 900.00000, 127.734, 128.141, 128.83, 0, 93.0015, 93.0567, 54.8334, 45.4009
16, 1800.00000, 127.769, 128.18, 128.853, 0, 91.634, 91.6886, 54.015, 45.0392
16, 2700.00000, 127.565, 127.828, 128.588, 0, 96.9346, 96.9699, 58.485, 42.0746
17, 0.00000, 127.376, 127.635, 128.424, 0, 103.558, 103.593, 63.4384, 43.3356
17, 900.00000, 127.513, 127.795, 128.511, 0, 96.8264, 96.8648, 59.0702, 41.2977
17, 1800.00000, 126.629, 126.68, 127.635, 0, 128.554, 128.556, 86.6105, 42.6597
17, 2700.00000, 126.605, 126.664, 127.609, 0, 129.945, 129.947, 87.7415, 42.9064
18, 0.00000, 126.664, 126.731, 127.643, 0, 128.312, 128.315, 87.231, 41.7762
18, 900.00000, 126.207, 126.277, 127.251, 0, 141.234, 141.235, 97.2953, 44.5909
18, 1800.00000, 126.155, 126.225, 127.193, 0, 143.523, 143.525, 99.7023, 44.4529
18, 2700.00000, 125.224, 125.05, 126.255, 0, 174.466, 174.497, 130.855, 43.9977
19, 0.00000, 125.008, 124.833, 126.091, 0, 182.411, 182.445, 136.337, 46.4908
19, 900.00000, 125.102, 124.932, 126.155, 0, 179.844, 179.877, 135.004, 45.2383
19, 1800.00000, 124.773, 124.522, 125.819, 0, 191.216, 191.283, 147.1, 44.6278
19, 2700.00000, 124.535, 124.282, 125.637, 0, 199.575, 199.646, 153.432, 46.7105
20, 0.00000, 124.586, 124.331, 125.686, 0, 199.865, 199.937, 153.138, 47.2762
20, 900.00000, 124.246, 123.987, 125.453, 0, 213.45, 213.53, 162.103, 51.9773
20, 1800.00000, 124.53, 124.274, 125.635, 0, 203.403, 203.477, 156.641, 47.3284
20, 2700.00000, 124.42, 124.163, 125.543, 0, 206.973, 207.049, 159.675, 47.8879
21, 0.00000, 124.243, 123.963, 125.378, 0, 210.589, 210.674, 162.828, 48.3796
21, 900.00000, 124.513, 124.246, 125.623, 0, 203.919, 203.996, 157.154, 47.3472
21, 1800.00000, 124.596, 124.322, 125.686, 0, 201.958, 202.036, 155.87, 46.6524
21, 2700.00000, 124.62, 124.354, 125.71, 0, 200.751, 200.827, 154.778, 46.5363
22, 0.00000, 124.841, 124.576, 125.887, 0, 194.059, 194.131, 149.723, 44.856
22, 900.00000, 124.74, 124.473, 125.792, 0, 197.068, 197.142, 152.4, 45.1964
22, 1800.00000, 124.641, 124.375, 125.716, 0, 201.919, 201.995, 155.949, 46.5122
22, 2700.00000, 124.898, 124.635, 125.942, 0, 193.796, 193.867, 149.562, 44.7511
23, 0.00000, 124.756, 124.487, 125.843, 0, 200.122, 200.197, 154.104, 46.5732
23, 900.00000, 124.984, 124.723, 126.027, 0, 192.832, 192.902, 148.673, 44.6737
23, 1800.00000, 124.754, 124.483, 125.839, 0, 200.785, 200.861, 154.447, 46.8844
23, 2700.00000, 124.916, 124.653, 125.975, 0, 195.229, 195.301, 150.171, 45.5804
24, 0.00000, 124.823, 124.557, 125.91, 0, 199.446, 199.521, 153.038, 46.9493
24, 900.00000, 125.076, 124.822, 126.076, 0, 189.822, 189.888, 147.67, 42.6438
