hour, t(sec), |V|1 (volts), |V|2 (volts), |V|3 (volts), |V|4 (volts), |I|1 (amps), |I|2 (amps), |I|3 (amps), |I|4 (amps)
0, 900.00000, 122.353, 121.945, 122.852, 0, 35.3488, 35.3718, 35.3211, 0.281525
0, 1800.00000, 122.528, 122.128, 123.018, 0, 35.1298, 35.1522, 35.1031, 0.274238
0, 2700.00000, 125.181, 124.765, 125.647, 0, 31.1903, 31.2081, 31.1709, 0.231906
1, 0.00000, 125.001, 124.59, 125.475, 0, 33.3632, 33.3822, 33.3419, 0.249695
1, 900.00000, 125.049, 124.643, 125.52, 0, 33.6758, 33.6948, 33.6545, 0.249703
1, 1800.00000, 126.976, 126.558, 127.422, 0, 31.3327, 31.3488, 31.316, 0.222292
1, 2700.00000, 126.886, 126.46, 127.332, 0, 32.9421, 32.9594, 32.9244, 0.235999
2, 0.00000, 126.826, 126.399, 127.281, 0, 33.4426, 33.4604, 33.4245, 0.24256
2, 900.00000, 126.972, 126.549, 127.416, 0, 32.3067, 32.3235, 32.2895, 0.230091
2, 1800.00000, 126.825, 126.394, 127.278, 0, 35.2862, 35.3051, 35.2669, 0.256594
2, 2700.00000, 127.336, 126.913, 127.777, 0, 33.3672, 33.3841, 33.35, 0.235284
3, 0.00000, 127.598, 127.197, 128.023, 0, 30.5087, 30.5231, 30.4938, 0.205282
3, 900.00000, 127.37, 126.959, 127.811, 0, 34.8342, 34.8513, 34.8163, 0.242213
3, 1800.00000, 126.31, 125.919, 126.746, 0, 32.1958, 32.2119, 32.1782, 0.220759
3, 2700.00000, 125.974, 125.564, 126.435, 0, 34.7079, 34.7265, 34.6875, 0.25191
4, 0.00000, 126.07, 125.665, 126.526, 0, 33.7655, 33.7833, 33.7457, 0.242334
4, 900.00000, 126.198, 125.799, 126.649, 0, 31.7177, 31.7341, 31.6997, 0.223972
4, 1800.00000, 125.937, 125.51, 126.408, 0, 33.8312, 33.8501, 33.8109, 0.253029
4, 2700.00000, 125.653, 125.25, 126.1, 0, 31.8306, 31.8477, 31.8122, 0.226444
5, 0.00000, 125.447, 125.033, 125.91, 0, 34.967, 34.9865, 34.9458, 0.257306
5, 900.00000, 125.546, 125.135, 126.002, 0, 33.5834, 33.602, 33.5634, 0.243907
5, 1800.00000, 124.995, 124.592, 125.454, 0, 32.424, 32.4421, 32.404, 0.236076
5, 2700.00000, 124.975, 124.569, 125.434, 0, 34.5716, 34.5911, 34.5501, 0.252822
6, 0.00000, 125.218, 124.816, 125.657, 0, 33.7621, 33.7807, 33.7422, 0.239394
6, 900.00000, 124.992, 124.561, 125.462, 0, 34.7942, 34.815, 34.7721, 0.264754
6, 1800.00000, 125.055, 124.615, 125.532, 0, 32.5742, 32.594, 32.5532, 0.252067
6, 2700.00000, 125.395, 125.087, 125.856, 0, 23.6111, 23.6084, 23.6158, 0.1475
7, 0.00000, 125.127, 124.792, 125.619, 0, 25.9317, 25.9295, 25.9352, 0.173763
7, 900.00000, 125.142, 124.784, 125.621, 0, 24.8744, 24.8718, 24.8784, 0.168818
7, 1800.00000, 126.829, 126.608, 127.281, 0, 16.6636, 16.6597, 16.6721, 0.131042
7, 2700.00000, 126.871, 126.65, 127.319, 0, 16.6564, 16.6525, 16.6647, 0.130363
8, 0.00000, 126.723, 126.481, 127.177, 0, 17.2759, 17.2712, 17.2851, 0.136671
8, 900.00000, 126.969, 126.743, 127.415, 0, 15.9331, 15.9297, 15.9404, 0.129001
8, 1800.00000, 126.849, 126.62, 127.308, 0, 16.6505, 16.6463, 16.6591, 0.133591
8, 2700.00000, 126.21, 126.073, 126.679, 0, 13.574, 13.5843, 13.5396, 0.167414
9, 0.00000, 126.021, 125.871, 126.489, 0, 14.1126, 14.1223, 14.0832, 0.169895
9, 900.00000, 126.078, 125.94, 126.549, 0, 13.8401, 13.85, 13.8082, 0.168425
9, 1800.00000, 127.815, 127.903, 128.268, 0, 20.828, 20.7968, 20.668, 0.224786
9, 2700.00000, 128.056, 128.16, 128.488, 0, 21.5774, 21.5401, 21.4222, 0.212985
10, 0.00000, 128.012, 128.126, 128.448, 0, 20.8209, 20.7809, 20.6675, 0.210609
10, 900.00000, 127.917, 128.014, 128.353, 0, 21.501, 21.4661, 21.345, 0.215766
10, 1800.00000, 128.055, 128.162, 128.487, 0, 22.2292, 22.1903, 22.0721, 0.214729
10, 2700.00000, 128.799, 129.232, 129.245, 0, 43.9295, 43.6784, 43.6708, 0.405141
11, 0.00000, 128.899, 129.33, 129.335, 0, 45.2953, 45.0451, 45.0417, 0.40443
11, 900.00000, 129.113, 129.565, 129.528, 0, 46.8077, 46.5458, 46.5672, 0.409492
11, 1800.00000, 129.02, 129.556, 129.448, 0, 50.9575, 50.6159, 50.6843, 0.506926
11, 2700.00000, 129.142, 129.69, 129.557, 0, 50.7804, 50.4312, 50.5159, 0.510445
12, 0.00000, 129.407, 129.968, 129.807, 0, 54.4723, 54.1167, 54.2182, 0.527893
12, 900.00000, 128.97, 129.498, 129.404, 0, 51.3484, 51.012, 51.0718, 0.504686
12, 1800.00000, 129.019, 129.549, 129.449, 0, 51.0787, 50.7406, 50.8042, 0.504356
12, 2700.00000, 129.743, 130.351, 130.18, 0, 55.8489, 55.4415, 55.5557, 0.597549
13, 0.00000, 129.847, 130.441, 130.28, 0, 55.4514, 55.0537, 55.1624, 0.582975
13, 900.00000, 129.722, 130.308, 130.164, 0, 55.2767, 54.8864, 54.9823, 0.577082
13, 1800.00000, 130.455, 131.038, 130.892, 0, 55.7919, 55.4046, 55.5019, 0.573438
13, 2700.00000, 130.006, 130.546, 130.49, 0, 54.8001, 54.4393, 54.4761, 0.560229
14, 0.00000, 130.172, 130.72, 130.648, 0, 55.9923, 55.6271, 55.6749, 0.565293
14, 900.00000, 130.221, 130.781, 130.697, 0, 55.4623, 55.0879, 55.1434, 0.572247
14, 1800.00000, 130.421, 130.998, 130.879, 0, 56.702, 56.3186, 56.3976, 0.579721
14, 2700.00000, 131.303, 131.904, 131.75, 0, 57.1794, 56.7797, 56.8818, 0.5948
15, 0.00000, 131.192, 131.77, 131.647, 0, 55.8532, 55.4701, 55.5522, 0.573492
15, 900.00000, 131.358, 131.954, 131.808, 0, 56.1565, 55.758, 55.8547, 0.589593
15, 1800.00000, 131.386, 131.943, 131.848, 0, 52.1196, 51.7597, 51.8205, 0.538183
15, 2700.00000, 131.55, 132.118, 131.999, 0, 55.8115, 55.4441, 55.5208, 0.555517
16, 0.00000, 131.365, 131.923, 131.829, 0, 53.3911, 53.0325, 53.0929, 0.542714
16, 900.00000, 131.345, 131.916, 131.814, 0, 51.9857, 51.6159, 51.6814, 0.550299
16, 1800.00000, 131.336, 131.91, 131.8, 0, 51.034, 50.6617, 50.7331, 0.547416
16, 2700.00000, 129.676, 130.026, 130.127, 0, 37.7915, 37.6079, 37.5549, 0.335681
17, 0.00000, 129.531, 129.877, 129.99, 0, 37.0771, 36.8953, 36.8359, 0.337779
17, 900.00000, 129.623, 129.998, 130.058, 0, 38.7496, 38.5485, 38.5181, 0.340099
17, 1800.00000, 126.593, 126.613, 127.028, 0, 15.9314, 15.9263, 15.8207, 0.185686
17, 2700.00000, 126.577, 126.609, 127.005, 0, 15.9368, 15.9288, 15.8278, 0.180385
18, 0.00000, 126.628, 126.669, 127.047, 0, 16.0774, 16.0668, 15.9669, 0.175934
18, 900.00000, 126.148, 126.179, 126.598, 0, 16.0011, 15.993, 15.8871, 0.190614
18, 1800.00000, 126.17, 126.207, 126.612, 0, 16.2028, 16.1929, 16.085, 0.187933
18, 2700.00000, 123.473, 123.154, 123.958, 0, 25.5807, 25.5799, 25.5824, 0.17151
19, 0.00000, 123.236, 122.912, 123.744, 0, 28.498, 28.4984, 28.498, 0.197764
19, 900.00000, 123.369, 123.052, 123.863, 0, 26.6817, 26.6813, 26.6829, 0.18047
19, 1800.00000, 122.127, 121.705, 122.629, 0, 36.2341, 36.2589, 36.2051, 0.295588
19, 2700.00000, 122.008, 121.587, 122.537, 0, 34.7404, 34.7643, 34.711, 0.291803
20, 0.00000, 122.115, 121.687, 122.624, 0, 35.3815, 35.4063, 35.3529, 0.292284
20, 900.00000, 121.864, 121.443, 122.419, 0, 37.1455, 37.1714, 37.1124, 0.321447
20, 1800.00000, 124.799, 124.332, 125.322, 0, 35.9857, 36.0093, 35.96, 0.301729
20, 2700.00000, 124.716, 124.251, 125.252, 0, 37.0268, 37.0512, 36.9996, 0.31444
21, 0.00000, 124.606, 124.111, 125.145, 0, 34.8006, 34.8251, 34.7748, 0.305822
21, 900.00000, 124.8, 124.322, 125.332, 0, 37.5814, 37.6067, 37.554, 0.321818
21, 1800.00000, 124.891, 124.407, 125.412, 0, 36.8445, 36.8694, 36.8184, 0.31321
21, 2700.00000, 124.867, 124.395, 125.394, 0, 37.7582, 37.7832, 37.7312, 0.319291
22, 0.00000, 125.08, 124.61, 125.581, 0, 36.9862, 37.0102, 36.9612, 0.303023
22, 900.00000, 125.017, 124.54, 125.518, 0, 36.421, 36.4451, 36.3964, 0.300765
22, 1800.00000, 124.96, 124.486, 125.464, 0, 37.6369, 37.6618, 37.6113, 0.310929
22, 2700.00000, 125.222, 124.754, 125.716, 0, 33.8169, 33.8386, 33.7946, 0.274138
23, 0.00000, 125.07, 124.593, 125.59, 0, 36.6738, 36.698, 36.6483, 0.30822
23, 900.00000, 125.345, 124.883, 125.839, 0, 33.7499, 33.7712, 33.7278, 0.271139
23, 1800.00000, 125.222, 124.749, 125.729, 0, 35.1467, 35.1695, 35.123, 0.289797
23, 2700.00000, 125.315, 124.853, 125.813, 0, 36.0177, 36.0404, 35.9939, 0.290676
24, 0.00000, 125.223, 124.756, 125.732, 0, 37.5007, 37.5247, 37.4754, 0.307819
24, 900.00000, 125.396, 124.951, 125.889, 0, 35.1919, 35.2132, 35.169, 0.277284
