hour, t(sec), |V|1 (volts), |V|2 (volts), |V|3 (volts), |V|4 (volts), |I|1 (amps), |I|2 (amps), |I|3 (amps), |I|4 (amps)
0, 900.00000, 126.58, 126.124, 127.065, 0, 35.1379, 35.1581, 35.117, 0.272899
0, 1800.00000, 126.76, 126.314, 127.234, 0, 34.9217, 34.9411, 34.9017, 0.264468
0, 2700.00000, 131.796, 131.32, 132.219, 0, 30.9656, 30.9784, 30.9545, 0.213447
1, 0.00000, 131.624, 131.151, 132.053, 0, 33.1185, 33.1323, 33.1065, 0.229435
1, 900.00000, 131.67, 131.203, 132.097, 0, 33.4295, 33.4432, 33.4174, 0.22943
1, 1800.00000, 125.882, 125.475, 126.335, 0, 31.3751, 31.3919, 31.357, 0.225165
1, 2700.00000, 125.792, 125.376, 126.244, 0, 32.9875, 33.0057, 32.9683, 0.239132
2, 0.00000, 125.731, 125.315, 126.194, 0, 33.4892, 33.5077, 33.4694, 0.245703
2, 900.00000, 125.879, 125.466, 126.329, 0, 32.3512, 32.3688, 32.3325, 0.233107
2, 1800.00000, 125.731, 125.31, 126.191, 0, 35.3351, 35.3548, 35.3141, 0.259977
2, 2700.00000, 125.907, 125.498, 126.356, 0, 33.4263, 33.4443, 33.4071, 0.239365
3, 0.00000, 126.171, 125.783, 126.604, 0, 30.562, 30.5773, 30.5453, 0.208754
3, 900.00000, 125.941, 125.544, 126.391, 0, 34.8958, 34.9139, 34.8757, 0.246361
3, 1800.00000, 126.142, 125.753, 126.579, 0, 32.2026, 32.2189, 32.1849, 0.22126
3, 2700.00000, 125.805, 125.397, 126.268, 0, 34.715, 34.7337, 34.6944, 0.252376
4, 0.00000, 125.901, 125.498, 126.359, 0, 33.7726, 33.7906, 33.7526, 0.242827
4, 900.00000, 126.03, 125.632, 126.482, 0, 31.7247, 31.7411, 31.7065, 0.224419
4, 1800.00000, 125.768, 125.344, 126.24, 0, 33.8382, 33.8572, 33.8177, 0.253476
4, 2700.00000, 126.072, 125.665, 126.517, 0, 31.8148, 31.8316, 31.7968, 0.225481
5, 0.00000, 125.868, 125.449, 126.328, 0, 34.9476, 34.9669, 34.927, 0.256053
5, 900.00000, 125.966, 125.551, 126.419, 0, 33.565, 33.5832, 33.5456, 0.24271
5, 1800.00000, 125.919, 125.508, 126.373, 0, 32.3822, 32.3997, 32.3635, 0.233539
5, 2700.00000, 125.898, 125.484, 126.352, 0, 34.529, 34.5478, 34.5089, 0.250076
6, 0.00000, 126.14, 125.729, 126.574, 0, 33.7212, 33.7391, 33.7027, 0.236851
6, 900.00000, 125.915, 125.475, 126.38, 0, 34.7514, 34.7715, 34.7308, 0.262007
6, 1800.00000, 125.978, 125.528, 126.449, 0, 32.5342, 32.5534, 32.5147, 0.249547
6, 2700.00000, 126.128, 125.684, 126.595, 0, 32.7136, 32.7325, 32.6943, 0.247891
7, 0.00000, 125.859, 125.387, 126.357, 0, 35.0786, 35.1004, 35.0563, 0.28383
7, 900.00000, 125.874, 125.378, 126.359, 0, 34.0076, 34.0299, 33.9865, 0.278197
7, 1800.00000, 126.14, 125.664, 126.611, 0, 33.4389, 33.4596, 33.4189, 0.263374
7, 2700.00000, 126.183, 125.707, 126.651, 0, 33.4267, 33.4473, 33.4069, 0.262255
8, 0.00000, 126.033, 125.536, 126.507, 0, 34.1395, 34.1616, 34.119, 0.275897
8, 900.00000, 126.283, 125.802, 126.748, 0, 32.589, 32.6092, 32.5701, 0.255912
8, 1800.00000, 126.16, 125.677, 126.64, 0, 33.4213, 33.4423, 33.4012, 0.267199
8, 2700.00000, 125.257, 124.755, 125.757, 0, 34.1761, 34.1996, 34.1536, 0.287982
9, 0.00000, 125.061, 124.547, 125.561, 0, 35.1765, 35.2015, 35.1529, 0.300914
9, 900.00000, 125.12, 124.617, 125.622, 0, 34.683, 34.7071, 34.6597, 0.293867
9, 1800.00000, 125.839, 125.332, 126.337, 0, 34.5757, 34.5989, 34.5537, 0.289865
9, 2700.00000, 126.091, 125.598, 126.565, 0, 32.8302, 32.8513, 32.8105, 0.264161
10, 0.00000, 126.046, 125.563, 126.524, 0, 34.426, 34.4478, 34.4053, 0.275168
10, 900.00000, 125.945, 125.446, 126.424, 0, 33.0811, 33.1028, 33.0609, 0.269649
10, 1800.00000, 126.09, 125.6, 126.563, 0, 31.6088, 31.629, 31.5899, 0.253439
10, 2700.00000, 127.651, 127.128, 128.146, 0, 35.0726, 35.0942, 35.0528, 0.290419
11, 0.00000, 125.872, 125.368, 126.37, 0, 33.2833, 33.3055, 33.2624, 0.277938
11, 900.00000, 126.1, 125.615, 126.573, 0, 31.1791, 31.1988, 31.1604, 0.248375
11, 1800.00000, 123.777, 123.303, 124.282, 0, 35.2067, 35.2316, 35.181, 0.296209
11, 2700.00000, 123.911, 123.447, 124.4, 0, 35.329, 35.3534, 35.3042, 0.288955
12, 0.00000, 124.197, 123.743, 124.667, 0, 30.4734, 30.4936, 30.4531, 0.240871
12, 900.00000, 123.723, 123.241, 124.234, 0, 34.7519, 34.7767, 34.726, 0.296777
12, 1800.00000, 123.776, 123.296, 124.283, 0, 35.0551, 35.0802, 35.0294, 0.297406
12, 2700.00000, 123.509, 123.046, 124.023, 0, 34.574, 34.5982, 34.5479, 0.291568
13, 0.00000, 123.623, 123.145, 124.131, 0, 34.9752, 35.0003, 34.9491, 0.297235
13, 900.00000, 123.488, 123.003, 124.006, 0, 35.3018, 35.3277, 35.2749, 0.305631
13, 1800.00000, 123.023, 122.543, 123.534, 0, 34.0786, 34.1041, 34.0524, 0.293479
13, 2700.00000, 122.538, 122.03, 123.102, 0, 35.722, 35.7509, 35.6907, 0.335282
14, 0.00000, 122.715, 122.212, 123.271, 0, 34.0723, 34.0994, 34.0432, 0.315245
14, 900.00000, 122.77, 122.276, 123.325, 0, 34.6939, 34.7209, 34.6644, 0.317471
14, 1800.00000, 122.987, 122.505, 123.521, 0, 32.9705, 32.9952, 32.9438, 0.291554
14, 2700.00000, 118.581, 118.169, 119.079, 0, 32.5097, 32.3892, 32.6552, 0.014969
15, 0.00000, 125.578, 125.05, 126.09, 0, 34.5982, 34.6227, 34.575, 0.301562
15, 900.00000, 125.759, 125.247, 126.264, 0, 34.0816, 34.1048, 34.0594, 0.289614
15, 1800.00000, 125.555, 125.039, 126.073, 0, 36.0978, 36.1229, 36.0735, 0.312649
15, 2700.00000, 125.73, 125.224, 126.233, 0, 31.3681, 31.3893, 31.3477, 0.264644
16, 0.00000, 125.529, 125.015, 126.05, 0, 34.5157, 34.5396, 34.4922, 0.299299
16, 900.00000, 125.51, 125.008, 126.035, 0, 36.3097, 36.3343, 36.2848, 0.312405
16, 1800.00000, 125.501, 125.001, 126.021, 0, 37.5352, 37.5605, 37.5096, 0.320943
16, 2700.00000, 125.682, 125.182, 126.188, 0, 34.6053, 34.6284, 34.5826, 0.291198
17, 0.00000, 125.527, 125.024, 126.043, 0, 35.7131, 35.7373, 35.689, 0.304889
17, 900.00000, 125.623, 125.147, 126.114, 0, 33.3435, 33.3647, 33.3222, 0.269939
17, 1800.00000, 127.23, 126.733, 127.695, 0, 34.6612, 34.6821, 34.6423, 0.272696
17, 2700.00000, 127.214, 126.73, 127.672, 0, 34.6585, 34.6784, 34.6393, 0.267145
18, 0.00000, 127.265, 126.789, 127.714, 0, 33.7418, 33.7612, 33.7241, 0.255023
18, 900.00000, 126.771, 126.287, 127.253, 0, 35.0215, 35.0427, 35.0013, 0.278403
18, 1800.00000, 126.793, 126.314, 127.267, 0, 33.7419, 33.7621, 33.7227, 0.264484
18, 2700.00000, 130.987, 130.467, 131.435, 0, 34.5366, 34.5533, 34.5227, 0.259423
19, 0.00000, 130.754, 130.224, 131.225, 0, 37.4712, 37.49, 37.4552, 0.291492
19, 900.00000, 130.886, 130.366, 131.342, 0, 35.6455, 35.6628, 35.6308, 0.269989
19, 1800.00000, 130.366, 129.853, 130.83, 0, 35.8566, 35.8744, 35.8412, 0.273512
19, 2700.00000, 130.243, 129.727, 130.737, 0, 34.3749, 34.3924, 34.3589, 0.271913
20, 0.00000, 130.354, 129.833, 130.825, 0, 35.0117, 35.0295, 34.9962, 0.271651
20, 900.00000, 124.553, 124.089, 125.117, 0, 36.9934, 37.0178, 36.9647, 0.323388
20, 1800.00000, 124.799, 124.332, 125.322, 0, 35.9859, 36.0095, 35.9601, 0.301812
20, 2700.00000, 124.477, 124.014, 125.015, 0, 37.0396, 37.0641, 37.0119, 0.315346
21, 0.00000, 124.367, 123.874, 124.907, 0, 34.8128, 34.8374, 34.7863, 0.306745
21, 900.00000, 124.561, 124.086, 125.095, 0, 37.5935, 37.6192, 37.5658, 0.322774
21, 1800.00000, 120.856, 120.432, 121.372, 0, 37.0777, 37.0104, 37.0455, 0.236754
21, 2700.00000, 120.833, 120.419, 121.354, 0, 37.995, 37.923, 37.9614, 0.240355
22, 0.00000, 121.033, 120.617, 121.532, 0, 37.2157, 37.2233, 37.1845, 0.2886
22, 900.00000, 120.975, 120.553, 121.472, 0, 36.6476, 36.6311, 36.6165, 0.265723
22, 1800.00000, 120.921, 120.503, 121.42, 0, 37.872, 37.8343, 37.8399, 0.25765
22, 2700.00000, 122.585, 122.15, 123.089, 0, 33.9451, 33.9686, 33.9185, 0.279205
23, 0.00000, 122.436, 121.995, 122.963, 0, 36.8166, 36.8427, 36.7863, 0.31277
23, 900.00000, 122.706, 122.275, 123.21, 0, 33.8789, 33.902, 33.8527, 0.276815
23, 1800.00000, 126.407, 125.923, 126.906, 0, 35.0927, 35.1143, 35.071, 0.28537
23, 2700.00000, 126.5, 126.026, 126.99, 0, 35.9619, 35.9835, 35.9402, 0.286222
24, 0.00000, 126.408, 125.93, 126.909, 0, 37.443, 37.4658, 37.4198, 0.303176
24, 900.00000, 126.58, 126.124, 127.066, 0, 35.1376, 35.1577, 35.1168, 0.272861
