hour, t(sec), |V|1 (volts), |V|2 (volts), |V|3 (volts), |V|4 (volts), |I|1 (amps), |I|2 (amps), |I|3 (amps), |I|4 (amps)
0, 900.00000, 126.275, 125.438, 126.455, 0, 157.784, 182.252, 161.442, 23.6117
0, 1800.00000, 126.473, 125.741, 126.749, 0, 152.64, 171.836, 150.814, 20.864
0, 2700.00000, 131.572, 130.83, 131.732, 0, 140.851, 159.347, 143.643, 17.9018
1, 0.00000, 131.396, 130.634, 131.598, 0, 146.209, 165.996, 146.623, 20.2312
1, 900.00000, 131.44, 130.684, 131.673, 0, 145.679, 165.415, 144.275, 21.1024
1, 1800.00000, 125.652, 124.944, 125.851, 0, 140.016, 159.864, 142.15, 19.4781
1, 2700.00000, 125.505, 124.842, 125.762, 0, 146.203, 163.205, 144.847, 18.3462
2, 0.00000, 125.475, 124.798, 125.768, 0, 146.085, 163.847, 143.081, 20.0632
2, 900.00000, 125.613, 124.968, 125.896, 0, 142.642, 158.743, 140.014, 18.1701
2, 1800.00000, 125.412, 124.782, 125.805, 0, 151.109, 165.936, 142.419, 21.1983
2, 2700.00000, 125.628, 124.98, 125.974, 0, 143.819, 160.256, 137.602, 20.855
3, 0.00000, 125.914, 125.336, 126.243, 0, 134.827, 148.211, 129.269, 17.3916
3, 900.00000, 125.637, 125.055, 126.108, 0, 146.077, 159.244, 132.786, 23.4281
3, 1800.00000, 125.862, 125.295, 126.281, 0, 137.67, 150.462, 127.109, 20.7497
3, 2700.00000, 125.518, 124.916, 125.956, 0, 147.091, 160.948, 136.109, 22.1163
4, 0.00000, 125.641, 125.022, 126.051, 0, 143.001, 157.949, 133.447, 21.9414
4, 900.00000, 125.788, 125.19, 126.165, 0, 137.7, 151.692, 130.086, 19.523
4, 1800.00000, 125.484, 124.88, 125.903, 0, 146.788, 159.838, 137.37, 20.1355
4, 2700.00000, 125.835, 125.217, 126.204, 0, 136.473, 151.233, 129.105, 20.0585
5, 0.00000, 125.576, 124.923, 126.022, 0, 146.135, 162.194, 134.765, 24.4353
5, 900.00000, 125.683, 125.08, 126.121, 0, 142.341, 155.901, 131.233, 21.9371
5, 1800.00000, 125.717, 125.054, 126.05, 0, 137.941, 155.128, 132.787, 20.8363
5, 2700.00000, 125.642, 124.956, 126.042, 0, 143.538, 161.769, 134.504, 24.6229
6, 0.00000, 125.876, 125.25, 126.307, 0, 138.227, 153.279, 126.871, 23.4531
6, 900.00000, 125.645, 124.981, 126.074, 0, 143.916, 159.597, 133.921, 23.0085
6, 1800.00000, 125.727, 125.02, 126.073, 0, 139.369, 156.693, 134.735, 20.6924
6, 2700.00000, 125.86, 125.247, 126.324, 0, 137.26, 149.416, 126.031, 20.821
7, 0.00000, 125.56, 124.803, 126.026, 0, 146.715, 165.45, 136.334, 26.233
7, 900.00000, 125.577, 124.9, 125.976, 0, 145.137, 158.509, 138.296, 18.507
7, 1800.00000, 125.855, 125.217, 126.377, 0, 137.793, 149.832, 123.936, 23.0184
7, 2700.00000, 125.927, 125.274, 126.453, 0, 135.219, 148.147, 121.081, 24.0085
8, 0.00000, 125.749, 125.019, 126.214, 0, 140.042, 156.325, 129.404, 24.1274
8, 900.00000, 126.07, 125.379, 126.581, 0, 129.412, 144.192, 116.334, 24.6979
8, 1800.00000, 125.922, 125.292, 126.511, 0, 133.957, 145.156, 116.935, 25.1537
8, 2700.00000, 125.023, 124.344, 125.57, 0, 137.905, 150.934, 123.991, 23.9618
9, 0.00000, 124.828, 124.093, 125.335, 0, 141.689, 157.401, 129.995, 24.5002
9, 900.00000, 124.882, 124.207, 125.452, 0, 140.306, 153.209, 125.158, 24.9425
9, 1800.00000, 125.605, 124.83, 126.135, 0, 141.083, 159.282, 127.881, 27.9646
9, 2700.00000, 125.886, 125.241, 126.442, 0, 132.495, 144.268, 117.417, 23.8706
10, 0.00000, 125.842, 125.065, 126.403, 0, 134.973, 154.505, 119.5, 30.963
10, 900.00000, 125.756, 125.034, 126.238, 0, 134.995, 150.924, 124.044, 24.0364
10, 1800.00000, 125.976, 125.172, 126.385, 0, 126.204, 147.081, 119.27, 25.6886
10, 2700.00000, 127.512, 126.666, 128.016, 0, 137.688, 159.302, 125.701, 30.1453
11, 0.00000, 125.726, 124.914, 126.165, 0, 134.002, 154.671, 126.143, 26.1931
11, 900.00000, 125.957, 125.102, 126.343, 0, 127.558, 151.367, 121.847, 27.7479
11, 1800.00000, 123.567, 122.901, 124.123, 0, 143.092, 157.199, 128.744, 25.2752
11, 2700.00000, 123.723, 122.988, 124.232, 0, 139.764, 158.108, 127.357, 27.4188
12, 0.00000, 124.061, 123.344, 124.444, 0, 126.195, 144.111, 120.585, 21.8841
12, 900.00000, 123.568, 122.777, 124.001, 0, 140.977, 161.629, 133.517, 25.9259
12, 1800.00000, 123.554, 122.789, 124.038, 0, 143.685, 162.723, 133.198, 26.611
12, 2700.00000, 123.366, 122.575, 123.823, 0, 139.825, 161.199, 131.293, 27.3643
13, 0.00000, 123.417, 122.658, 123.946, 0, 140.672, 159.516, 128.109, 28.0383
13, 900.00000, 123.284, 122.514, 123.783, 0, 143.407, 162.54, 132.818, 26.7962
13, 1800.00000, 122.855, 122.068, 123.265, 0, 139.504, 159.884, 133.814, 24.4641
13, 2700.00000, 122.378, 121.453, 122.711, 0, 149.826, 176.303, 150.183, 27.1771
14, 0.00000, 122.549, 121.692, 122.925, 0, 145.053, 167.993, 142.911, 24.9137
14, 900.00000, 122.603, 121.752, 123.046, 0, 144.776, 167.833, 138.866, 27.307
14, 1800.00000, 122.881, 121.993, 123.243, 0, 135.759, 161.455, 133.737, 27.5107
14, 2700.00000, 118.46, 117.665, 118.785, 0, 131.212, 155.472, 130.387, 25.2483
15, 0.00000, 125.423, 124.601, 125.857, 0, 141.343, 161.342, 134.366, 25.0021
15, 900.00000, 125.647, 124.797, 126.102, 0, 134.906, 157.212, 126.524, 28.1604
15, 1800.00000, 125.402, 124.539, 125.883, 0, 143.557, 166.158, 133.808, 29.4731
15, 2700.00000, 125.65, 124.742, 125.927, 0, 131.592, 157.276, 133.036, 25.7221
16, 0.00000, 125.402, 124.538, 125.815, 0, 141.524, 164.362, 135.712, 26.9841
16, 900.00000, 125.403, 124.53, 125.887, 0, 142.588, 166.466, 132.797, 30.713
16, 1800.00000, 125.345, 124.48, 125.885, 0, 146.275, 169.873, 133.006, 33.0356
16, 2700.00000, 125.568, 124.709, 125.998, 0, 138.091, 161.443, 130.742, 28.4623
17, 0.00000, 125.367, 124.456, 125.786, 0, 144.63, 170.549, 138.012, 30.5314
17, 900.00000, 125.498, 124.51, 125.773, 0, 138.967, 170.744, 139.181, 32.3858
17, 1800.00000, 127.076, 126.27, 127.382, 0, 143.037, 164.221, 140.072, 23.504
17, 2700.00000, 127.037, 126.275, 127.354, 0, 145.166, 164.588, 141.261, 22.3157
18, 0.00000, 127.125, 126.295, 127.333, 0, 142.162, 165.803, 143.748, 23.5632
18, 900.00000, 126.633, 125.684, 126.724, 0, 154.779, 184.767, 163.351, 27.5127
18, 1800.00000, 126.625, 125.67, 126.641, 0, 154.864, 185.32, 167.32, 27.2578
18, 2700.00000, 130.827, 129.663, 130.728, 0, 159.06, 199.307, 176.438, 35.7759
19, 0.00000, 130.557, 129.411, 130.546, 0, 168.787, 207.651, 181.581, 35.1803
19, 900.00000, 130.705, 129.69, 130.676, 0, 163.643, 195.91, 177.19, 28.8527
19, 1800.00000, 130.172, 129.128, 130.127, 0, 166.079, 200.135, 180.731, 30.3924
19, 2700.00000, 130.13, 128.96, 129.987, 0, 162.453, 203.248, 183.875, 36.158
20, 0.00000, 130.245, 129.159, 130.142, 0, 159.995, 196.229, 178.402, 32.1586
20, 900.00000, 124.336, 123.234, 124.413, 0, 172.09, 210.976, 183.987, 35.412
20, 1800.00000, 124.629, 123.63, 124.627, 0, 163.48, 196.902, 178.369, 29.7838
20, 2700.00000, 124.282, 123.325, 124.357, 0, 167.219, 198.286, 178.389, 28.0769
21, 0.00000, 124.125, 123.177, 124.07, 0, 169.785, 198.977, 188.507, 26.3516
21, 900.00000, 124.35, 123.388, 124.489, 0, 165.844, 196.595, 173.42, 28.5983
21, 1800.00000, 120.552, 119.721, 120.659, 0, 165.468, 191.618, 174.848, 23.4823
21, 2700.00000, 120.507, 119.773, 120.743, 0, 168.023, 189.251, 170.48, 20.7867
22, 0.00000, 120.688, 119.964, 120.915, 0, 164.47, 185.234, 166.858, 20.4011
22, 900.00000, 120.645, 119.867, 120.753, 0, 164.445, 187.997, 173.101, 21.1975
22, 1800.00000, 120.585, 119.784, 120.725, 0, 166.868, 191.807, 173.695, 22.9214
22, 2700.00000, 122.362, 121.465, 122.406, 0, 153.57, 182.607, 166.1, 25.9305
23, 0.00000, 122.176, 121.263, 122.33, 0, 161.23, 190.671, 168.466, 27.3749
23, 900.00000, 122.47, 121.629, 122.585, 0, 151.829, 177.86, 160.576, 23.6554
23, 1800.00000, 126.146, 125.251, 126.27, 0, 157.497, 184.146, 165.051, 24.5728
23, 2700.00000, 126.236, 125.385, 126.457, 0, 156.733, 181.383, 158.627, 24.5274
24, 0.00000, 126.127, 125.296, 126.411, 0, 161.073, 184.426, 159.715, 24.8436
24, 900.00000, 126.276, 125.439, 126.456, 0, 157.782, 182.25, 161.44, 23.6116
