hour, t(sec), |V|1 (volts), |V|2 (volts), |V|3 (volts), |V|4 (volts), |I|1 (amps), |I|2 (amps), |I|3 (amps), |I|4 (amps)
0, 900.00000, 125.174, 124.351, 125.383, 0, 158.009, 182.522, 161.664, 23.6677
0, 1800.00000, 125.375, 124.657, 125.678, 0, 152.86, 172.092, 151.023, 20.9231
0, 2700.00000, 125.786, 125.091, 125.999, 0, 141.742, 160.397, 144.531, 18.0698
1, 0.00000, 125.603, 124.887, 125.86, 0, 147.141, 167.1, 147.534, 20.4316
1, 900.00000, 125.65, 124.94, 125.938, 0, 146.605, 166.512, 145.166, 21.3144
1, 1800.00000, 125.709, 125.007, 125.928, 0, 140.007, 159.852, 142.137, 19.4863
1, 2700.00000, 125.562, 124.904, 125.839, 0, 146.192, 163.19, 144.832, 18.3578
2, 0.00000, 125.531, 124.859, 125.844, 0, 146.074, 163.832, 143.067, 20.0766
2, 900.00000, 125.67, 125.03, 125.973, 0, 142.632, 158.73, 140, 18.1826
2, 1800.00000, 125.469, 124.844, 125.881, 0, 151.098, 165.922, 142.405, 21.2155
2, 2700.00000, 125.631, 124.988, 125.995, 0, 143.818, 160.254, 137.598, 20.8716
3, 0.00000, 125.918, 125.346, 126.266, 0, 134.826, 148.21, 129.265, 17.4072
3, 900.00000, 125.64, 125.064, 126.13, 0, 146.077, 159.242, 132.782, 23.4482
3, 1800.00000, 125.867, 125.305, 126.304, 0, 137.669, 150.46, 127.106, 20.7671
3, 2700.00000, 125.52, 124.923, 125.977, 0, 147.091, 160.946, 136.105, 22.1364
4, 0.00000, 125.643, 125.03, 126.072, 0, 143.001, 157.949, 133.444, 21.9608
4, 900.00000, 125.791, 125.198, 126.187, 0, 137.699, 151.691, 130.082, 19.5408
4, 1800.00000, 125.484, 124.886, 125.923, 0, 146.788, 159.837, 137.366, 20.1562
4, 2700.00000, 125.754, 125.142, 126.143, 0, 136.487, 151.248, 129.115, 20.0788
5, 0.00000, 125.494, 124.848, 125.961, 0, 146.15, 162.211, 134.776, 24.4587
5, 900.00000, 125.602, 125.005, 126.06, 0, 142.356, 155.917, 131.243, 21.9602
5, 1800.00000, 125.473, 124.815, 125.827, 0, 137.986, 155.182, 132.829, 20.8627
5, 2700.00000, 125.399, 124.719, 125.82, 0, 143.585, 161.822, 134.543, 24.654
6, 0.00000, 125.637, 125.017, 126.088, 0, 138.27, 153.328, 126.906, 23.4829
6, 900.00000, 125.402, 124.743, 125.852, 0, 143.962, 159.65, 133.96, 23.0402
6, 1800.00000, 125.485, 124.784, 125.852, 0, 139.413, 156.744, 134.773, 20.7194
6, 2700.00000, 125.505, 124.897, 125.99, 0, 137.323, 149.486, 126.084, 20.8563
7, 0.00000, 125.201, 124.451, 125.69, 0, 146.785, 165.531, 136.394, 26.2731
7, 900.00000, 125.218, 124.547, 125.639, 0, 145.206, 158.587, 138.357, 18.5427
7, 1800.00000, 125.56, 124.928, 126.102, 0, 137.847, 149.892, 123.979, 23.0526
7, 2700.00000, 125.633, 124.986, 126.179, 0, 135.271, 148.205, 121.123, 24.0419
8, 0.00000, 125.453, 124.729, 125.939, 0, 140.096, 156.387, 129.449, 24.1604
8, 900.00000, 125.779, 125.094, 126.309, 0, 129.461, 144.247, 116.374, 24.7279
8, 1800.00000, 125.628, 125.005, 126.237, 0, 134.008, 145.213, 116.975, 25.1869
8, 2700.00000, 125.436, 124.757, 126, 0, 137.837, 150.856, 123.928, 23.9654
9, 0.00000, 125.24, 124.505, 125.763, 0, 141.607, 157.307, 129.92, 24.5004
9, 900.00000, 125.294, 124.618, 125.88, 0, 140.228, 153.12, 125.088, 24.9433
9, 1800.00000, 125.258, 124.49, 125.809, 0, 141.15, 159.36, 127.936, 28.0044
9, 2700.00000, 125.545, 124.906, 126.12, 0, 132.554, 144.334, 117.465, 23.9044
10, 0.00000, 125.5, 124.73, 126.081, 0, 135.035, 154.584, 119.55, 31.0047
10, 900.00000, 125.411, 124.696, 125.913, 0, 135.057, 150.995, 124.096, 24.0704
10, 1800.00000, 125.635, 124.837, 126.063, 0, 126.26, 147.148, 119.319, 25.7187
10, 2700.00000, 125.371, 124.548, 125.906, 0, 138.058, 159.748, 126.024, 30.2751
11, 0.00000, 125.478, 124.671, 125.935, 0, 134.053, 154.732, 126.186, 26.2236
11, 900.00000, 125.712, 124.863, 126.116, 0, 127.599, 151.417, 121.882, 27.7727
11, 1800.00000, 125.368, 124.692, 125.932, 0, 142.734, 156.792, 128.431, 25.204
11, 2700.00000, 125.524, 124.779, 126.04, 0, 139.412, 157.695, 127.045, 27.3405
12, 0.00000, 125.861, 125.134, 126.252, 0, 125.884, 143.743, 120.293, 21.8242
12, 900.00000, 125.368, 124.568, 125.811, 0, 140.617, 161.2, 133.183, 25.8519
12, 1800.00000, 125.352, 124.578, 125.846, 0, 143.32, 162.293, 132.868, 26.5353
12, 2700.00000, 125.504, 124.701, 125.968, 0, 139.391, 160.679, 130.895, 27.2658
13, 0.00000, 125.554, 124.782, 126.089, 0, 140.249, 159.017, 127.735, 27.9389
13, 900.00000, 125.421, 124.638, 125.927, 0, 142.971, 162.027, 132.424, 26.7005
13, 1800.00000, 125.462, 124.656, 125.876, 0, 138.969, 159.248, 133.311, 24.3542
13, 2700.00000, 124.981, 124.034, 125.322, 0, 149.248, 175.593, 149.614, 27.0606
14, 0.00000, 125.152, 124.273, 125.535, 0, 144.502, 167.328, 142.378, 24.8067
14, 900.00000, 125.206, 124.335, 125.655, 0, 144.227, 167.171, 138.352, 27.1868
14, 1800.00000, 125.485, 124.579, 125.853, 0, 135.253, 160.826, 133.247, 27.3912
14, 2700.00000, 125.582, 124.679, 125.925, 0, 132.817, 158.702, 131.537, 27.2787
15, 0.00000, 125.38, 124.564, 125.832, 0, 141.35, 161.348, 134.369, 25.0182
15, 900.00000, 125.606, 124.761, 126.079, 0, 134.913, 157.22, 126.528, 28.1766
15, 1800.00000, 125.301, 124.445, 125.802, 0, 143.583, 166.188, 133.827, 29.4983
15, 2700.00000, 125.549, 124.648, 125.846, 0, 131.609, 157.297, 133.05, 25.7363
16, 0.00000, 125.299, 124.442, 125.732, 0, 141.543, 164.384, 135.727, 27.0047
16, 900.00000, 125.301, 124.435, 125.806, 0, 142.607, 166.489, 132.812, 30.7355
16, 1800.00000, 125.244, 124.385, 125.804, 0, 146.295, 169.896, 133.02, 33.0599
16, 2700.00000, 125.448, 124.596, 125.898, 0, 138.113, 161.468, 130.759, 28.4841
17, 0.00000, 125.246, 124.342, 125.686, 0, 144.654, 170.576, 138.03, 30.5539
17, 900.00000, 125.377, 124.395, 125.674, 0, 138.989, 170.771, 139.2, 32.4047
17, 1800.00000, 125.436, 124.649, 125.772, 0, 143.331, 164.571, 140.349, 23.5842
17, 2700.00000, 125.396, 124.653, 125.742, 0, 145.468, 164.945, 141.546, 22.3973
18, 0.00000, 125.483, 124.671, 125.721, 0, 142.459, 166.163, 144.038, 23.6401
18, 900.00000, 124.979, 124.049, 125.103, 0, 155.108, 185.178, 163.689, 27.5944
18, 1800.00000, 124.97, 124.033, 125.02, 0, 155.199, 185.739, 167.674, 27.3315
18, 2700.00000, 124.987, 123.866, 124.944, 0, 160.128, 200.738, 177.617, 36.0792
19, 0.00000, 124.706, 123.605, 124.755, 0, 169.939, 209.165, 182.806, 35.5035
19, 900.00000, 124.86, 123.89, 124.889, 0, 164.75, 197.313, 178.375, 29.1005
19, 1800.00000, 124.746, 123.744, 124.756, 0, 167.14, 201.491, 181.874, 30.64
19, 2700.00000, 124.7, 123.571, 124.611, 0, 163.497, 204.643, 185.054, 36.4353
20, 0.00000, 124.82, 123.775, 124.771, 0, 161.015, 197.559, 179.534, 32.4053
20, 900.00000, 124.473, 123.379, 124.575, 0, 172.058, 210.932, 183.947, 35.4086
20, 1800.00000, 124.768, 123.776, 124.79, 0, 163.448, 196.859, 178.328, 29.7754
20, 2700.00000, 124.511, 123.56, 124.609, 0, 167.162, 198.214, 178.324, 28.0694
21, 0.00000, 124.35, 123.409, 124.321, 0, 169.729, 198.907, 188.439, 26.3344
21, 900.00000, 124.579, 123.622, 124.741, 0, 165.792, 196.527, 173.359, 28.595
21, 1800.00000, 124.735, 123.83, 124.864, 0, 164.588, 192.257, 173.722, 25.2469
21, 2700.00000, 124.689, 123.884, 124.947, 0, 167.204, 189.777, 169.372, 22.4203
22, 0.00000, 124.884, 124.094, 125.123, 0, 163.403, 185.379, 165.784, 21.6963
22, 900.00000, 124.837, 123.989, 124.961, 0, 163.409, 188.333, 171.989, 22.7185
22, 1800.00000, 124.773, 123.901, 124.931, 0, 165.92, 192.315, 172.567, 24.5981
22, 2700.00000, 125.155, 124.243, 125.21, 0, 152.951, 181.838, 165.429, 25.8162
23, 0.00000, 124.971, 124.041, 125.136, 0, 160.56, 189.843, 167.77, 27.2491
23, 900.00000, 125.265, 124.409, 125.39, 0, 151.21, 177.103, 159.923, 23.5477
23, 1800.00000, 125.044, 124.163, 125.196, 0, 157.726, 184.425, 165.283, 24.6256
23, 2700.00000, 125.136, 124.299, 125.384, 0, 156.962, 181.659, 158.849, 24.5885
24, 0.00000, 125.026, 124.209, 125.338, 0, 161.3, 184.696, 159.933, 24.9068
24, 900.00000, 125.174, 124.351, 125.383, 0, 158.013, 182.527, 161.667, 23.6695
