hour, t(sec), |V|1 (volts), |V|2 (volts), |V|3 (volts), |V|4 (volts), |I|1 (amps), |I|2 (amps), |I|3 (amps), |I|4 (amps)
0, 900.00000, 120.141, 119.633, 121.902, 0, 89.5711, 92.7649, 49.9012, 41.8888
0, 1800.00000, 120.575, 120.019, 122.276, 0, 81.313, 86.2436, 43.2395, 41.2397
0, 2700.00000, 123.335, 122.698, 124.859, 0, 76.1232, 83.0336, 42.6365, 37.7387
1, 0.00000, 123.051, 122.44, 124.713, 0, 80.577, 86.7546, 43.0083, 41.3435
1, 900.00000, 123.105, 122.499, 124.78, 0, 80.5603, 86.7577, 42.4971, 41.8413
1, 1800.00000, 125.085, 124.436, 126.645, 0, 77.8638, 85.0731, 42.4557, 39.8083
1, 2700.00000, 124.937, 124.328, 126.589, 0, 80.5778, 86.2825, 42.2459, 41.7935
2, 0.00000, 124.864, 124.295, 126.571, 0, 81.2215, 85.6537, 41.4707, 42.4698
2, 900.00000, 125.102, 124.48, 126.693, 0, 77.7254, 83.9524, 41.3, 40.2052
2, 1800.00000, 124.922, 124.363, 126.615, 0, 80.4059, 84.3696, 41.0159, 41.8404
2, 2700.00000, 125.469, 124.898, 127.086, 0, 78.2708, 82.8934, 40.8353, 40.2539
3, 0.00000, 125.913, 125.372, 127.389, 0, 70.9636, 75.3221, 37.4704, 36.1396
3, 900.00000, 125.663, 125.15, 127.246, 0, 74.0144, 77.1828, 37.6664, 38.325
3, 1800.00000, 124.622, 124.151, 126.191, 0, 71.8205, 74.3245, 35.8207, 37.5991
3, 2700.00000, 124.183, 123.637, 125.829, 0, 76.4325, 80.645, 38.8361, 40.1834
4, 0.00000, 124.319, 123.798, 125.943, 0, 74.669, 78.2621, 37.5797, 39.3151
4, 900.00000, 124.466, 123.924, 125.993, 0, 72.9464, 77.3925, 38.7718, 36.8945
4, 1800.00000, 124.07, 123.505, 125.722, 0, 78.3314, 82.6382, 40.8711, 40.1206
4, 2700.00000, 123.884, 123.356, 125.452, 0, 74.1145, 77.9869, 38.5506, 37.9486
5, 0.00000, 123.53, 123.044, 125.248, 0, 80.4649, 82.6844, 40.7266, 41.2365
5, 900.00000, 123.705, 123.242, 125.405, 0, 77.3394, 78.9268, 37.8683, 40.6146
5, 1800.00000, 123.128, 122.533, 124.76, 0, 77.4403, 83.4198, 40.3377, 40.7358
5, 2700.00000, 123.041, 122.551, 124.752, 0, 80.7277, 83.316, 41.1354, 41.288
6, 0.00000, 123.49, 123.016, 125.107, 0, 73.8372, 76.0366, 36.5117, 38.7714
6, 900.00000, 123.202, 122.647, 124.863, 0, 76.3422, 80.1785, 38.6336, 40.0919
6, 1800.00000, 123.137, 122.516, 124.758, 0, 79.134, 84.7537, 42.944, 39.6433
6, 2700.00000, 123.71, 123.303, 125.188, 0, 66.4889, 69.0154, 35.961, 31.745
7, 0.00000, 123.102, 122.745, 124.738, 0, 78.4597, 78.5491, 44.0311, 34.2679
7, 900.00000, 123.322, 122.685, 124.72, 0, 71.4068, 79.5708, 44.0746, 32.5224
7, 1800.00000, 125.025, 124.748, 126.414, 0, 65.6214, 66.3112, 39.112, 26.2496
7, 2700.00000, 125.092, 124.84, 126.51, 0, 64.8182, 64.7465, 37.2701, 26.7513
8, 0.00000, 124.735, 124.478, 126.244, 0, 71.7781, 71.1725, 41.6143, 29.0555
8, 900.00000, 125.191, 124.883, 126.609, 0, 64.3402, 65.8688, 36.7002, 27.902
8, 1800.00000, 125.108, 124.843, 126.575, 0, 63.5951, 63.6973, 34.8268, 28.0545
8, 2700.00000, 124.439, 124.284, 125.877, 0, 60.3572, 59.5455, 34.1627, 24.496
9, 0.00000, 123.948, 123.736, 125.522, 0, 70.2973, 70.8387, 39.961, 29.6085
9, 900.00000, 124.139, 124.009, 125.703, 0, 65.8768, 64.1996, 35.8059, 27.7532
9, 1800.00000, 125.764, 125.975, 127.061, 0, 60.8895, 55.3729, 40.9806, 14.2377
9, 2700.00000, 126.267, 126.284, 127.385, 0, 51.8944, 52.9213, 36.7325, 16.2423
10, 0.00000, 126.016, 126.236, 127.293, 0, 59.1499, 54.1775, 39.2308, 14.6294
10, 900.00000, 125.939, 125.963, 127.129, 0, 57.8334, 58.38, 40.693, 17.4394
10, 1800.00000, 126.072, 126.163, 127.369, 0, 57.2665, 56.0495, 36.5257, 18.6192
10, 2700.00000, 126.835, 127.348, 127.966, 0, 47.6682, 44.4381, 34.4226, 12.5441
11, 0.00000, 127.037, 127.508, 128.071, 0, 43.876, 42.0128, 32.9643, 13.4663
11, 900.00000, 127.015, 127.707, 128.135, 0, 49.6596, 42.0511, 35.9453, 7.96015
11, 1800.00000, 127.188, 127.676, 128.047, 0, 41.5195, 42.4713, 35.7855, 18.4051
11, 2700.00000, 127.359, 127.93, 128.223, 0, 40.3084, 39.7063, 33.723, 16.711
12, 0.00000, 127.644, 128.263, 128.475, 0, 37.6542, 36.6574, 31.1491, 16.271
12, 900.00000, 126.968, 127.487, 127.949, 0, 46.0062, 45.5326, 37.2114, 16.5531
12, 1800.00000, 127.082, 127.807, 128.08, 0, 44.3324, 39.1699, 34.6835, 12.0576
12, 2700.00000, 127.854, 128.512, 128.708, 0, 41.4428, 40.3715, 36.153, 18.0004
13, 0.00000, 127.979, 128.759, 128.897, 0, 41.1021, 37.16, 33.5456, 14.8198
13, 900.00000, 127.807, 128.488, 128.719, 0, 42.4716, 40.1938, 35.653, 16.3974
13, 1800.00000, 128.523, 129.105, 129.396, 0, 42.4801, 42.3603, 36.7869, 18.3338
13, 2700.00000, 127.844, 128.379, 128.909, 0, 49.499, 48.7691, 40.2774, 17.2163
14, 0.00000, 128.109, 128.722, 129.131, 0, 45.983, 43.8702, 37.3881, 15.8552
14, 900.00000, 128.258, 128.939, 129.238, 0, 43.5632, 40.4697, 35.9068, 15.3112
14, 1800.00000, 128.431, 129.097, 129.414, 0, 43.5264, 41.1763, 35.2082, 15.5291
14, 2700.00000, 129.388, 130.015, 130.303, 0, 41.3416, 40.7387, 34.4927, 17.4522
15, 0.00000, 129.238, 129.732, 130.067, 0, 43.1643, 44.9581, 39.6425, 20.7653
15, 900.00000, 129.469, 130.13, 130.398, 0, 41.2134, 39.7322, 33.9784, 16.5539
15, 1800.00000, 129.418, 130.048, 130.427, 0, 45.0395, 42.6431, 36.279, 14.8775
15, 2700.00000, 129.545, 130.149, 130.467, 0, 43.8787, 42.5316, 37.3105, 16.4417
16, 0.00000, 129.309, 129.937, 130.335, 0, 46.7562, 44.2327, 37.7487, 14.8172
16, 900.00000, 129.345, 129.986, 130.417, 0, 46.0338, 43.5926, 35.6294, 14.5014
16, 1800.00000, 129.253, 130.034, 130.436, 0, 48.9484, 42.7802, 35.2248, 10.5453
16, 2700.00000, 127.644, 128.034, 128.806, 0, 52.0473, 49.3701, 37.8537, 13.1039
17, 0.00000, 127.3, 127.797, 128.604, 0, 58.5468, 52.4015, 40.498, 11.8659
17, 900.00000, 127.181, 127.845, 128.515, 0, 63.7486, 53.3736, 44.2026, 8.96493
17, 1800.00000, 124.363, 124.212, 125.796, 0, 69.958, 73.536, 44.4537, 27.334
17, 2700.00000, 124.369, 124.15, 125.666, 0, 69.2381, 75.3378, 47.8389, 26.0585
18, 0.00000, 124.471, 124.314, 125.749, 0, 67.1825, 71.6274, 46.0506, 24.2793
18, 900.00000, 123.529, 123.327, 124.925, 0, 82.1317, 87.573, 58.5639, 27.5343
18, 1800.00000, 123.404, 123.239, 124.823, 0, 86.0227, 90.4837, 61.5318, 27.5231
18, 2700.00000, 120.219, 119.715, 122.027, 0, 116.355, 121.604, 76.8233, 42.7908
19, 0.00000, 120.004, 119.508, 121.91, 0, 117.342, 122.153, 75.412, 44.8966
19, 900.00000, 120.417, 119.632, 122.051, 0, 107.542, 121.639, 73.7208, 43.5133
19, 1800.00000, 118.998, 118.178, 120.806, 0, 118.786, 131.245, 77.7972, 49.1106
19, 2700.00000, 118.754, 117.953, 120.674, 0, 121.9, 133.793, 78.2266, 51.3871
20, 0.00000, 119.073, 118.125, 120.914, 0, 115.599, 131.88, 73.7697, 52.5682
20, 900.00000, 118.552, 117.984, 120.698, 0, 125.03, 129.642, 75.0849, 53.1841
20, 1800.00000, 121.893, 120.961, 123.889, 0, 111.857, 126.197, 65.7074, 55.2239
20, 2700.00000, 121.75, 120.8, 123.819, 0, 114.281, 129.222, 66.3138, 57.4173
21, 0.00000, 121.518, 120.367, 123.365, 0, 116.794, 137.058, 75.977, 54.4915
21, 900.00000, 121.927, 121.131, 124.046, 0, 111.688, 121.481, 61.9597, 55.7892
21, 1800.00000, 122.25, 121.292, 124.168, 0, 104.093, 118.774, 60.238, 53.1909
21, 2700.00000, 122.3, 121.331, 124.166, 0, 102.304, 117.646, 60.2426, 51.912
22, 0.00000, 122.579, 121.607, 124.347, 0, 99.8385, 115.399, 60.0194, 49.8784
22, 900.00000, 122.486, 121.446, 124.235, 0, 100.464, 117.883, 61.249, 50.6467
22, 1800.00000, 122.449, 121.469, 124.214, 0, 100.51, 116.174, 60.873, 49.7858
22, 2700.00000, 122.763, 121.873, 124.508, 0, 96.7965, 109.864, 57.428, 47.6798
23, 0.00000, 122.591, 121.711, 124.431, 0, 98.9696, 111.482, 57.4372, 49.4351
23, 900.00000, 122.97, 122.117, 124.741, 0, 94.1719, 106.3, 53.903, 47.8949
23, 1800.00000, 122.831, 122.078, 124.682, 0, 95.4162, 104.103, 53.0792, 47.7054
23, 2700.00000, 122.922, 122.195, 124.768, 0, 95.962, 104.158, 53.4749, 47.5412
24, 0.00000, 122.907, 122.169, 124.754, 0, 94.362, 102.755, 52.1808, 47.3629
24, 900.00000, 123.192, 122.626, 124.95, 0, 89.6201, 93.3167, 49.6737, 42.3256
