hour, t(sec), |V|1 (volts), |V|2 (volts), |V|3 (volts), |V|4 (volts), |I|1 (amps), |I|2 (amps), |I|3 (amps), |I|4 (amps)
0, 900.00000, 129.479, 128.945, 129.875, 0, 173.802, 177.191, 166.184, 10.4473
0, 1800.00000, 129.615, 129.085, 130.004, 0, 172.41, 176.166, 165.057, 10.4725
0, 2700.00000, 123.35, 122.868, 123.755, 0, 169.152, 174.913, 163.144, 10.9521
1, 0.00000, 123.152, 122.729, 123.627, 0, 175.367, 178.035, 165.397, 12.1892
1, 900.00000, 123.214, 122.826, 123.718, 0, 174.219, 175.31, 162.596, 12.7799
1, 1800.00000, 118.764, 118.425, 119.227, 0, 167.353, 169.358, 157.808, 11.3568
1, 2700.00000, 118.719, 118.404, 119.196, 0, 167.795, 168.235, 157.275, 11.3813
2, 0.00000, 118.613, 118.215, 119.018, 0, 171.908, 176.98, 165.71, 10.5084
2, 900.00000, 118.767, 118.425, 119.226, 0, 167.504, 169.431, 158.303, 10.9751
2, 1800.00000, 118.692, 118.366, 119.159, 0, 169.036, 169.772, 159.434, 10.6531
2, 2700.00000, 119.144, 118.819, 119.614, 0, 165.569, 166.52, 155.64, 11.0789
3, 0.00000, 125.235, 124.826, 125.66, 0, 162.865, 165.275, 154.385, 10.4744
3, 900.00000, 125.116, 124.711, 125.534, 0, 165.185, 167.091, 157.34, 9.52481
3, 1800.00000, 125.235, 124.854, 125.693, 0, 162.771, 163.689, 152.547, 11.214
3, 2700.00000, 124.885, 124.439, 125.313, 0, 171.946, 175.56, 164.058, 10.8621
4, 0.00000, 125, 124.531, 125.39, 0, 168.434, 173.525, 162.554, 10.2299
4, 900.00000, 125.11, 124.614, 125.46, 0, 165.264, 171.975, 161.809, 9.72014
4, 1800.00000, 124.807, 124.296, 125.207, 0, 173.587, 179.787, 168.112, 10.9296
4, 2700.00000, 130.985, 130.407, 131.291, 0, 158.982, 166.417, 155.692, 10.2524
5, 0.00000, 130.842, 130.342, 131.247, 0, 162.173, 164.432, 153.646, 10.4114
5, 900.00000, 130.871, 130.342, 131.244, 0, 162.765, 167.023, 155.781, 10.4726
5, 1800.00000, 134.564, 133.939, 134.828, 0, 165.339, 173.391, 162.325, 10.6496
5, 2700.00000, 134.704, 134.123, 134.987, 0, 158.864, 164.094, 154.669, 8.88513
6, 0.00000, 135.004, 134.418, 135.252, 0, 148.978, 154.781, 146.579, 7.96787
6, 900.00000, 134.763, 134.12, 135.016, 0, 155.671, 162.472, 154.246, 8.36444
6, 1800.00000, 125.279, 124.732, 125.663, 0, 153.239, 159.463, 150.246, 8.96689
6, 2700.00000, 125.486, 124.952, 125.848, 0, 147.285, 152.797, 145.749, 7.23011
7, 0.00000, 125.331, 124.748, 125.7, 0, 147.862, 154.525, 147.249, 7.86561
7, 900.00000, 125.465, 124.825, 125.774, 0, 139.567, 148.495, 142.237, 8.73445
7, 1800.00000, 125.768, 125.151, 126.077, 0, 131.067, 139.394, 133.969, 8.04184
7, 2700.00000, 125.892, 125.254, 126.178, 0, 125.709, 135.269, 129.885, 8.96225
8, 0.00000, 125.824, 125.218, 126.179, 0, 123.887, 130.665, 124.443, 7.27051
8, 900.00000, 126.062, 125.473, 126.432, 0, 118.355, 124.739, 118.482, 7.0389
8, 1800.00000, 125.866, 125.268, 126.223, 0, 125.494, 132.214, 126.67, 6.96886
8, 2700.00000, 125.7, 125.032, 126.032, 0, 127.91, 137.163, 131.302, 8.86229
9, 0.00000, 125.568, 124.903, 125.952, 0, 127.612, 136.11, 128.054, 9.11466
9, 900.00000, 125.516, 124.873, 125.917, 0, 132.373, 140.244, 131.823, 9.01277
9, 1800.00000, 125.704, 124.996, 126.014, 0, 123.06, 134.788, 127.591, 10.9626
9, 2700.00000, 125.946, 125.314, 126.31, 0, 117.217, 125.404, 118.377, 8.39434
10, 0.00000, 126.019, 125.404, 126.385, 0, 113.231, 120.912, 114.033, 8.00308
10, 900.00000, 125.858, 125.167, 126.172, 0, 117.097, 128.561, 120.893, 10.7992
10, 1800.00000, 126.022, 125.334, 126.351, 0, 111.602, 123.21, 114.509, 11.1282
10, 2700.00000, 125.633, 124.963, 126.024, 0, 125.048, 135.194, 125.3, 10.8165
11, 0.00000, 125.724, 125.071, 126.129, 0, 121.862, 130.87, 121.186, 10.142
11, 900.00000, 126.05, 125.406, 126.416, 0, 110.168, 119.412, 110.923, 9.5658
11, 1800.00000, 125.555, 124.879, 125.888, 0, 127.42, 138.574, 129.962, 10.8832
11, 2700.00000, 125.876, 125.21, 126.157, 0, 115.05, 126.2, 119.705, 10.3196
12, 0.00000, 125.964, 125.286, 126.257, 0, 115.254, 127.447, 119.03, 11.4553
12, 900.00000, 125.561, 124.811, 125.827, 0, 124.709, 139.574, 131.01, 13.6222
12, 1800.00000, 125.576, 124.871, 125.865, 0, 125.576, 137.805, 130.481, 11.3691
12, 2700.00000, 125.573, 124.832, 125.818, 0, 125.483, 140.452, 133.007, 13.6227
13, 0.00000, 125.707, 124.978, 125.99, 0, 121.216, 134.572, 126.997, 12.2843
13, 900.00000, 125.556, 124.832, 125.863, 0, 124.839, 137.557, 129.611, 11.8616
13, 1800.00000, 125.56, 124.853, 125.902, 0, 123.822, 135.534, 126.425, 11.4199
13, 2700.00000, 124.915, 124.152, 125.321, 0, 142.54, 155.348, 143.464, 13.3511
14, 0.00000, 124.957, 124.19, 125.376, 0, 144.914, 158.269, 145.099, 14.2571
14, 900.00000, 125.018, 124.252, 125.414, 0, 144.513, 158.38, 145.918, 14.1914
14, 1800.00000, 125.365, 124.627, 125.747, 0, 131.981, 144.92, 133.527, 13.1006
14, 2700.00000, 125.529, 124.793, 125.877, 0, 125.477, 138.833, 128.187, 13.0175
15, 0.00000, 125.454, 124.733, 125.843, 0, 126.724, 138.104, 127.883, 11.6862
15, 900.00000, 125.653, 124.906, 125.992, 0, 121.972, 135.516, 125.712, 12.8798
15, 1800.00000, 125.465, 124.764, 125.837, 0, 127.337, 138.085, 129.164, 10.7815
15, 2700.00000, 125.518, 124.776, 125.866, 0, 126.203, 139.68, 129.021, 13.1096
16, 0.00000, 125.315, 124.569, 125.665, 0, 133.596, 147.012, 136.686, 13.0184
16, 900.00000, 125.338, 124.615, 125.683, 0, 133.847, 146.589, 137.135, 12.2875
16, 1800.00000, 125.409, 124.706, 125.747, 0, 130.435, 142.308, 133.607, 11.442
16, 2700.00000, 125.604, 124.832, 125.865, 0, 123.927, 139.692, 131.223, 14.3586
17, 0.00000, 125.406, 124.721, 125.77, 0, 130.028, 140.599, 131.58, 10.7046
17, 900.00000, 125.529, 124.773, 125.772, 0, 125.131, 141.493, 131.586, 14.9597
17, 1800.00000, 125.46, 124.748, 125.704, 0, 129.422, 143.988, 134.458, 13.5056
17, 2700.00000, 125.398, 124.723, 125.66, 0, 133.156, 146.486, 136.558, 12.7041
18, 0.00000, 125.476, 124.737, 125.638, 0, 130.855, 148.338, 138.888, 15.7856
18, 900.00000, 124.893, 124.061, 124.993, 0, 147.953, 170.591, 159.379, 20.3088
18, 1800.00000, 124.803, 124.094, 125.038, 0, 152.469, 168.28, 156.021, 15.1556
18, 2700.00000, 124.852, 124.115, 125.044, 0, 147.276, 164.604, 152.96, 16.0414
19, 0.00000, 124.604, 123.877, 124.803, 0, 155.421, 172.079, 160.991, 15.4717
19, 900.00000, 124.619, 123.939, 124.858, 0, 158.331, 173.052, 161.264, 14.2979
19, 1800.00000, 118.393, 117.811, 118.613, 0, 158.884, 172.95, 163.306, 12.962
19, 2700.00000, 118.031, 117.454, 118.341, 0, 173.041, 186.642, 173.565, 14.0382
20, 0.00000, 118.221, 117.621, 118.512, 0, 166.401, 181.32, 167.404, 15.0909
20, 900.00000, 117.648, 117.167, 118.121, 0, 190.292, 198.531, 182.802, 14.5355
20, 1800.00000, 118.061, 117.519, 118.41, 0, 174.806, 186.356, 172.843, 13.3979
20, 2700.00000, 115.283, 114.83, 115.689, 0, 177.284, 185.487, 172.601, 12.0956
21, 0.00000, 115.067, 114.584, 115.526, 0, 183.058, 191.776, 176.177, 14.4172
21, 900.00000, 115.399, 114.865, 115.737, 0, 172.212, 184.337, 171.733, 13.0857
21, 1800.00000, 124.241, 123.675, 124.7, 0, 175.382, 182.206, 167.647, 13.4782
21, 2700.00000, 124.149, 123.575, 124.571, 0, 180.683, 188.447, 175.142, 12.5098
22, 0.00000, 124.484, 123.949, 124.918, 0, 169.257, 175.132, 162.338, 11.8939
22, 900.00000, 124.413, 123.851, 124.835, 0, 170.487, 177.671, 163.869, 12.783
22, 1800.00000, 124.354, 123.799, 124.785, 0, 172.779, 179.718, 165.546, 13.093
22, 2700.00000, 127.269, 126.627, 127.655, 0, 170.631, 180.769, 165.019, 14.6827
23, 0.00000, 127.144, 126.56, 127.599, 0, 175.152, 181.381, 166.69, 13.5936
23, 900.00000, 127.31, 126.75, 127.776, 0, 172.889, 178.47, 163.12, 14.2064
23, 1800.00000, 129.245, 128.705, 129.769, 0, 179.049, 181.365, 165.247, 15.7235
23, 2700.00000, 129.44, 128.881, 129.9, 0, 172.485, 176.357, 162.13, 13.423
24, 0.00000, 129.335, 128.762, 129.784, 0, 176.719, 181.279, 167.228, 13.1562
24, 900.00000, 129.48, 128.946, 129.876, 0, 173.798, 177.187, 166.181, 10.4466
