hour, t(sec), |V|1 (volts), |V|2 (volts), |V|3 (volts), |V|4 (volts), |I|1 (amps), |I|2 (amps), |I|3 (amps), |I|4 (amps)
0, 900.00000, 120.158, 119.472, 121.265, 0, 268.95, 292.261, 212.589, 72.558
0, 1800.00000, 120.426, 119.753, 121.494, 0, 259.545, 282.492, 205.979, 69.5875
0, 2700.00000, 123.125, 122.441, 124.122, 0, 249.786, 272.002, 200.184, 64.8434
1, 0.00000, 122.899, 122.188, 123.958, 0, 257.653, 282.433, 203.341, 71.2541
1, 900.00000, 122.975, 122.265, 124.013, 0, 255.531, 280.788, 202.863, 70.0352
1, 1800.00000, 124.97, 124.276, 125.941, 0, 246.38, 269.52, 197.169, 65.0868
1, 2700.00000, 124.913, 124.196, 125.872, 0, 246.394, 270.833, 198.056, 65.2477
2, 0.00000, 124.831, 124.123, 125.819, 0, 249.218, 272.738, 199.143, 66.2239
2, 900.00000, 125.012, 124.311, 125.981, 0, 243.825, 267.157, 194.576, 65.2534
2, 1800.00000, 124.87, 124.14, 125.884, 0, 248.649, 273.606, 196.1, 69.6261
2, 2700.00000, 125.395, 124.69, 126.39, 0, 243.872, 267.599, 192.027, 67.9871
3, 0.00000, 125.727, 125.056, 126.646, 0, 232.406, 255.046, 185.898, 62.0378
3, 900.00000, 125.457, 124.755, 126.471, 0, 243.639, 268.051, 190.111, 70.0758
3, 1800.00000, 124.435, 123.763, 125.393, 0, 234.638, 258.185, 185.801, 64.9447
3, 2700.00000, 123.985, 123.284, 125.015, 0, 249.682, 273.891, 196.665, 69.5259
4, 0.00000, 124.12, 123.433, 125.127, 0, 244.536, 268.045, 193.124, 67.4466
4, 900.00000, 124.267, 123.602, 125.238, 0, 239.407, 261.463, 190.666, 63.8018
4, 1800.00000, 123.928, 123.225, 124.949, 0, 250.115, 273.133, 198.723, 67.1444
4, 2700.00000, 123.792, 123.138, 124.763, 0, 232.991, 253.935, 184.025, 63.1643
5, 0.00000, 123.537, 122.833, 124.58, 0, 242.946, 266.977, 188.938, 70.3068
5, 900.00000, 123.662, 122.976, 124.66, 0, 237.988, 260.956, 187.348, 66.2904
5, 1800.00000, 123.064, 122.409, 124.068, 0, 240.205, 261.213, 189.489, 64.9416
5, 2700.00000, 123.097, 122.421, 124.137, 0, 239.4, 261.786, 185.342, 69.122
6, 0.00000, 123.488, 122.833, 124.48, 0, 224.395, 245.416, 172.806, 65.6603
6, 900.00000, 123.157, 122.466, 124.199, 0, 235.898, 257.517, 182.635, 67.832
6, 1800.00000, 123.227, 122.529, 124.236, 0, 231.849, 253.192, 181.951, 64.427
6, 2700.00000, 123.574, 123.018, 124.554, 0, 216.295, 236.328, 169.832, 60.2576
7, 0.00000, 123.219, 122.633, 124.289, 0, 228.841, 248.898, 177.144, 65.3546
7, 900.00000, 123.316, 122.741, 124.33, 0, 220.16, 237.453, 172.153, 59.7639
7, 1800.00000, 125.119, 124.693, 126.051, 0, 194.547, 210.447, 153.298, 52.2876
7, 2700.00000, 125.235, 124.82, 126.156, 0, 187.861, 202.951, 147.292, 50.9862
8, 0.00000, 125.06, 124.616, 126.017, 0, 192.009, 207.77, 148.688, 54.1148
8, 900.00000, 125.407, 124.989, 126.331, 0, 179.754, 194.698, 138.766, 51.219
8, 1800.00000, 125.237, 124.804, 126.182, 0, 185.727, 201.654, 144.001, 52.7202
8, 2700.00000, 124.52, 124.187, 125.451, 0, 181.619, 196.334, 143.864, 48.3023
9, 0.00000, 124.375, 124.031, 125.302, 0, 180.094, 194.715, 142.461, 48.1118
9, 900.00000, 124.391, 124.053, 125.327, 0, 182.398, 197.492, 144.322, 48.9097
9, 1800.00000, 126.01, 125.948, 126.935, 0, 168.8, 178.923, 133.521, 42.5917
9, 2700.00000, 126.375, 126.332, 127.215, 0, 154.365, 164.297, 124.736, 37.304
10, 0.00000, 126.319, 126.277, 127.241, 0, 158.254, 168.894, 121.642, 44.0869
10, 900.00000, 126.191, 126.156, 127.058, 0, 159.359, 168.135, 127.681, 38.1508
10, 1800.00000, 126.4, 126.377, 127.252, 0, 150.374, 158.903, 119.637, 37.0208
10, 2700.00000, 126.811, 127.11, 127.692, 0, 150.727, 158.723, 123.3, 34.8082
11, 0.00000, 126.94, 127.243, 127.771, 0, 145.006, 152.574, 121.155, 31.6224
11, 900.00000, 127.288, 127.625, 128.077, 0, 129.784, 136.314, 107.595, 29.128
11, 1800.00000, 126.97, 127.393, 127.788, 0, 146.836, 152.885, 124.579, 29.5036
11, 2700.00000, 127.2, 127.634, 128.025, 0, 137.689, 143.938, 113.447, 30.8876
12, 0.00000, 127.507, 127.972, 128.228, 0, 125.713, 130.494, 109.167, 24.2869
12, 900.00000, 126.904, 127.322, 127.727, 0, 148.077, 153.84, 125.67, 29.3538
12, 1800.00000, 126.979, 127.383, 127.819, 0, 145.93, 153.044, 121.753, 31.8742
12, 2700.00000, 127.626, 128.125, 128.46, 0, 146.368, 151.88, 124.002, 29.3333
13, 0.00000, 127.828, 128.314, 128.658, 0, 137.887, 143.423, 115.436, 29.257
13, 900.00000, 127.639, 128.11, 128.478, 0, 144.329, 150.313, 121.834, 29.8763
13, 1800.00000, 128.393, 128.867, 129.214, 0, 141.257, 147.009, 119.921, 28.7618
13, 2700.00000, 127.697, 128.104, 128.597, 0, 166.409, 174.054, 142.567, 32.8394
14, 0.00000, 127.925, 128.354, 128.766, 0, 157.72, 164.234, 138.345, 28.6887
14, 900.00000, 127.973, 128.414, 128.849, 0, 158.592, 165.048, 136.178, 30.5437
14, 1800.00000, 128.296, 128.759, 129.123, 0, 144.975, 151.122, 125.153, 28.3203
14, 2700.00000, 129.276, 129.771, 130.08, 0, 136.028, 141.527, 117.072, 26.9664
15, 0.00000, 129.136, 129.61, 129.968, 0, 141.584, 146.815, 120.882, 27.8783
15, 900.00000, 129.394, 129.889, 130.22, 0, 132.24, 137.281, 111.569, 27.4673
15, 1800.00000, 129.342, 129.769, 130.237, 0, 146.407, 153.853, 120.4, 33.5914
15, 2700.00000, 129.496, 129.963, 130.32, 0, 139.499, 144.591, 118.664, 27.5472
16, 0.00000, 129.253, 129.691, 130.127, 0, 149.945, 156.509, 125.947, 31.3515
16, 900.00000, 129.231, 129.665, 130.141, 0, 152.953, 160.927, 126.251, 34.7209
16, 1800.00000, 129.259, 129.69, 130.177, 0, 151.518, 160.108, 123.658, 36.143
16, 2700.00000, 127.721, 127.948, 128.63, 0, 157.015, 164.191, 126.232, 36.5224
17, 0.00000, 127.501, 127.69, 128.441, 0, 165.72, 175.841, 133.012, 40.906
17, 900.00000, 127.613, 127.867, 128.522, 0, 160.152, 167.258, 127.952, 37.6599
17, 1800.00000, 124.727, 124.594, 125.657, 0, 185.532, 196.327, 146.854, 46.1638
17, 2700.00000, 124.629, 124.512, 125.58, 0, 192.645, 203.117, 151.641, 48.0813
18, 0.00000, 124.705, 124.611, 125.636, 0, 189.151, 198.378, 148.967, 46.3047
18, 900.00000, 123.892, 123.79, 124.928, 0, 222.038, 230.903, 175.33, 52.4199
18, 1800.00000, 123.853, 123.731, 124.885, 0, 225.181, 236.275, 178.306, 54.2628
18, 2700.00000, 121.23, 120.729, 122.462, 0, 261.253, 275.361, 194.915, 75.454
19, 0.00000, 120.861, 120.342, 122.153, 0, 277.809, 293.202, 208.311, 79.7492
19, 900.00000, 120.973, 120.467, 122.201, 0, 276.057, 290.898, 210.97, 74.9549
19, 1800.00000, 119.781, 119.17, 121.022, 0, 286.938, 302.672, 218.748, 78.9085
19, 2700.00000, 119.483, 118.861, 120.743, 0, 300.079, 316.871, 232.532, 79.0701
20, 0.00000, 119.752, 119.144, 120.967, 0, 286.49, 301.614, 221.319, 75.5669
20, 900.00000, 119.213, 118.551, 120.539, 0, 314.428, 334.483, 243.451, 84.725
20, 1800.00000, 122.397, 121.681, 123.647, 0, 291.725, 312.188, 224.832, 80.5803
20, 2700.00000, 122.251, 121.506, 123.513, 0, 298.952, 321.933, 232.209, 82.2488
21, 0.00000, 122.037, 121.3, 123.285, 0, 304.54, 324.284, 239.421, 78.5197
21, 900.00000, 122.469, 121.732, 123.723, 0, 287.735, 309.015, 221.271, 80.7342
21, 1800.00000, 122.569, 121.813, 123.794, 0, 285.348, 307.855, 220.592, 79.9055
21, 2700.00000, 122.504, 121.751, 123.734, 0, 290.335, 313.397, 225.579, 80.3277
22, 0.00000, 122.836, 122.101, 124.035, 0, 278.253, 300.179, 213.963, 78.9483
22, 900.00000, 122.749, 122.012, 123.925, 0, 279.848, 301.268, 217.432, 76.8033
22, 1800.00000, 122.658, 121.917, 123.894, 0, 284.729, 306.767, 217.424, 81.9809
22, 2700.00000, 123.003, 122.294, 124.144, 0, 270.465, 290.505, 210.705, 73.2082
23, 0.00000, 122.777, 122.018, 123.972, 0, 281.96, 305.301, 219.62, 78.1435
23, 900.00000, 123.167, 122.435, 124.265, 0, 266.409, 288.926, 210.267, 71.4641
23, 1800.00000, 122.97, 122.202, 124.114, 0, 275.23, 299.807, 216.298, 75.7089
23, 2700.00000, 123.175, 122.424, 124.295, 0, 266.852, 290.84, 209.053, 74.1188
24, 0.00000, 123.032, 122.27, 124.184, 0, 273.801, 298.281, 214.213, 76.2493
24, 900.00000, 123.216, 122.463, 124.327, 0, 269.046, 294.499, 211.579, 74.8615
