hour, t(sec), |V|1 (volts), |V|2 (volts), |V|3 (volts), |V|4 (volts), |I|1 (amps), |I|2 (amps), |I|3 (amps), |I|4 (amps)
0, 900.00000, 71.0375, 70.789, 71.416, 0, 106.655, 109.626, 73.6221, 35.1001
0, 1800.00000, 71.129, 70.8861, 71.4987, 0, 103.571, 106.417, 71.7094, 33.8398
0, 2700.00000, 72.5957, 72.3408, 72.9555, 0, 102.055, 105.771, 70.3127, 34.1976
1, 0.00000, 72.5076, 72.257, 72.8658, 0, 106.509, 109.696, 75.3247, 33.357
1, 900.00000, 72.5528, 72.3082, 72.9056, 0, 102.903, 105.616, 72.5204, 32.2678
1, 1800.00000, 73.627, 73.3722, 73.9698, 0, 101.414, 104.974, 71.0157, 32.748
1, 2700.00000, 73.5923, 73.335, 73.938, 0, 102.925, 106.199, 71.6027, 33.5083
2, 0.00000, 73.559, 73.2987, 73.9092, 0, 104.749, 108.46, 73.3931, 33.8103
2, 900.00000, 73.6299, 73.3706, 73.9667, 0, 101.968, 105.816, 72.4402, 32.0558
2, 1800.00000, 73.5806, 73.3197, 73.9196, 0, 103.916, 107.188, 74.2831, 31.8372
2, 2700.00000, 73.85, 73.5942, 74.1791, 0, 101.269, 104.564, 72.7671, 30.7033
3, 0.00000, 73.9679, 73.7243, 74.2892, 0, 96.7258, 99.7435, 68.8183, 29.9173
3, 900.00000, 73.8896, 73.6449, 74.2129, 0, 99.8776, 102.151, 72.3245, 29.1624
3, 1800.00000, 73.2471, 73.0143, 73.571, 0, 96.0076, 98.2642, 68.5391, 29.0486
3, 2700.00000, 73.0851, 72.8372, 73.4235, 0, 102.128, 105.122, 73.572, 30.5985
4, 0.00000, 73.1341, 72.8908, 73.4726, 0, 99.7276, 102.368, 70.9002, 30.6513
4, 900.00000, 73.1923, 72.9485, 73.522, 0, 96.5042, 99.6854, 69.0983, 29.5307
4, 1800.00000, 73.0565, 72.7941, 73.4015, 0, 102.584, 106.538, 73.8696, 31.3364
4, 2700.00000, 72.882, 72.6345, 73.2082, 0, 94.7251, 98.428, 67.8081, 29.3464
5, 0.00000, 72.8034, 72.5544, 73.1322, 0, 97.339, 100.066, 70.8146, 28.4074
5, 900.00000, 72.8289, 72.5813, 73.1635, 0, 98.1696, 101.137, 70.2024, 29.9807
5, 1800.00000, 72.5129, 72.263, 72.8445, 0, 97.2283, 101.485, 70.2046, 29.804
5, 2700.00000, 72.5369, 72.2909, 72.8638, 0, 95.5121, 98.6232, 68.9886, 28.6165
6, 0.00000, 72.6606, 72.4182, 72.9767, 0, 91.4169, 94.321, 65.5059, 27.8572
6, 900.00000, 72.5433, 72.2828, 72.8821, 0, 95.8421, 99.0384, 68.3463, 29.654
6, 1800.00000, 72.5766, 72.3065, 72.9092, 0, 91.2115, 94.9328, 65.8696, 27.817
6, 2700.00000, 72.6669, 72.4741, 72.9873, 0, 84.9359, 87.786, 62.5271, 24.4076
7, 0.00000, 72.5751, 72.3648, 72.906, 0, 84.2982, 87.4794, 62.1564, 24.3735
7, 900.00000, 72.5719, 72.3393, 72.8972, 0, 83.9364, 89.1991, 62.0152, 25.522
7, 1800.00000, 73.4543, 73.3026, 73.7493, 0, 70.9223, 75.145, 54.3896, 19.6403
7, 2700.00000, 73.4848, 73.3349, 73.7795, 0, 68.5195, 72.5185, 51.8674, 19.5809
8, 0.00000, 73.4089, 73.2468, 73.7086, 0, 70.9659, 75.1915, 53.628, 20.4238
8, 900.00000, 73.5405, 73.3901, 73.8215, 0, 64.3328, 68.0836, 50.4032, 16.7763
8, 1800.00000, 73.4711, 73.3199, 73.7639, 0, 68.326, 71.8324, 53.2347, 17.7319
8, 2700.00000, 73.0394, 72.9366, 73.3486, 0, 66.1804, 70.0395, 50.263, 18.9069
9, 0.00000, 72.9642, 72.8468, 73.2594, 0, 64.9242, 70.3544, 51.2597, 18.0392
9, 900.00000, 72.968, 72.8604, 73.2714, 0, 67.8864, 72.6084, 53.052, 18.5617
9, 1800.00000, 73.8458, 73.856, 74.1218, 0, 53.8106, 59.7561, 45.16, 14.732
9, 2700.00000, 73.9689, 73.9872, 74.2171, 0, 48.1096, 54.2824, 43.2264, 12.3245
10, 0.00000, 73.971, 74.0006, 74.2172, 0, 47.3425, 52.3063, 42.7124, 10.9289
10, 900.00000, 73.898, 73.9094, 74.1531, 0, 50.1809, 57.1354, 44.1079, 13.8734
10, 1800.00000, 73.9559, 73.9796, 74.2184, 0, 48.1142, 53.7598, 40.5983, 13.5525
10, 2700.00000, 74.1961, 74.4016, 74.462, 0, 42.8958, 48.0384, 38.6356, 12.6622
11, 0.00000, 74.2256, 74.4305, 74.4982, 0, 42.3867, 47.4707, 36.5233, 13.3029
11, 900.00000, 74.3461, 74.5625, 74.5966, 0, 36.1113, 40.812, 31.9322, 12.25
11, 1800.00000, 74.2726, 74.5239, 74.519, 0, 40.1265, 46.9528, 38.0378, 14.6109
11, 2700.00000, 74.3486, 74.6152, 74.5904, 0, 37.7228, 42.9887, 34.9364, 13.1733
12, 0.00000, 74.4284, 74.7004, 74.6763, 0, 36.4746, 41.9334, 32.0809, 13.8175
12, 900.00000, 74.2363, 74.4875, 74.5005, 0, 41.9831, 48.218, 37.2571, 14.6184
12, 1800.00000, 74.2467, 74.5024, 74.5182, 0, 43.9563, 49.4552, 37.8764, 14.3338
12, 2700.00000, 74.646, 74.9432, 74.9087, 0, 39.4243, 44.9609, 35.5339, 14.1563
13, 0.00000, 74.6923, 74.9822, 74.956, 0, 39.2949, 44.7168, 35.0895, 14.12
13, 900.00000, 74.6264, 74.9096, 74.8948, 0, 40.9315, 46.746, 36.6523, 14.5115
13, 1800.00000, 75.0334, 75.3127, 75.2977, 0, 41.3146, 47.7826, 37.6443, 15.1129
13, 2700.00000, 74.7807, 75.0372, 75.0977, 0, 51.0468, 57.7282, 42.5644, 17.2381
14, 0.00000, 74.8581, 75.1149, 75.171, 0, 47.9088, 55.1511, 39.8127, 17.6623
14, 900.00000, 74.8938, 75.1591, 75.2, 0, 46.9679, 53.763, 39.9116, 16.6246
14, 1800.00000, 75.005, 75.2851, 75.2952, 0, 41.57, 47.2928, 35.6043, 15.0154
14, 2700.00000, 75.5212, 75.8132, 75.797, 0, 38.3571, 44.1292, 33.6306, 14.9204
15, 0.00000, 75.4891, 75.7574, 75.7454, 0, 38.2169, 45.6556, 37.1249, 16.2015
15, 900.00000, 75.5722, 75.8588, 75.8338, 0, 36.4652, 42.3862, 34.0399, 14.8387
15, 1800.00000, 75.6224, 75.8901, 75.8924, 0, 41.8821, 47.7138, 39.1116, 14.1556
15, 2700.00000, 75.6554, 75.9239, 75.9317, 0, 41.2339, 47.9397, 36.894, 15.5087
16, 0.00000, 75.5795, 75.8429, 75.8596, 0, 44.8759, 51.6929, 40.9099, 15.3977
16, 900.00000, 75.5924, 75.87, 75.8689, 0, 44.2696, 49.8279, 41.0777, 13.8532
16, 1800.00000, 75.5962, 75.8807, 75.8746, 0, 44.5137, 49.353, 40.4445, 13.2723
16, 2700.00000, 74.7474, 74.9007, 75.0228, 0, 48.6579, 54.8952, 42.6366, 14.2704
17, 0.00000, 74.6721, 74.8281, 74.9577, 0, 51.9961, 57.286, 44.6156, 14.0826
17, 900.00000, 74.7026, 74.8698, 74.9809, 0, 50.4649, 56.7487, 42.0966, 15.7393
17, 1800.00000, 73.1916, 73.1602, 73.4728, 0, 66.9387, 74.2503, 53.6007, 19.5997
17, 2700.00000, 73.1821, 73.1512, 73.447, 0, 67.8289, 76.3237, 56.7647, 18.7546
18, 0.00000, 73.202, 73.1769, 73.4793, 0, 67.7509, 75.9836, 53.4575, 21.2242
18, 900.00000, 72.9474, 72.9065, 73.2471, 0, 78.4118, 88.5878, 61.6323, 25.1226
18, 1800.00000, 72.9276, 72.8892, 73.2234, 0, 81.5331, 91.6056, 64.8678, 24.9366
18, 2700.00000, 71.6865, 71.4512, 71.9958, 0, 93.9615, 103.832, 72.9021, 28.0506
19, 0.00000, 71.5726, 71.3419, 71.9076, 0, 100.455, 108.964, 76.1138, 30.1958
19, 900.00000, 71.6229, 71.3894, 71.9412, 0, 98.9419, 108.938, 76.8977, 29.097
19, 1800.00000, 70.9956, 70.7066, 71.3246, 0, 106.574, 115.962, 81.8457, 31.0392
19, 2700.00000, 70.8981, 70.6127, 71.2571, 0, 111.098, 119.841, 83.5792, 33.3298
20, 0.00000, 70.9665, 70.6726, 71.3092, 0, 107.791, 117.8, 81.6212, 32.8849
20, 900.00000, 70.81, 70.5301, 71.1911, 0, 117.969, 125.538, 88.6717, 34.3288
20, 1800.00000, 72.4741, 72.169, 72.8467, 0, 116.309, 124.306, 85.2548, 36.3042
20, 2700.00000, 72.4404, 72.1389, 72.8125, 0, 117.426, 124.733, 87.4781, 34.7812
21, 0.00000, 72.3579, 72.0151, 72.7241, 0, 118.961, 130.772, 90.7373, 36.2638
21, 900.00000, 72.4857, 72.1771, 72.8633, 0, 115.68, 122.978, 84.5992, 35.8845
21, 1800.00000, 72.5199, 72.2123, 72.8941, 0, 115.062, 121.821, 83.9942, 35.5169
21, 2700.00000, 72.5205, 72.2177, 72.8838, 0, 114.918, 121.768, 86.155, 33.3074
22, 0.00000, 72.6326, 72.3308, 72.9751, 0, 110.775, 117.916, 83.8738, 31.6342
22, 900.00000, 72.5928, 72.2852, 72.9477, 0, 112.016, 119.564, 82.6649, 34.3098
22, 1800.00000, 72.5609, 72.256, 72.9154, 0, 115.064, 122.39, 85.8696, 34.0242
22, 2700.00000, 72.6653, 72.364, 73.0287, 0, 110.511, 117.804, 79.6793, 35.5817
23, 0.00000, 72.6247, 72.3286, 72.9991, 0, 110.895, 116.278, 79.9353, 34.5199
23, 900.00000, 72.733, 72.4427, 73.0941, 0, 108.381, 114.195, 78.1483, 34.0348
23, 1800.00000, 72.6613, 72.3695, 73.0437, 0, 113.505, 118.462, 80.3784, 36.4106
23, 2700.00000, 72.7521, 72.4652, 73.1092, 0, 106.716, 111.734, 77.3491, 32.6778
24, 0.00000, 72.7128, 72.4251, 73.0794, 0, 109.074, 113.849, 78.7247, 33.5219
24, 900.00000, 72.7741, 72.5051, 73.1525, 0, 109.566, 112.593, 75.6189, 36.0533
