hour, t(sec), |V|1 (volts), |V|2 (volts), |V|3 (volts), |V|4 (volts), |I|1 (amps), |I|2 (amps), |I|3 (amps), |I|4 (amps)
0, 900.00000, 128.555, 128.9, 130.098, 0, 282.359, 225.787, 164.295, 103.132
0, 1800.00000, 128.794, 129.115, 130.293, 0, 269.563, 215.43, 154.815, 100.265
0, 2700.00000, 124.536, 124.909, 125.998, 0, 256.515, 203.815, 148.956, 93.6961
1, 0.00000, 124.318, 124.698, 125.834, 0, 268.796, 215.809, 157.019, 97.4302
1, 900.00000, 124.434, 124.78, 125.912, 0, 261.609, 211.818, 152.874, 94.855
1, 1800.00000, 121.179, 121.568, 122.624, 0, 255.446, 206.244, 150.611, 91.2094
1, 2700.00000, 121.084, 121.471, 122.562, 0, 260.692, 211.527, 153.108, 93.6692
2, 0.00000, 120.99, 121.435, 122.539, 0, 266.817, 212.697, 153.493, 98.5712
2, 900.00000, 121.16, 121.55, 122.629, 0, 257.561, 207.979, 150.751, 92.9536
2, 1800.00000, 121.077, 121.446, 122.582, 0, 261.52, 213.551, 151.839, 95.6438
2, 2700.00000, 121.507, 121.854, 122.943, 0, 250.08, 204.096, 145.769, 90.9351
3, 0.00000, 125.985, 126.313, 127.359, 0, 241.395, 192.897, 139.272, 89.0455
3, 900.00000, 125.896, 126.187, 127.312, 0, 244.316, 198.613, 138.842, 92.2286
3, 1800.00000, 126.097, 126.368, 127.434, 0, 232.042, 188.457, 132.999, 86.5419
3, 2700.00000, 125.713, 126.041, 127.179, 0, 252.462, 203.146, 143.335, 95.2883
4, 0.00000, 125.807, 126.145, 127.261, 0, 247.994, 198.022, 139.779, 94.4326
4, 900.00000, 125.871, 126.237, 127.317, 0, 246.074, 193.748, 138.467, 93.8108
4, 1800.00000, 125.613, 125.977, 127.122, 0, 257.997, 204.615, 145.859, 97.8003
4, 2700.00000, 129.891, 130.198, 131.28, 0, 242.808, 190.572, 135.81, 93.4691
5, 0.00000, 129.771, 130.015, 131.167, 0, 247.49, 199.977, 140.352, 93.7929
5, 900.00000, 129.853, 130.122, 131.241, 0, 243.11, 193.849, 136.405, 93.3026
5, 1800.00000, 132.153, 132.476, 133.566, 0, 253.254, 196.761, 141.207, 98.0196
5, 2700.00000, 132.237, 132.492, 133.614, 0, 248.012, 197.06, 138.69, 95.7251
6, 0.00000, 132.505, 132.722, 133.811, 0, 233.483, 185.866, 129.53, 91.0885
6, 900.00000, 132.277, 132.511, 133.661, 0, 245.602, 194.445, 136.037, 95.9528
6, 1800.00000, 125.773, 126.092, 127.243, 0, 251.185, 199.653, 143.015, 94.3407
6, 2700.00000, 126.034, 126.306, 127.45, 0, 236.423, 188.962, 132.674, 90.5698
7, 0.00000, 125.858, 126.102, 127.315, 0, 242.261, 195.697, 136.174, 92.7508
7, 900.00000, 125.8, 126.056, 127.26, 0, 245.523, 196.821, 138.846, 93.1327
7, 1800.00000, 126.109, 126.34, 127.517, 0, 229.5, 183.71, 126.992, 89.5563
7, 2700.00000, 126.211, 126.425, 127.595, 0, 222.648, 178.332, 122.104, 87.8803
8, 0.00000, 126.066, 126.243, 127.442, 0, 228.084, 185.912, 128.417, 87.2544
8, 900.00000, 126.373, 126.517, 127.675, 0, 211.269, 172.56, 117.989, 81.7354
8, 1800.00000, 126.261, 126.427, 127.611, 0, 216.744, 175.963, 119.876, 84.8311
8, 2700.00000, 126.02, 126.224, 127.449, 0, 229.413, 184.078, 126.493, 89.9736
9, 0.00000, 125.701, 125.932, 127.193, 0, 245.977, 197.861, 138.005, 94.3519
9, 900.00000, 125.858, 126.067, 127.306, 0, 235.496, 189.886, 131.224, 91.1764
9, 1800.00000, 125.934, 126.135, 127.36, 0, 230.507, 185.662, 127.916, 89.7066
9, 2700.00000, 126.151, 126.323, 127.504, 0, 220.446, 178.703, 123.485, 84.8255
10, 0.00000, 126.207, 126.339, 127.534, 0, 215.894, 178.108, 121.078, 83.26
10, 900.00000, 125.983, 126.194, 127.381, 0, 228.349, 183.283, 127.653, 87.9654
10, 1800.00000, 126.176, 126.364, 127.515, 0, 216.27, 173.561, 120.61, 83.5674
10, 2700.00000, 125.976, 126.139, 127.369, 0, 224.029, 182.974, 124.79, 86.9887
11, 0.00000, 126.056, 126.204, 127.401, 0, 219.543, 179.482, 124.087, 83.6066
11, 900.00000, 126.175, 126.347, 127.49, 0, 216.728, 175.503, 123.015, 81.9071
11, 1800.00000, 125.839, 126.04, 127.259, 0, 232.665, 188.804, 130.356, 89.5247
11, 2700.00000, 125.981, 126.168, 127.372, 0, 227.169, 185.013, 126.583, 88.0991
12, 0.00000, 126.131, 126.362, 127.475, 0, 220.312, 174.904, 123.446, 84.4952
12, 900.00000, 125.706, 125.976, 127.197, 0, 240.794, 190.984, 132.754, 94.3092
12, 1800.00000, 125.745, 125.986, 127.213, 0, 240.517, 192.878, 134.111, 92.9609
12, 2700.00000, 125.761, 126.029, 127.241, 0, 238.285, 189.128, 131.362, 93.3448
13, 0.00000, 125.912, 126.121, 127.343, 0, 230.062, 184.959, 127.007, 90.1085
13, 900.00000, 125.758, 125.98, 127.222, 0, 237.143, 190.663, 131.848, 92.0418
13, 1800.00000, 125.663, 125.905, 127.132, 0, 243.376, 195.113, 137.626, 92.3337
13, 2700.00000, 125.176, 125.462, 126.773, 0, 264.874, 211.217, 150.546, 99.7835
14, 0.00000, 125.359, 125.632, 126.904, 0, 255.563, 203.1, 145.317, 96.1844
14, 900.00000, 125.493, 125.743, 127.011, 0, 248.33, 198.26, 140.114, 94.4717
14, 1800.00000, 125.657, 125.91, 127.133, 0, 241.613, 192.127, 136.406, 91.8004
14, 2700.00000, 125.66, 125.924, 127.136, 0, 243.818, 193.806, 137.953, 92.3595
15, 0.00000, 125.558, 125.786, 127.048, 0, 248.897, 200.77, 142.256, 93.1552
15, 900.00000, 125.791, 126.019, 127.253, 0, 237.338, 189.875, 132.677, 91.4109
15, 1800.00000, 125.599, 125.823, 127.104, 0, 247.634, 200.365, 139.633, 94.4519
15, 2700.00000, 125.621, 125.908, 127.101, 0, 247.46, 195.286, 141.329, 92.5343
16, 0.00000, 125.475, 125.768, 127.027, 0, 255.652, 202.712, 143.868, 97.5353
16, 900.00000, 125.522, 125.803, 127.085, 0, 253.622, 202.344, 140.973, 98.397
16, 1800.00000, 125.592, 125.844, 127.135, 0, 248.277, 199.82, 136.933, 97.4027
16, 2700.00000, 125.725, 126.001, 127.232, 0, 242.185, 191.508, 133.354, 94.9863
17, 0.00000, 125.55, 125.806, 127.071, 0, 251.076, 201.988, 141.489, 95.758
17, 900.00000, 125.555, 125.89, 127.075, 0, 252.026, 198.016, 141.246, 96.5933
17, 1800.00000, 125.479, 125.819, 127.016, 0, 257.861, 203.725, 144.509, 98.8565
17, 2700.00000, 125.465, 125.798, 126.981, 0, 259.121, 206.301, 147.146, 97.6706
18, 0.00000, 125.47, 125.849, 127.001, 0, 261.481, 205.247, 147.615, 99.2505
18, 900.00000, 124.888, 125.39, 126.586, 0, 292.093, 225.636, 165.177, 110.661
18, 1800.00000, 124.77, 125.26, 126.444, 0, 301.173, 235.825, 176.239, 108.922
18, 2700.00000, 124.682, 125.167, 126.364, 0, 305.314, 240.46, 179.723, 109.481
19, 0.00000, 124.612, 125.075, 126.329, 0, 305.144, 242.028, 177.085, 111.651
19, 900.00000, 124.713, 125.163, 126.373, 0, 300.523, 238.969, 176.812, 107.837
19, 1800.00000, 120.064, 120.6, 121.789, 0, 311.671, 248.41, 184.733, 110.166
19, 2700.00000, 119.953, 120.511, 121.688, 0, 314.399, 249.404, 187.985, 109.767
20, 0.00000, 120.072, 120.604, 121.782, 0, 308.532, 245.473, 183.424, 108.592
20, 900.00000, 119.999, 120.476, 121.701, 0, 307.328, 249.084, 184.626, 106.649
20, 1800.00000, 120.094, 120.607, 121.806, 0, 307.136, 245.647, 182.205, 108.459
20, 2700.00000, 118.061, 118.592, 119.755, 0, 308.391, 247.467, 185.09, 107.35
21, 0.00000, 117.804, 118.349, 119.495, 0, 322.148, 258.544, 199.392, 106.924
21, 900.00000, 118.178, 118.7, 119.873, 0, 300.841, 239.949, 177.36, 107.489
21, 1800.00000, 124.724, 125.104, 126.366, 0, 296.15, 239.127, 175.058, 105.647
21, 2700.00000, 124.697, 125.114, 126.391, 0, 298.694, 239.097, 173.391, 109.311
22, 0.00000, 124.934, 125.293, 126.536, 0, 286.836, 232.224, 168.192, 103.557
22, 900.00000, 124.81, 125.196, 126.432, 0, 293.575, 236.509, 173.106, 105.077
22, 1800.00000, 124.779, 125.156, 126.41, 0, 295.193, 239.092, 173.994, 105.771
22, 2700.00000, 126.91, 127.306, 128.491, 0, 286.863, 226.917, 167.853, 103.829
23, 0.00000, 126.903, 127.242, 128.494, 0, 285.289, 229.601, 166.303, 103.92
23, 900.00000, 127.019, 127.391, 128.58, 0, 283.313, 225.476, 166.077, 102.295
23, 1800.00000, 128.423, 128.727, 129.95, 0, 283.714, 229.173, 167.921, 101.161
23, 2700.00000, 128.501, 128.823, 130.05, 0, 281.985, 226.477, 163.967, 103.122
24, 0.00000, 128.497, 128.806, 130.06, 0, 280.859, 226.3, 161.91, 104.009
24, 900.00000, 128.556, 128.9, 130.099, 0, 282.356, 225.783, 164.292, 103.132
