hour, t(sec), |V|1 (volts), |V|2 (volts), |V|3 (volts), |V|4 (volts), |I|1 (amps), |I|2 (amps), |I|3 (amps), |I|4 (amps)
0, 900.00000, 119.633, 119.986, 121.031, 0, 288.197, 223.398, 211.435, 71.84
0, 1800.00000, 119.94, 120.282, 121.266, 0, 276.574, 213.29, 205.31, 67.6971
0, 2700.00000, 122.719, 122.988, 124.037, 0, 261.106, 202.466, 188.293, 66.9332
1, 0.00000, 122.522, 122.853, 123.79, 0, 265.73, 202.146, 197.984, 65.5599
1, 900.00000, 122.595, 122.922, 123.84, 0, 264.149, 201.29, 198.038, 64.3217
1, 1800.00000, 124.613, 124.881, 125.82, 0, 253.938, 194.826, 188.475, 62.3755
1, 2700.00000, 124.478, 124.768, 125.659, 0, 260.156, 198.487, 197.016, 62.1102
2, 0.00000, 124.423, 124.721, 125.62, 0, 260.424, 198.031, 196.703, 62.7601
2, 900.00000, 124.671, 124.953, 125.811, 0, 250.082, 189.322, 190.23, 59.951
2, 1800.00000, 124.485, 124.793, 125.611, 0, 257.845, 194.189, 200.05, 60.4178
2, 2700.00000, 125.082, 125.348, 126.189, 0, 247.855, 188.339, 190.523, 58.0598
3, 0.00000, 125.439, 125.745, 126.516, 0, 235.533, 174.305, 179.285, 58.4725
3, 900.00000, 125.118, 125.448, 126.23, 0, 249.923, 185.915, 192.128, 60.6527
3, 1800.00000, 124.179, 124.468, 125.23, 0, 235.002, 176.349, 182.072, 55.5723
3, 2700.00000, 123.661, 123.989, 124.81, 0, 254.18, 190.723, 195.165, 60.913
4, 0.00000, 123.764, 124.086, 124.935, 0, 252.182, 189.691, 190.9, 61.5518
4, 900.00000, 123.924, 124.267, 125.099, 0, 246.504, 182.537, 184.219, 62.8028
4, 1800.00000, 123.607, 123.929, 124.78, 0, 254.295, 189.914, 194.052, 61.9649
4, 2700.00000, 123.444, 123.732, 124.581, 0, 240.728, 181.34, 181.55, 58.979
5, 0.00000, 123.185, 123.494, 124.302, 0, 249.956, 187.841, 193.884, 58.8323
5, 900.00000, 123.331, 123.613, 124.426, 0, 243.91, 184.33, 189.061, 56.9136
5, 1800.00000, 122.715, 123.004, 123.891, 0, 247.389, 188.036, 185.963, 60.1723
5, 2700.00000, 122.671, 122.97, 123.839, 0, 252.655, 192.212, 192, 60.2415
6, 0.00000, 123.044, 123.295, 124.155, 0, 240.432, 184.273, 182.847, 56.6191
6, 900.00000, 122.665, 122.924, 123.883, 0, 254.954, 195.787, 190.937, 61.5349
6, 1800.00000, 122.739, 123.03, 123.964, 0, 250.702, 187.997, 186.651, 63.0885
6, 2700.00000, 123.264, 123.673, 124.346, 0, 214.849, 154.634, 166.422, 50.9214
7, 0.00000, 122.843, 123.206, 124.03, 0, 231.326, 172.795, 176.698, 52.8638
7, 900.00000, 122.799, 123.114, 124.038, 0, 234.697, 178.368, 174.568, 55.1003
7, 1800.00000, 124.831, 125.263, 125.807, 0, 186.007, 132.458, 149.99, 38.5191
7, 2700.00000, 124.883, 125.295, 125.854, 0, 185.124, 133.303, 149.211, 37.3431
8, 0.00000, 124.675, 125.032, 125.655, 0, 191.266, 142.354, 155.064, 35.5698
8, 900.00000, 125.071, 125.426, 125.973, 0, 176.289, 128.761, 145.969, 32.7566
8, 1800.00000, 124.889, 125.307, 125.797, 0, 182.693, 129.619, 153.098, 36.6981
8, 2700.00000, 124.178, 124.67, 125.096, 0, 173.309, 123.413, 147.116, 29.8596
9, 0.00000, 123.957, 124.444, 124.802, 0, 177.32, 126.806, 157.437, 30.2754
9, 900.00000, 124.063, 124.551, 124.868, 0, 172.555, 122.896, 156.191, 30.1221
9, 1800.00000, 125.948, 126.583, 126.658, 0, 132.927, 93.7456, 126.015, 20.5996
9, 2700.00000, 126.295, 126.958, 126.894, 0, 122.461, 83.0972, 122.243, 28.0131
10, 0.00000, 126.274, 126.912, 126.881, 0, 122.762, 85.9066, 122.253, 24.9724
10, 900.00000, 126.043, 126.679, 126.716, 0, 131.473, 93.0079, 126.142, 21.2616
10, 1800.00000, 126.22, 126.795, 126.89, 0, 126.56, 93.4807, 120.692, 15.6668
10, 2700.00000, 127.1, 127.962, 127.591, 0, 103.623, 81.9521, 100.414, 37.3838
11, 0.00000, 127.211, 128.046, 127.717, 0, 101.722, 81.4172, 95.405, 34.8374
11, 900.00000, 127.553, 128.423, 127.969, 0, 95.4659, 77.8733, 88.5699, 40.9343
11, 1800.00000, 127.35, 128.357, 127.776, 0, 104.229, 85.4409, 95.2839, 45.4611
11, 2700.00000, 127.438, 128.446, 127.901, 0, 105.277, 85.721, 94.3355, 40.7782
12, 0.00000, 127.864, 128.825, 128.265, 0, 99.2087, 84.9693, 81.2319, 43.7358
12, 900.00000, 127.147, 128.133, 127.7, 0, 109.292, 87.6662, 96.9645, 34.8712
12, 1800.00000, 127.329, 128.34, 127.808, 0, 104.785, 85.5133, 92.9195, 41.3389
12, 2700.00000, 127.987, 129.104, 128.522, 0, 108.323, 89.5841, 90.0983, 39.6071
13, 0.00000, 128.257, 129.304, 128.682, 0, 104.783, 89.7869, 86.6666, 47.465
13, 900.00000, 128.031, 129.097, 128.504, 0, 107.021, 89.6113, 91.0058, 44.6048
13, 1800.00000, 128.799, 129.857, 129.256, 0, 105.02, 88.7989, 88.2892, 45.3434
13, 2700.00000, 128.027, 129.064, 128.658, 0, 116.43, 92.4849, 103.636, 35.1571
14, 0.00000, 128.393, 129.393, 128.905, 0, 108.303, 89.4643, 95.4056, 43.6745
14, 900.00000, 128.522, 129.525, 129.016, 0, 106.465, 89.0553, 91.9637, 45.0156
14, 1800.00000, 128.735, 129.758, 129.226, 0, 105.322, 88.7649, 88.2112, 43.7509
14, 2700.00000, 129.66, 130.703, 130.13, 0, 104.334, 88.9164, 85.6753, 44.7843
15, 0.00000, 129.563, 130.62, 129.979, 0, 104.7, 89.1955, 90.6621, 50.7816
15, 900.00000, 129.798, 130.842, 130.194, 0, 103.295, 89.3914, 86.6273, 51.4109
15, 1800.00000, 129.686, 130.758, 130.142, 0, 105.313, 86.0617, 97.0984, 47.9307
15, 2700.00000, 129.897, 130.925, 130.377, 0, 101.96, 85.9574, 85.8742, 43.3658
16, 0.00000, 129.646, 130.724, 130.12, 0, 105.133, 86.0895, 95.3632, 46.6524
16, 900.00000, 129.606, 130.73, 130.101, 0, 106.706, 86.1137, 97.8604, 46.3714
16, 1800.00000, 129.603, 130.717, 130.071, 0, 107.17, 86.2306, 100.502, 47.7942
16, 2700.00000, 127.792, 128.672, 128.44, 0, 115.06, 83.7146, 109.422, 25.4761
17, 0.00000, 127.595, 128.508, 128.223, 0, 119.57, 85.4648, 117.269, 29.7808
17, 900.00000, 127.723, 128.602, 128.355, 0, 114.725, 84.796, 108.831, 24.0044
17, 1800.00000, 124.346, 124.95, 125.238, 0, 174.724, 130.33, 151.166, 20.601
17, 2700.00000, 124.382, 125.011, 125.242, 0, 170.363, 125.052, 148.866, 21.3122
18, 0.00000, 124.385, 124.986, 125.333, 0, 173.075, 130.635, 143.358, 21.3242
18, 900.00000, 123.573, 124.231, 124.73, 0, 202.078, 154.126, 158.023, 32.4994
18, 1800.00000, 123.701, 124.398, 124.765, 0, 191.491, 140.769, 154.376, 29.3214
18, 2700.00000, 120.569, 120.968, 122.039, 0, 282.317, 222.77, 203.769, 68.8409
19, 0.00000, 120.149, 120.558, 121.714, 0, 302.321, 241.341, 217.587, 73.8295
19, 900.00000, 120.374, 120.787, 121.914, 0, 291.74, 231.093, 207.924, 73.0288
19, 1800.00000, 119.011, 119.399, 120.604, 0, 323.28, 254.435, 230.033, 84.5905
19, 2700.00000, 118.847, 119.214, 120.496, 0, 324.937, 258.031, 229.226, 86.0411
20, 0.00000, 119.078, 119.366, 120.643, 0, 315.359, 254.497, 225.031, 80.7592
20, 900.00000, 118.866, 119.224, 120.366, 0, 314.678, 248.416, 233.822, 75.3015
20, 1800.00000, 121.708, 122.021, 123.33, 0, 321.303, 255.121, 228.145, 83.4482
20, 2700.00000, 121.601, 121.998, 123.204, 0, 324.854, 251.69, 234.493, 83.2469
21, 0.00000, 121.603, 121.905, 123.16, 0, 312.058, 244.201, 225.735, 78.8877
21, 900.00000, 121.828, 122.129, 123.381, 0, 313.641, 247.408, 227.119, 78.5986
21, 1800.00000, 121.935, 122.199, 123.473, 0, 311.293, 247.713, 224.986, 77.7715
21, 2700.00000, 121.908, 122.269, 123.428, 0, 312.949, 241.971, 228.688, 78.4701
22, 0.00000, 122.261, 122.56, 123.698, 0, 300.009, 234.508, 220.466, 73.5536
22, 900.00000, 122.108, 122.356, 123.622, 0, 306.81, 245.012, 220.74, 77.1794
22, 1800.00000, 122.09, 122.336, 123.579, 0, 305.306, 243.97, 221.573, 75.353
22, 2700.00000, 122.485, 122.668, 123.936, 0, 288.497, 232.868, 206.906, 72.5708
23, 0.00000, 122.196, 122.43, 123.714, 0, 304.188, 243.708, 219.375, 75.9839
23, 900.00000, 122.676, 122.907, 124.05, 0, 282.691, 223.445, 207.6, 68.6439
23, 1800.00000, 122.537, 122.739, 123.906, 0, 286.095, 228.398, 212.599, 67.0991
23, 2700.00000, 122.682, 122.947, 124.003, 0, 283.039, 220.783, 212.76, 66.4806
24, 0.00000, 122.539, 122.802, 123.902, 0, 289.509, 227.207, 216.707, 68.0884
24, 900.00000, 122.667, 122.995, 124.093, 0, 289.894, 223.895, 210.419, 73.6932
