hour, t(sec), |V|1 (volts), |V|2 (volts), |V|3 (volts), |V|4 (volts), |I|1 (amps), |I|2 (amps), |I|3 (amps), |I|4 (amps)
0, 900.00000, 120.262, 119.156, 121.802, 0, 277.674, 336.257, 181.791, 136.452
0, 1800.00000, 120.45, 119.371, 122.03, 0, 274.419, 331.445, 174.69, 138.782
0, 2700.00000, 123.165, 122.084, 124.736, 0, 262.566, 318.087, 161.118, 138.483
1, 0.00000, 122.927, 121.836, 124.512, 0, 271.961, 328.453, 169.944, 139.814
1, 900.00000, 122.988, 121.911, 124.581, 0, 270.986, 326.854, 168.105, 140.126
1, 1800.00000, 124.979, 123.936, 126.523, 0, 261.695, 314.192, 160.517, 135.887
1, 2700.00000, 124.904, 123.831, 126.423, 0, 263.603, 317.85, 164.358, 135.423
2, 0.00000, 124.816, 123.698, 126.33, 0, 267.027, 324.929, 169.001, 137.141
2, 900.00000, 125.004, 123.934, 126.516, 0, 260.631, 314.899, 161.978, 134.872
2, 1800.00000, 124.855, 123.716, 126.352, 0, 266.387, 325.715, 169.591, 137.113
2, 2700.00000, 125.406, 124.317, 126.891, 0, 258.894, 314.93, 162.147, 134.443
3, 0.00000, 125.729, 124.7, 127.184, 0, 247.45, 300.241, 152.097, 130.561
3, 900.00000, 125.488, 124.356, 126.934, 0, 256.961, 317.457, 163.47, 134.914
3, 1800.00000, 124.424, 123.378, 125.928, 0, 250.721, 305.654, 152.417, 134.97
3, 2700.00000, 123.99, 122.861, 125.529, 0, 265.431, 325.524, 166.038, 140.095
4, 0.00000, 124.128, 123.011, 125.629, 0, 259.829, 319.332, 163.294, 136.969
4, 900.00000, 124.318, 123.229, 125.762, 0, 250.64, 308.329, 158.52, 131.442
4, 1800.00000, 123.952, 122.801, 125.489, 0, 264.436, 324.955, 166.046, 139.538
4, 2700.00000, 123.82, 122.728, 125.222, 0, 245.982, 303.657, 157.415, 128.162
5, 0.00000, 123.579, 122.443, 125.004, 0, 255.273, 315.619, 165.934, 131.072
5, 900.00000, 123.666, 122.552, 125.128, 0, 253.301, 312.122, 160.173, 133.288
5, 1800.00000, 123.091, 121.998, 124.53, 0, 253.703, 311.39, 163.153, 130.048
5, 2700.00000, 123.159, 122.019, 124.509, 0, 249.96, 311.344, 166.86, 126.241
6, 0.00000, 123.519, 122.397, 124.789, 0, 236.788, 297.155, 158.918, 120.624
6, 900.00000, 123.204, 122.025, 124.551, 0, 247.659, 310.215, 165.678, 126.227
6, 1800.00000, 123.317, 122.179, 124.601, 0, 239.803, 298.044, 163.786, 117.36
6, 2700.00000, 123.723, 122.705, 124.905, 0, 213.834, 273.571, 149.717, 110.029
7, 0.00000, 123.446, 122.32, 124.601, 0, 220.711, 287.094, 161.213, 112.118
7, 900.00000, 123.549, 122.439, 124.633, 0, 211.385, 274.672, 157.004, 105.104
7, 1800.00000, 125.394, 124.43, 126.26, 0, 176.606, 239.843, 142.807, 91.3549
7, 2700.00000, 125.492, 124.528, 126.318, 0, 171.238, 234.613, 140.721, 89.1351
8, 0.00000, 125.341, 124.362, 126.153, 0, 173.773, 236.635, 144.79, 87.6314
8, 900.00000, 125.655, 124.745, 126.445, 0, 163.518, 222.03, 136.02, 82.3009
8, 1800.00000, 125.46, 124.511, 126.323, 0, 171.924, 233.39, 139.212, 88.8759
8, 2700.00000, 124.754, 123.872, 125.568, 0, 163.724, 227.236, 139.429, 87.7347
9, 0.00000, 124.588, 123.708, 125.302, 0, 164.475, 226.7, 148.689, 81.3315
9, 900.00000, 124.569, 123.7, 125.409, 0, 169.597, 231.77, 143.205, 87.8127
9, 1800.00000, 126.404, 125.702, 126.968, 0, 131.236, 198.328, 132.534, 84.0568
9, 2700.00000, 126.719, 126.132, 127.251, 0, 120.56, 179.19, 122.937, 75.2058
10, 0.00000, 126.718, 126.084, 127.182, 0, 119.845, 183.253, 128.196, 78.1027
10, 900.00000, 126.573, 125.955, 127.071, 0, 122.673, 183.586, 128.313, 76.4429
10, 1800.00000, 126.734, 126.168, 127.232, 0, 117.463, 174.599, 122.609, 72.8671
10, 2700.00000, 127.26, 126.95, 127.748, 0, 104.05, 163.875, 114.949, 86.4155
11, 0.00000, 127.365, 127.1, 127.883, 0, 100.458, 156.161, 107.767, 83.2077
11, 900.00000, 127.765, 127.529, 128.068, 0, 83.4253, 136.087, 104.221, 81.4171
11, 1800.00000, 127.461, 127.24, 127.897, 0, 97.3987, 156.282, 110.502, 89.8679
11, 2700.00000, 127.717, 127.503, 127.994, 0, 87.9068, 145.461, 111.163, 89.9996
12, 0.00000, 127.969, 127.864, 128.307, 0, 81.5655, 130.073, 96.9123, 82.7806
12, 900.00000, 127.45, 127.221, 127.801, 0, 94.7596, 153.143, 114.783, 89.5228
12, 1800.00000, 127.488, 127.226, 127.863, 0, 95.3471, 156.607, 113.189, 92.1371
12, 2700.00000, 128.22, 128.049, 128.554, 0, 90.0432, 148.2, 110.431, 92.9809
13, 0.00000, 128.363, 128.168, 128.689, 0, 87.0364, 145.3, 106.901, 93.7643
13, 900.00000, 128.19, 127.996, 128.55, 0, 91.1455, 149.601, 110.082, 93.0079
13, 1800.00000, 128.94, 128.803, 129.281, 0, 88.7846, 142.481, 108.6, 88.5745
13, 2700.00000, 128.222, 128.012, 128.789, 0, 112.272, 171.968, 121.4, 91.638
14, 0.00000, 128.351, 128.165, 128.999, 0, 111.454, 169.892, 113.329, 91.6865
14, 900.00000, 128.409, 128.199, 129.059, 0, 111.326, 172.615, 112.998, 94.582
14, 1800.00000, 128.77, 128.638, 129.256, 0, 96.6818, 151.071, 108.228, 87.8202
14, 2700.00000, 129.738, 129.642, 130.111, 0, 89.9969, 142.24, 108.704, 86.972
15, 0.00000, 129.647, 129.502, 130.002, 0, 91.3586, 145.943, 112.561, 89.007
15, 900.00000, 129.86, 129.724, 130.178, 0, 86.6534, 140.931, 109.305, 89.8592
15, 1800.00000, 129.839, 129.629, 130.199, 0, 96.1836, 155.808, 118.817, 90.9141
15, 2700.00000, 129.988, 129.872, 130.374, 0, 90.4765, 142.514, 108.78, 84.8195
16, 0.00000, 129.755, 129.564, 130.169, 0, 98.8485, 157.529, 117.526, 89.6668
16, 900.00000, 129.752, 129.549, 130.145, 0, 100.008, 160.806, 121.098, 91.4172
16, 1800.00000, 129.79, 129.558, 130.143, 0, 98.118, 161.356, 121.743, 93.924
16, 2700.00000, 128.207, 127.788, 128.618, 0, 107.816, 171.28, 125.439, 85.0876
17, 0.00000, 127.988, 127.56, 128.451, 0, 116.358, 180.56, 130.631, 85.9051
17, 900.00000, 128.135, 127.727, 128.494, 0, 108.19, 172.829, 128.78, 85.8668
17, 1800.00000, 125.086, 124.366, 125.698, 0, 154.358, 217.572, 147.744, 80.7896
17, 2700.00000, 125.031, 124.321, 125.683, 0, 157.897, 221.287, 147.295, 82.8898
18, 0.00000, 125.073, 124.351, 125.704, 0, 157.248, 222.264, 147.658, 83.991
18, 900.00000, 124.406, 123.596, 125.129, 0, 179.333, 250.851, 164.179, 93.5777
18, 1800.00000, 124.38, 123.637, 125.152, 0, 181.35, 247.667, 161.399, 91.0541
18, 2700.00000, 121.791, 120.62, 122.645, 0, 228.06, 299.255, 193.114, 97.5708
19, 0.00000, 121.446, 120.233, 122.433, 0, 243.544, 317.957, 198.857, 108.102
19, 900.00000, 121.523, 120.393, 122.621, 0, 244.198, 312.341, 189.218, 110.311
19, 1800.00000, 120.306, 119.101, 121.401, 0, 261.846, 327.722, 203.424, 109.18
19, 2700.00000, 119.966, 118.807, 121.295, 0, 279.04, 340.959, 202.835, 121.316
20, 0.00000, 120.137, 118.994, 121.423, 0, 273.172, 333.529, 199.28, 117.933
20, 900.00000, 119.59, 118.396, 121.222, 0, 302.646, 367.387, 202.809, 145.102
20, 1800.00000, 122.696, 121.454, 124.169, 0, 286.014, 350.483, 196.959, 134.473
20, 2700.00000, 122.569, 121.331, 124.081, 0, 291.991, 356.054, 200.596, 136.318
21, 0.00000, 122.346, 121.111, 123.968, 0, 298.692, 359.989, 198.503, 142.216
21, 900.00000, 122.714, 121.41, 124.171, 0, 286.38, 354.988, 199.452, 135.989
21, 1800.00000, 122.798, 121.568, 124.333, 0, 285.006, 347.155, 190.614, 137.449
21, 2700.00000, 122.778, 121.524, 124.302, 0, 286.328, 351.225, 193.194, 138.509
22, 0.00000, 123.117, 121.898, 124.535, 0, 272.965, 335.446, 186.822, 130.127
22, 900.00000, 123, 121.792, 124.451, 0, 277.265, 338.204, 188.31, 131.452
22, 1800.00000, 122.91, 121.673, 124.376, 0, 282.243, 345.733, 192.142, 134.566
22, 2700.00000, 123.17, 122.002, 124.664, 0, 274.305, 332.733, 181.405, 133.016
23, 0.00000, 122.973, 121.76, 124.528, 0, 283.847, 345.209, 187.721, 138.39
23, 900.00000, 123.29, 122.168, 124.812, 0, 273.577, 328.733, 178.269, 132.671
23, 1800.00000, 123.045, 121.886, 124.711, 0, 286.911, 344.055, 180.335, 144.75
23, 2700.00000, 123.291, 122.112, 124.779, 0, 274.755, 334.595, 182.601, 133.452
24, 0.00000, 123.138, 121.914, 124.701, 0, 282.913, 345.949, 185.193, 141.122
24, 900.00000, 123.326, 122.129, 124.859, 0, 277.47, 339.969, 180.954, 139.511
