hour, t(sec), |V|1 (volts), |V|2 (volts), |V|3 (volts), |V|4 (volts), |I|1 (amps), |I|2 (amps), |I|3 (amps), |I|4 (amps)
0, 900.00000, 126.735, 125.982, 128.021, 0, 24.6691, 29.8999, 13.0286, 14.964
0, 1800.00000, 126.855, 126.197, 128.114, 0, 24.1109, 28.431, 12.7104, 14.0785
0, 2700.00000, 127.116, 126.469, 128.305, 0, 22.6233, 26.907, 11.8901, 13.4084
1, 0.00000, 126.757, 126.14, 128.079, 0, 25.7763, 29.7575, 13.6987, 14.4982
1, 900.00000, 126.784, 126.235, 128.103, 0, 25.7441, 29.0511, 13.6793, 14.0324
1, 1800.00000, 126.733, 126.251, 128.062, 0, 26.0307, 28.7007, 13.8362, 13.7479
1, 2700.00000, 126.684, 126.137, 128.022, 0, 26.2939, 29.5944, 13.9959, 14.2557
2, 0.00000, 126.56, 126.065, 127.946, 0, 27.3752, 30.1303, 14.629, 14.3474
2, 900.00000, 126.74, 126.225, 128.063, 0, 26.0036, 28.9772, 13.8684, 13.8834
2, 1800.00000, 126.706, 126.196, 128.032, 0, 26.0612, 28.9426, 13.9041, 13.8462
2, 2700.00000, 126.752, 126.334, 128.064, 0, 25.8432, 27.8462, 13.8078, 13.1784
3, 0.00000, 127.322, 126.634, 128.42, 0, 20.7457, 25.6235, 10.8541, 13.0366
3, 900.00000, 127.307, 126.679, 128.395, 0, 20.4373, 24.6665, 10.6833, 12.4282
3, 1800.00000, 127.252, 126.738, 128.377, 0, 21.4476, 24.5476, 11.2854, 12.0303
3, 2700.00000, 126.953, 126.413, 128.168, 0, 23.4257, 26.6876, 12.4232, 12.9622
4, 0.00000, 127.096, 126.527, 128.261, 0, 22.2637, 25.8442, 11.7582, 12.6942
4, 900.00000, 127.377, 126.642, 128.434, 0, 19.6837, 24.9903, 10.2942, 12.8911
4, 1800.00000, 126.931, 126.322, 128.149, 0, 23.3985, 27.26, 12.419, 13.3508
4, 2700.00000, 127.035, 126.556, 128.227, 0, 22.9361, 25.5778, 12.1467, 12.3445
5, 0.00000, 126.827, 126.39, 128.091, 0, 24.5499, 26.6775, 13.0656, 12.7086
5, 900.00000, 126.875, 126.452, 128.127, 0, 24.3025, 26.3182, 12.9139, 12.5445
5, 1800.00000, 126.522, 126.183, 127.883, 0, 26.8116, 27.9935, 14.3392, 13.1378
5, 2700.00000, 126.675, 126.332, 127.974, 0, 25.4044, 26.6196, 13.5498, 12.5386
6, 0.00000, 126.962, 126.645, 128.163, 0, 23.3146, 24.2799, 12.39, 11.4673
6, 900.00000, 126.87, 126.461, 128.094, 0, 23.4577, 25.1877, 12.427, 12.0182
6, 1800.00000, 126.953, 126.317, 128.145, 0, 22.5672, 26.523, 11.938, 13.0801
6, 2700.00000, 127.437, 126.664, 128.42, 0, 17.5949, 22.9846, 9.10134, 12.1271
7, 0.00000, 127.134, 126.54, 128.221, 0, 19.8972, 23.2773, 10.4505, 11.5348
7, 900.00000, 127.146, 126.516, 128.218, 0, 19.6482, 23.2892, 10.3152, 11.6088
7, 1800.00000, 127.317, 126.754, 128.37, 0, 19.0905, 22.143, 9.94296, 11.0163
7, 2700.00000, 127.233, 126.826, 128.326, 0, 20.1287, 21.5714, 10.5619, 10.3927
8, 0.00000, 126.818, 126.566, 128.073, 0, 23.7901, 23.5421, 12.5906, 11.12
8, 900.00000, 126.973, 126.817, 128.202, 0, 23.0301, 21.8615, 12.1038, 10.4351
8, 1800.00000, 127.232, 126.845, 128.333, 0, 19.9345, 21.1181, 10.3533, 10.2556
8, 2700.00000, 126.954, 126.581, 128.15, 0, 22.0348, 22.9317, 11.5525, 10.9955
9, 0.00000, 126.028, 125.957, 127.589, 0, 30.6741, 28.4224, 16.4976, 13.2627
9, 900.00000, 126.284, 126.185, 127.743, 0, 28.2514, 26.3505, 15.1067, 12.3648
9, 1800.00000, 126.369, 126.395, 127.788, 0, 27.3264, 24.1517, 14.5791, 11.5524
9, 2700.00000, 126.503, 126.483, 127.893, 0, 26.7427, 24.1252, 14.2429, 11.4743
10, 0.00000, 126.355, 126.557, 127.817, 0, 28.2654, 23.4168, 15.0288, 11.6579
10, 900.00000, 126.163, 126.303, 127.686, 0, 29.6688, 25.4058, 15.8272, 12.3432
10, 1800.00000, 125.975, 126.346, 127.595, 0, 31.9878, 25.3932, 17.1525, 12.9408
10, 2700.00000, 125.799, 126.265, 127.489, 0, 33.4185, 25.799, 17.9675, 13.4502
11, 0.00000, 125.966, 126.344, 127.591, 0, 31.9064, 25.16, 17.0853, 12.9193
11, 900.00000, 126.078, 126.383, 127.677, 0, 31.4578, 25.5457, 16.8265, 12.816
11, 1800.00000, 126.18, 126.383, 127.707, 0, 29.8611, 24.9788, 15.972, 12.2682
11, 2700.00000, 126.374, 126.549, 127.836, 0, 28.4542, 23.9209, 15.1643, 11.7606
12, 0.00000, 126.336, 126.501, 127.836, 0, 29.4036, 25.0194, 15.6944, 12.189
12, 900.00000, 125.937, 126.16, 127.565, 0, 32.0991, 26.9869, 17.2218, 13.1649
12, 1800.00000, 126.321, 126.321, 127.788, 0, 28.3692, 25.5236, 15.0905, 12.1703
12, 2700.00000, 126.373, 126.431, 127.842, 0, 28.26, 24.8844, 14.9935, 12.0038
13, 0.00000, 126.309, 126.506, 127.819, 0, 29.3144, 24.4305, 15.6276, 12.077
13, 900.00000, 126.187, 126.341, 127.733, 0, 30.0357, 25.5553, 16.016, 12.4691
13, 1800.00000, 125.857, 126.064, 127.533, 0, 33.2048, 28.1825, 17.8599, 13.6277
13, 2700.00000, 125.286, 125.546, 127.158, 0, 37.2557, 31.4998, 20.1319, 15.1886
14, 0.00000, 125.328, 125.69, 127.205, 0, 37.3507, 30.5866, 20.1595, 15.0937
14, 900.00000, 125.587, 125.947, 127.361, 0, 35.039, 28.3357, 18.8697, 14.1541
14, 1800.00000, 125.64, 125.98, 127.414, 0, 35.2003, 28.7784, 18.9727, 14.2388
14, 2700.00000, 125.594, 125.959, 127.394, 0, 35.9475, 29.3251, 19.399, 14.5112
15, 0.00000, 125.573, 125.912, 127.374, 0, 35.8694, 29.3996, 19.3488, 14.5047
15, 900.00000, 125.701, 126.129, 127.474, 0, 35.2637, 27.9532, 18.9961, 14.1916
15, 1800.00000, 125.789, 126.009, 127.489, 0, 33.5181, 28.3109, 18.0057, 13.7534
15, 2700.00000, 125.667, 125.898, 127.426, 0, 34.9537, 29.6783, 18.8231, 14.3298
16, 0.00000, 125.626, 125.824, 127.394, 0, 34.9844, 30.022, 18.8145, 14.4333
16, 900.00000, 125.747, 125.926, 127.468, 0, 33.9045, 29.1992, 18.2142, 14.0284
16, 1800.00000, 125.773, 126.017, 127.487, 0, 33.6797, 28.3331, 18.0144, 13.8726
16, 2700.00000, 125.938, 126.179, 127.589, 0, 32.3706, 27.0521, 17.3065, 13.3069
17, 0.00000, 125.813, 125.942, 127.494, 0, 33.1259, 28.9214, 17.7811, 13.8124
17, 900.00000, 125.572, 125.901, 127.355, 0, 35.7392, 29.682, 19.2515, 14.529
17, 1800.00000, 125.697, 125.925, 127.451, 0, 35.1563, 30.1735, 18.8476, 14.5562
17, 2700.00000, 125.77, 125.977, 127.486, 0, 34.4267, 29.7334, 18.4513, 14.2991
18, 0.00000, 125.879, 126.075, 127.553, 0, 33.5599, 29.0302, 17.9517, 13.9811
18, 900.00000, 125.461, 125.608, 127.253, 0, 36.22, 32.1869, 19.5032, 15.1917
18, 1800.00000, 125.384, 125.346, 127.206, 0, 36.9707, 34.8436, 19.9282, 16.161
18, 2700.00000, 125.338, 125.42, 127.203, 0, 37.9375, 34.5732, 20.455, 16.1511
19, 0.00000, 125.477, 125.501, 127.265, 0, 35.9209, 33.1289, 19.2568, 15.5363
19, 900.00000, 125.669, 125.614, 127.383, 0, 34.3306, 32.4073, 18.3709, 15.1589
19, 1800.00000, 125.654, 125.389, 127.354, 0, 34.0584, 34.2744, 18.2543, 15.9684
19, 2700.00000, 125.241, 125.117, 127.106, 0, 37.6144, 36.3664, 20.2956, 16.8064
20, 0.00000, 124.853, 125.098, 126.895, 0, 42.0063, 37.0105, 22.8236, 17.3408
20, 900.00000, 125.054, 125.119, 126.991, 0, 39.1339, 35.9309, 21.1846, 16.6754
20, 1800.00000, 125.203, 125.191, 127.093, 0, 38.4169, 36.0148, 20.7793, 16.6515
20, 2700.00000, 125.248, 124.995, 127.081, 0, 36.9595, 36.9993, 19.9615, 17.0841
21, 0.00000, 124.73, 124.636, 126.763, 0, 41.5029, 39.7663, 22.5332, 18.2552
21, 900.00000, 125.169, 125.133, 127.044, 0, 37.971, 35.7179, 20.5354, 16.509
21, 1800.00000, 125.448, 125.351, 127.23, 0, 35.8192, 34.1727, 19.2774, 15.857
21, 2700.00000, 125.81, 125.452, 127.433, 0, 32.1334, 33.2008, 17.2142, 15.5297
22, 0.00000, 125.827, 125.615, 127.466, 0, 32.7144, 32.3133, 17.5442, 15.0314
22, 900.00000, 125.575, 125.434, 127.302, 0, 34.9986, 33.8483, 18.9222, 15.5997
22, 1800.00000, 125.454, 125.409, 127.231, 0, 36.1212, 34.0177, 19.5403, 15.7098
22, 2700.00000, 125.389, 125.453, 127.233, 0, 37.6446, 34.4411, 20.3939, 15.9762
23, 0.00000, 125.608, 125.54, 127.355, 0, 35.1587, 33.2358, 18.9721, 15.3894
23, 900.00000, 125.63, 125.488, 127.391, 0, 35.6887, 34.5893, 19.2883, 15.9472
23, 1800.00000, 125.55, 125.443, 127.322, 0, 35.956, 34.4332, 19.4691, 15.8527
23, 2700.00000, 125.75, 125.568, 127.45, 0, 34.374, 33.6771, 18.5937, 15.5065
24, 0.00000, 125.846, 125.674, 127.499, 0, 33.2366, 32.4227, 17.951, 14.9572
24, 900.00000, 126.735, 125.982, 128.02, 0, 24.6696, 29.9003, 13.0287, 14.9644
