hour, t(sec), |V|1 (volts), |V|2 (volts), |V|3 (volts), |V|4 (volts), |I|1 (amps), |I|2 (amps), |I|3 (amps), |I|4 (amps)
0, 900.00000, 126.779, 126.67, 127.354, 0, 85.3037, 71.4851, 66.2674, 17.0189
0, 1800.00000, 126.974, 126.878, 127.528, 0, 79.7068, 65.6316, 61.6458, 16.3991
0, 2700.00000, 127.152, 127.045, 127.704, 0, 79.8098, 66.9861, 61.5, 16.2694
1, 0.00000, 126.96, 126.861, 127.514, 0, 86.3672, 73.2338, 68.0376, 16.3482
1, 900.00000, 127.111, 127.022, 127.665, 0, 79.7261, 66.2904, 61.297, 16.4947
1, 1800.00000, 127.102, 127.027, 127.647, 0, 77.8268, 63.8695, 59.6279, 16.4667
1, 2700.00000, 127.091, 127.018, 127.628, 0, 76.5434, 62.223, 58.6065, 16.3925
2, 0.00000, 126.998, 126.912, 127.551, 0, 80.2184, 66.5593, 61.6797, 16.6271
2, 900.00000, 127.084, 126.994, 127.63, 0, 79.2625, 65.906, 60.9389, 16.3985
2, 1800.00000, 127.053, 126.965, 127.597, 0, 78.5165, 64.7144, 60.3992, 16.3641
2, 2700.00000, 127.052, 126.963, 127.595, 0, 80.4561, 67.2507, 62.2498, 16.2776
3, 0.00000, 127.209, 127.145, 127.751, 0, 77.8769, 63.9855, 59.4619, 16.6021
3, 900.00000, 127.13, 127.052, 127.675, 0, 78.4983, 65.1187, 60.1795, 16.4035
3, 1800.00000, 127.196, 127.124, 127.743, 0, 78.5479, 65.1451, 59.8862, 16.6591
3, 2700.00000, 127.008, 126.928, 127.561, 0, 80.2029, 66.4683, 61.7686, 16.5727
4, 0.00000, 127.107, 127.029, 127.647, 0, 77.1153, 63.4428, 59.3507, 16.087
4, 900.00000, 127.118, 127.051, 127.671, 0, 79.1496, 64.9317, 60.7262, 16.6966
4, 1800.00000, 126.932, 126.845, 127.512, 0, 82.3795, 68.2505, 62.9772, 17.3635
4, 2700.00000, 127.025, 126.957, 127.579, 0, 81.8452, 67.4294, 63.2721, 16.852
5, 0.00000, 126.943, 126.853, 127.495, 0, 82.1323, 68.388, 63.9396, 16.4005
5, 900.00000, 126.953, 126.873, 127.491, 0, 83.5535, 69.5253, 65.9995, 16.04
5, 1800.00000, 126.779, 126.696, 127.316, 0, 83.7225, 70.085, 66.403, 15.7653
5, 2700.00000, 126.81, 126.738, 127.344, 0, 83.3512, 68.8555, 65.9934, 16.0626
6, 0.00000, 127.001, 126.908, 127.514, 0, 79.5685, 66.4413, 62.9637, 15.1275
6, 900.00000, 126.863, 126.749, 127.413, 0, 80.7132, 67.3696, 63.0736, 15.9022
6, 1800.00000, 126.915, 126.762, 127.508, 0, 77.6425, 65.7379, 58.2832, 16.9409
6, 2700.00000, 126.61, 126.481, 127.282, 0, 94.6519, 81.4481, 70.9022, 20.6783
7, 0.00000, 126.576, 126.393, 127.28, 0, 89.7528, 78.3382, 65.1266, 21.4578
7, 900.00000, 126.474, 126.298, 127.154, 0, 94.7815, 82.1139, 71.301, 20.4288
7, 1800.00000, 126.468, 126.352, 127.146, 0, 105.385, 90.0397, 81.9693, 20.6187
7, 2700.00000, 126.281, 126.253, 126.956, 0, 117.375, 97.04, 94.1466, 21.8098
8, 0.00000, 126.013, 125.961, 126.663, 0, 127.689, 107.926, 106.05, 20.6017
8, 900.00000, 125.91, 125.91, 126.516, 0, 140.313, 118.218, 121.334, 20.3957
8, 1800.00000, 125.612, 125.653, 126.226, 0, 153.546, 129.067, 134.594, 21.8264
8, 2700.00000, 125.397, 125.436, 126.03, 0, 159.395, 133.907, 139.965, 22.606
9, 0.00000, 125.174, 125.219, 125.835, 0, 165.278, 139.012, 144.249, 23.628
9, 900.00000, 124.981, 125.078, 125.642, 0, 177.555, 148.965, 156.639, 25.0943
9, 1800.00000, 124.96, 125.072, 125.609, 0, 178.015, 148.737, 157.749, 25.4044
9, 2700.00000, 125.003, 125.142, 125.639, 0, 182.166, 152.079, 162.277, 25.91
10, 0.00000, 124.973, 125.082, 125.646, 0, 183.895, 155.838, 161.826, 25.1155
10, 900.00000, 124.786, 124.93, 125.468, 0, 189.823, 159.386, 167.376, 26.7828
10, 1800.00000, 124.76, 124.887, 125.491, 0, 194.563, 165.337, 169.304, 27.0219
10, 2700.00000, 124.586, 124.697, 125.33, 0, 201.306, 172.536, 176.055, 26.7354
11, 0.00000, 124.661, 124.783, 125.408, 0, 198.809, 169.338, 173.206, 27.2873
11, 900.00000, 124.656, 124.814, 125.399, 0, 204.884, 174.091, 178.942, 28.1982
11, 1800.00000, 124.547, 124.708, 125.316, 0, 206.881, 175.862, 179.677, 28.8499
11, 2700.00000, 124.627, 124.789, 125.373, 0, 207.216, 176.556, 180.636, 28.3851
12, 0.00000, 124.822, 124.957, 125.545, 0, 201.005, 172.243, 175.53, 26.8534
12, 900.00000, 124.593, 124.717, 125.322, 0, 202.416, 173.119, 177.475, 26.9077
12, 1800.00000, 124.609, 124.751, 125.308, 0, 203.1, 172.688, 179.729, 27.0146
12, 2700.00000, 124.615, 124.876, 125.363, 0, 206.478, 170.062, 180.639, 31.8314
13, 0.00000, 124.721, 124.92, 125.517, 0, 203.766, 170.023, 175.219, 30.9852
13, 900.00000, 124.695, 124.901, 125.491, 0, 201.002, 166.573, 172.735, 31.2899
13, 1800.00000, 124.618, 124.835, 125.327, 0, 203.731, 168.706, 180.158, 30.2616
13, 2700.00000, 124.197, 124.433, 124.947, 0, 212.487, 174.783, 188.266, 32.3053
14, 0.00000, 124.377, 124.605, 125.135, 0, 206.714, 169.668, 181.927, 31.9597
14, 900.00000, 124.475, 124.691, 125.198, 0, 203.798, 167.842, 180.912, 30.7817
14, 1800.00000, 124.543, 124.781, 125.254, 0, 205.862, 169.291, 183.094, 31.2425
14, 2700.00000, 124.621, 124.842, 125.313, 0, 204.074, 168.855, 181.767, 30.1484
15, 0.00000, 124.542, 124.755, 125.242, 0, 205.989, 170.338, 183.651, 30.4523
15, 900.00000, 124.621, 124.834, 125.345, 0, 207.16, 172.121, 183.358, 30.3048
15, 1800.00000, 124.45, 124.658, 125.112, 0, 209.543, 174.576, 189.285, 29.6102
15, 2700.00000, 124.565, 124.753, 125.278, 0, 204.764, 171.31, 181.461, 29.0572
16, 0.00000, 124.417, 124.636, 125.11, 0, 209.596, 174.117, 187.728, 30.2407
16, 900.00000, 124.473, 124.691, 125.231, 0, 207.624, 172.733, 182.179, 30.6339
16, 1800.00000, 124.467, 124.685, 125.267, 0, 208.363, 173.642, 180.207, 31.4176
16, 2700.00000, 124.567, 124.777, 125.372, 0, 205.746, 171.52, 177.101, 31.3088
17, 0.00000, 124.533, 124.724, 125.344, 0, 203.4, 169.951, 174.52, 30.9473
17, 900.00000, 124.489, 124.707, 125.329, 0, 207.29, 173.789, 175.703, 32.2179
17, 1800.00000, 124.795, 124.94, 125.594, 0, 196.554, 167.396, 166.145, 29.5397
17, 2700.00000, 124.872, 125.023, 125.65, 0, 192.255, 163.398, 162.649, 28.9758
18, 0.00000, 124.964, 125.112, 125.739, 0, 188.866, 160.643, 158.922, 28.893
18, 900.00000, 124.549, 124.738, 125.355, 0, 198.519, 167.932, 167.359, 30.6089
18, 1800.00000, 124.495, 124.665, 125.314, 0, 201.207, 171.792, 169.099, 30.6347
18, 2700.00000, 124.886, 124.999, 125.685, 0, 183.992, 157.642, 152.811, 28.9285
19, 0.00000, 124.851, 124.989, 125.63, 0, 180.897, 152.956, 151.21, 28.6369
19, 900.00000, 125.135, 125.228, 125.914, 0, 168.081, 143.11, 137.958, 27.7962
19, 1800.00000, 125.055, 125.143, 125.844, 0, 169.031, 144.408, 138.457, 27.9858
19, 2700.00000, 125.046, 125.125, 125.872, 0, 164.12, 139.727, 132.561, 28.606
20, 0.00000, 125.206, 125.274, 126.018, 0, 158.87, 135.098, 127.328, 28.4248
20, 900.00000, 125.02, 125.109, 125.887, 0, 162.067, 136.81, 129.005, 29.9018
20, 1800.00000, 125.23, 125.305, 126.089, 0, 157.146, 132.811, 123.181, 30.3208
20, 2700.00000, 125.174, 125.208, 126.049, 0, 151.509, 129.36, 117.091, 30.28
21, 0.00000, 125.221, 125.19, 126.106, 0, 143.022, 123.27, 108.391, 30.2063
21, 900.00000, 125.436, 125.396, 126.296, 0, 138.73, 120.071, 105.092, 29.3102
21, 1800.00000, 125.565, 125.534, 126.397, 0, 137.708, 118.322, 105.324, 28.3066
21, 2700.00000, 125.741, 125.716, 126.51, 0, 127.853, 108.564, 99.1647, 25.355
22, 0.00000, 125.971, 125.915, 126.692, 0, 121.15, 103.808, 94.3937, 23.5354
22, 900.00000, 126.031, 125.948, 126.731, 0, 115.43, 99.3708, 89.6647, 22.5746
22, 1800.00000, 126.011, 125.921, 126.674, 0, 115.636, 100.101, 91.9157, 20.8805
22, 2700.00000, 126.351, 126.27, 126.976, 0, 103.61, 87.6721, 82.1109, 19.2956
23, 0.00000, 126.422, 126.336, 127.045, 0, 97.3373, 81.1776, 76.617, 18.8112
23, 900.00000, 126.57, 126.462, 127.166, 0, 95.2396, 80.9156, 75.4711, 17.6635
23, 1800.00000, 126.494, 126.386, 127.092, 0, 94.5968, 79.776, 74.9793, 17.6752
23, 2700.00000, 126.662, 126.57, 127.248, 0, 88.9519, 73.6395, 69.8102, 17.4916
24, 0.00000, 126.679, 126.585, 127.262, 0, 86.5023, 71.1332, 67.6844, 17.2962
24, 900.00000, 126.778, 126.67, 127.354, 0, 85.3052, 71.4865, 66.2683, 17.0192
