hour, t(sec), |V|1 (volts), |V|2 (volts), |V|3 (volts), |V|4 (volts), |I|1 (amps), |I|2 (amps), |I|3 (amps), |I|4 (amps)
0, 900.00000, 129.854, 129.205, 131.484, 0, 275.046, 288.603, 156.898, 126.19
0, 1800.00000, 130.108, 129.478, 131.659, 0, 264.024, 276.968, 152.198, 119.506
0, 2700.00000, 122.743, 122.189, 124.35, 0, 256.806, 270.814, 145.785, 119.377
1, 0.00000, 122.539, 122.011, 124.154, 0, 265.287, 277.24, 153.943, 118.559
1, 900.00000, 122.608, 122.093, 124.224, 0, 263.045, 274.457, 151.505, 118.432
1, 1800.00000, 117.497, 117.065, 119.015, 0, 249.748, 260.027, 145.847, 110.338
1, 2700.00000, 117.427, 116.987, 118.951, 0, 252.17, 262.677, 147.521, 111.222
2, 0.00000, 117.36, 116.932, 118.911, 0, 254.942, 264.347, 148.485, 112.43
2, 900.00000, 117.533, 117.107, 119.025, 0, 247.51, 256.997, 145.777, 107.727
2, 1800.00000, 117.427, 117.001, 118.924, 0, 251.469, 260.388, 149.506, 107.669
2, 2700.00000, 117.917, 117.499, 119.401, 0, 247.803, 256.478, 146.545, 106.798
3, 0.00000, 125.055, 124.557, 126.513, 0, 235.414, 245.963, 134.017, 107.684
3, 900.00000, 124.847, 124.352, 126.335, 0, 244.477, 254.015, 141.241, 108.995
3, 1800.00000, 125.021, 124.524, 126.483, 0, 238.194, 248.64, 136.652, 107.783
3, 2700.00000, 124.618, 124.107, 126.168, 0, 254.176, 264.256, 146.575, 113.701
4, 0.00000, 124.744, 124.236, 126.28, 0, 248.555, 258.714, 141.849, 112.826
4, 900.00000, 124.9, 124.402, 126.431, 0, 241.07, 250.717, 134.515, 112.359
4, 1800.00000, 124.555, 124.024, 126.146, 0, 255.845, 266.202, 145.547, 116.574
4, 2700.00000, 131.774, 131.211, 133.182, 0, 237.267, 246.348, 135.411, 107.26
5, 0.00000, 131.558, 130.992, 132.999, 0, 247.148, 255.262, 143.121, 108.937
5, 900.00000, 131.638, 131.061, 133.072, 0, 244.423, 254.019, 140.689, 109.449
5, 1800.00000, 136.095, 135.514, 137.504, 0, 252.519, 259.568, 146.741, 110.315
5, 2700.00000, 136.142, 135.562, 137.527, 0, 250.435, 257.006, 146.375, 108.332
6, 0.00000, 136.467, 135.888, 137.749, 0, 235.165, 242.164, 139.402, 100.212
6, 900.00000, 136.205, 135.578, 137.563, 0, 246.135, 253.976, 145.156, 105.982
6, 1800.00000, 124.913, 124.389, 126.409, 0, 237.194, 244.712, 135.389, 106.501
6, 2700.00000, 125.161, 124.637, 126.588, 0, 225.807, 233.64, 129.731, 100.919
7, 0.00000, 124.828, 124.286, 126.376, 0, 240.436, 247.546, 135.971, 108.991
7, 900.00000, 124.885, 124.309, 126.35, 0, 234.778, 243.185, 136.789, 103.222
7, 1800.00000, 125.261, 124.747, 126.669, 0, 218.444, 223.065, 124.624, 96.9248
7, 2700.00000, 125.34, 124.829, 126.715, 0, 214.256, 218.69, 123.066, 94.1805
8, 0.00000, 125.124, 124.59, 126.521, 0, 223.488, 228.332, 130.831, 95.9103
8, 900.00000, 125.465, 124.976, 126.779, 0, 208.094, 210.453, 122.521, 87.4654
8, 1800.00000, 125.368, 124.861, 126.707, 0, 209.642, 213.166, 122.585, 89.5793
8, 2700.00000, 125.144, 124.599, 126.528, 0, 217.399, 222.041, 127.629, 92.9398
9, 0.00000, 124.9, 124.389, 126.292, 0, 225.812, 226.793, 135.302, 91.8065
9, 900.00000, 124.946, 124.422, 126.342, 0, 224.987, 227.873, 134.311, 92.9492
9, 1800.00000, 124.956, 124.453, 126.383, 0, 225.544, 226.84, 132.009, 94.9857
9, 2700.00000, 125.298, 124.837, 126.607, 0, 209.865, 208.897, 125.355, 84.7477
10, 0.00000, 125.255, 124.815, 126.577, 0, 213.246, 211.079, 127.617, 85.2926
10, 900.00000, 125.08, 124.612, 126.445, 0, 219.647, 218.971, 130.528, 89.5384
10, 1800.00000, 125.224, 124.761, 126.547, 0, 214.163, 213.725, 128.432, 86.2421
10, 2700.00000, 124.797, 124.321, 126.233, 0, 234.992, 234.674, 141.53, 94.1521
11, 0.00000, 124.911, 124.403, 126.31, 0, 229.275, 231.407, 138.553, 92.6216
11, 900.00000, 125.229, 124.767, 126.569, 0, 214.358, 214.077, 126.959, 87.9845
11, 1800.00000, 124.776, 124.301, 126.188, 0, 232.517, 232.875, 140.117, 93.3923
11, 2700.00000, 125, 124.542, 126.335, 0, 222.658, 222.337, 135.598, 87.6494
12, 0.00000, 125.225, 124.757, 126.544, 0, 214.444, 215.823, 128.005, 87.8377
12, 900.00000, 124.633, 124.149, 126.125, 0, 241.015, 241.438, 141.919, 100.157
12, 1800.00000, 124.777, 124.267, 126.2, 0, 232.238, 234.789, 138.744, 95.6015
12, 2700.00000, 124.717, 124.244, 126.201, 0, 235.666, 236.121, 137.432, 99.2931
13, 0.00000, 124.875, 124.379, 126.285, 0, 229.083, 230.289, 136.963, 93.5347
13, 900.00000, 124.687, 124.183, 126.146, 0, 236.684, 238.028, 141.032, 97.1805
13, 1800.00000, 124.674, 124.181, 126.103, 0, 236.925, 237.281, 143.421, 94.5262
13, 2700.00000, 123.957, 123.39, 125.608, 0, 268.126, 271.711, 159.309, 111.704
14, 0.00000, 124.185, 123.616, 125.781, 0, 257.751, 262.092, 153.244, 107.741
14, 900.00000, 124.296, 123.743, 125.863, 0, 253.025, 256.845, 150.892, 105.07
14, 1800.00000, 124.569, 124.057, 126.076, 0, 241.661, 243.195, 143.369, 99.9679
14, 2700.00000, 124.723, 124.241, 126.142, 0, 232.864, 232.545, 140.859, 92.6876
15, 0.00000, 124.614, 124.133, 126.043, 0, 236.973, 234.977, 144.844, 92.0268
15, 900.00000, 124.861, 124.396, 126.24, 0, 227.03, 224.84, 138.675, 88.1073
15, 1800.00000, 124.637, 124.159, 126.06, 0, 236.198, 234.585, 144.59, 91.6852
15, 2700.00000, 124.728, 124.239, 126.152, 0, 232.921, 233.049, 140.525, 93.3032
16, 0.00000, 124.514, 124.025, 125.999, 0, 243.102, 242.513, 146.295, 97.4171
16, 900.00000, 124.529, 124.072, 126.02, 0, 243.263, 240.914, 146.183, 96.8334
16, 1800.00000, 124.532, 124.071, 126.024, 0, 243.833, 242.074, 146.059, 97.8008
16, 2700.00000, 124.719, 124.244, 126.173, 0, 235.984, 235.451, 140.748, 95.8197
17, 0.00000, 124.513, 124.026, 126.022, 0, 244.906, 245.031, 145.472, 100.387
17, 900.00000, 124.556, 124.093, 126.07, 0, 244.557, 244.934, 142.628, 102.951
17, 1800.00000, 124.507, 124.03, 125.975, 0, 247.672, 249.462, 148.385, 101.003
17, 2700.00000, 124.464, 124.004, 125.932, 0, 250.842, 252.22, 151.068, 101.274
18, 0.00000, 124.547, 124.068, 125.985, 0, 246.693, 250.288, 148.579, 100.719
18, 900.00000, 123.781, 123.279, 125.481, 0, 283.079, 287.921, 164.259, 122.221
18, 1800.00000, 123.751, 123.248, 125.441, 0, 285.164, 290.403, 166.849, 121.918
18, 2700.00000, 123.583, 123.093, 125.358, 0, 294.287, 298.198, 168.746, 128.477
19, 0.00000, 123.258, 122.731, 125.153, 0, 310.619, 317.074, 176.142, 138.824
19, 900.00000, 123.401, 122.88, 125.23, 0, 304.661, 311.557, 175.101, 134.103
19, 1800.00000, 116.3, 115.9, 118.099, 0, 298.621, 303.18, 172.203, 129.998
19, 2700.00000, 116.016, 115.6, 117.937, 0, 313.012, 318.918, 178.316, 139.099
20, 0.00000, 116.183, 115.776, 117.978, 0, 305.459, 310.435, 180.192, 129.125
20, 900.00000, 115.801, 115.361, 117.782, 0, 324.665, 332.522, 186.548, 143.658
20, 1800.00000, 116.182, 115.737, 117.976, 0, 304.824, 312.957, 180.337, 130.043
20, 2700.00000, 113.111, 112.714, 114.915, 0, 300.265, 306.892, 175.359, 129.639
21, 0.00000, 112.925, 112.494, 114.728, 0, 306.82, 314.737, 182.738, 129.586
21, 900.00000, 113.25, 112.839, 114.994, 0, 292.268, 299.348, 172.568, 124.663
21, 1800.00000, 123.329, 122.734, 125.137, 0, 306.767, 318.07, 181.095, 132.698
21, 2700.00000, 123.331, 122.768, 125.186, 0, 306.653, 316.022, 177.238, 135.366
22, 0.00000, 123.607, 123.056, 125.351, 0, 295.978, 304.737, 174.321, 127.213
22, 900.00000, 123.481, 122.904, 125.249, 0, 301.928, 312.362, 178.057, 130.358
22, 1800.00000, 123.414, 122.846, 125.171, 0, 305.447, 315.345, 182.757, 128.901
22, 2700.00000, 126.959, 126.353, 128.654, 0, 293.55, 304.315, 172.898, 127.24
23, 0.00000, 126.809, 126.196, 128.592, 0, 301.323, 311.7, 174.687, 133.06
23, 900.00000, 127.131, 126.54, 128.818, 0, 287.129, 296.995, 167.279, 125.922
23, 1800.00000, 129.479, 128.816, 131.159, 0, 294.414, 307.021, 173.427, 128.587
23, 2700.00000, 129.684, 129.077, 131.333, 0, 284.186, 292.96, 165.258, 124.352
24, 0.00000, 129.584, 128.96, 131.263, 0, 289.253, 299.08, 168.262, 127.019
24, 900.00000, 129.855, 129.206, 131.485, 0, 275.04, 288.596, 156.894, 126.188
