hour, t(sec), |V|1 (volts), |V|2 (volts), |V|3 (volts), |V|4 (volts), |I|1 (amps), |I|2 (amps), |I|3 (amps), |I|4 (amps)
0, 900.00000, 127.895, 127.77, 128.442, 0, 85.1919, 71.3921, 66.1857, 16.98
0, 1800.00000, 128.088, 127.975, 128.615, 0, 79.6014, 65.5453, 61.569, 16.3637
0, 2700.00000, 132.95, 132.784, 133.442, 0, 79.3549, 66.6041, 61.2049, 16.1151
1, 0.00000, 132.765, 132.607, 133.259, 0, 85.8699, 72.8125, 67.6648, 16.2089
1, 900.00000, 132.91, 132.763, 133.405, 0, 79.2721, 65.9134, 60.9835, 16.3516
1, 1800.00000, 127.061, 126.981, 127.588, 0, 77.8302, 63.8727, 59.6317, 16.4606
1, 2700.00000, 127.05, 126.972, 127.569, 0, 76.5472, 62.2265, 58.6105, 16.387
2, 0.00000, 126.958, 126.868, 127.493, 0, 80.2226, 66.5632, 61.684, 16.6206
2, 900.00000, 127.043, 126.948, 127.571, 0, 79.2664, 65.9097, 60.9431, 16.3922
2, 1800.00000, 127.012, 126.919, 127.538, 0, 78.5204, 64.718, 60.4033, 16.3581
2, 2700.00000, 127.054, 126.96, 127.58, 0, 80.4559, 67.251, 62.251, 16.2704
3, 0.00000, 127.211, 127.142, 127.735, 0, 77.8767, 63.9858, 59.4629, 16.5954
3, 900.00000, 127.133, 127.049, 127.659, 0, 78.4981, 65.119, 60.1806, 16.3964
3, 1800.00000, 127.196, 127.12, 127.727, 0, 78.5479, 65.1454, 59.8873, 16.6525
3, 2700.00000, 127.012, 126.926, 127.547, 0, 80.2027, 66.4685, 61.7697, 16.5655
4, 0.00000, 127.11, 127.026, 127.632, 0, 77.1147, 63.4426, 59.3515, 16.0803
4, 900.00000, 127.12, 127.049, 127.655, 0, 79.1494, 64.9319, 60.7272, 16.6897
4, 1800.00000, 126.937, 126.844, 127.498, 0, 82.3791, 68.2506, 62.9783, 17.3557
4, 2700.00000, 127.095, 127.021, 127.63, 0, 81.8382, 67.424, 63.2683, 16.8433
5, 0.00000, 127.013, 126.917, 127.547, 0, 82.1254, 68.3827, 63.9357, 16.3916
5, 900.00000, 127.023, 126.937, 127.543, 0, 83.5465, 69.5199, 65.9955, 16.0317
5, 1800.00000, 126.98, 126.892, 127.497, 0, 83.7006, 70.0671, 66.3878, 15.7529
5, 2700.00000, 127.009, 126.932, 127.525, 0, 83.3308, 68.8391, 65.9792, 16.0511
6, 0.00000, 127.198, 127.099, 127.692, 0, 79.5496, 66.4259, 62.9506, 15.1167
6, 900.00000, 127.063, 126.943, 127.594, 0, 80.6937, 67.3537, 63.0603, 15.8903
6, 1800.00000, 127.115, 126.956, 127.687, 0, 77.6238, 65.7224, 58.271, 16.9273
6, 2700.00000, 126.901, 126.766, 127.553, 0, 94.6184, 81.4196, 70.8798, 20.6583
7, 0.00000, 126.869, 126.68, 127.552, 0, 89.7205, 78.3103, 65.1058, 21.4366
7, 900.00000, 126.768, 126.586, 127.427, 0, 94.747, 82.0843, 71.2779, 20.4076
7, 1800.00000, 126.711, 126.588, 127.37, 0, 105.353, 90.0128, 81.9473, 20.5999
7, 2700.00000, 126.522, 126.488, 127.179, 0, 117.34, 97.0111, 94.1213, 21.7931
8, 0.00000, 126.256, 126.198, 126.887, 0, 127.65, 107.893, 106.021, 20.5843
8, 900.00000, 126.149, 126.143, 126.738, 0, 140.269, 118.183, 121.301, 20.3816
8, 1800.00000, 125.854, 125.888, 126.45, 0, 153.497, 129.027, 134.556, 21.8126
8, 2700.00000, 124.929, 124.97, 125.547, 0, 159.486, 133.984, 140.045, 22.6197
9, 0.00000, 124.707, 124.754, 125.354, 0, 165.385, 139.102, 144.342, 23.6441
9, 900.00000, 124.514, 124.613, 125.161, 0, 177.67, 149.06, 156.74, 25.1129
9, 1800.00000, 125.245, 125.35, 125.875, 0, 177.944, 148.679, 157.693, 25.3877
9, 2700.00000, 125.285, 125.416, 125.902, 0, 182.097, 152.023, 162.222, 25.8945
10, 0.00000, 125.254, 125.355, 125.909, 0, 183.823, 155.778, 161.771, 25.0961
10, 900.00000, 125.07, 125.207, 125.733, 0, 189.748, 159.326, 167.317, 26.7633
10, 1800.00000, 125.041, 125.162, 125.754, 0, 194.488, 165.275, 169.245, 26.9992
10, 2700.00000, 126.692, 126.773, 127.405, 0, 200.748, 172.067, 175.595, 26.6153
11, 0.00000, 124.868, 124.982, 125.597, 0, 198.74, 169.282, 173.154, 27.2643
11, 900.00000, 124.86, 125.011, 125.584, 0, 204.826, 174.044, 178.898, 28.178
11, 1800.00000, 122.718, 122.897, 123.483, 0, 207.432, 176.322, 180.136, 28.9494
11, 2700.00000, 122.798, 122.976, 123.54, 0, 207.776, 177.024, 181.105, 28.4838
12, 0.00000, 122.994, 123.145, 123.712, 0, 201.542, 172.696, 175.981, 26.9462
12, 900.00000, 122.765, 122.907, 123.489, 0, 202.965, 173.58, 177.938, 27.0039
12, 1800.00000, 122.783, 122.941, 123.476, 0, 203.649, 173.146, 180.197, 27.1097
12, 2700.00000, 122.466, 122.748, 123.211, 0, 207.15, 170.604, 181.206, 31.9622
13, 0.00000, 122.573, 122.794, 123.367, 0, 204.415, 170.552, 175.752, 31.1138
13, 900.00000, 122.548, 122.776, 123.341, 0, 201.644, 167.094, 173.263, 31.4197
13, 1800.00000, 121.995, 122.24, 122.704, 0, 204.558, 169.375, 180.861, 30.4222
13, 2700.00000, 121.576, 121.847, 122.326, 0, 213.354, 175.476, 189.001, 32.4874
14, 0.00000, 121.757, 122.019, 122.515, 0, 207.544, 170.331, 182.627, 32.1347
14, 900.00000, 121.855, 122.104, 122.578, 0, 204.612, 168.496, 181.606, 30.9482
14, 1800.00000, 121.921, 122.19, 122.632, 0, 206.681, 169.947, 183.794, 31.4079
14, 2700.00000, 117.533, 117.813, 118.188, 0, 199.665, 165.677, 179.067, 29.2781
15, 0.00000, 124.582, 124.789, 125.265, 0, 205.981, 170.332, 183.648, 30.446
15, 900.00000, 124.659, 124.866, 125.366, 0, 207.149, 172.113, 183.353, 30.2967
15, 1800.00000, 124.536, 124.738, 125.18, 0, 209.508, 174.55, 189.26, 29.6005
15, 2700.00000, 124.652, 124.833, 125.345, 0, 204.74, 171.291, 181.444, 29.0463
16, 0.00000, 124.505, 124.718, 125.179, 0, 209.57, 174.097, 187.71, 30.2318
16, 900.00000, 124.56, 124.771, 125.299, 0, 207.598, 172.714, 182.162, 30.6212
16, 1800.00000, 124.554, 124.765, 125.335, 0, 208.337, 173.622, 180.191, 31.4022
16, 2700.00000, 124.669, 124.872, 125.455, 0, 205.717, 171.498, 177.082, 31.2923
17, 0.00000, 124.636, 124.82, 125.427, 0, 203.371, 169.928, 174.5, 30.93
17, 900.00000, 124.593, 124.804, 125.412, 0, 207.259, 173.766, 175.684, 32.1977
17, 1800.00000, 126.448, 126.569, 127.217, 0, 196.132, 167.044, 165.81, 29.4317
17, 2700.00000, 126.526, 126.654, 127.274, 0, 191.841, 163.051, 162.319, 28.8728
18, 0.00000, 126.619, 126.742, 127.362, 0, 188.457, 160.303, 158.6, 28.7871
18, 900.00000, 126.214, 126.378, 126.984, 0, 198.085, 167.574, 167.018, 30.4941
18, 1800.00000, 126.161, 126.306, 126.944, 0, 200.757, 171.417, 168.747, 30.5144
18, 2700.00000, 130.767, 130.809, 131.492, 0, 182.748, 156.595, 151.842, 28.614
19, 0.00000, 130.736, 130.802, 131.441, 0, 179.677, 151.943, 150.252, 28.3341
19, 900.00000, 131.012, 131.036, 131.718, 0, 166.968, 142.177, 137.101, 27.5056
19, 1800.00000, 130.51, 130.533, 131.228, 0, 167.976, 143.521, 137.648, 27.706
19, 2700.00000, 130.503, 130.515, 131.257, 0, 163.092, 138.865, 131.784, 28.3208
20, 0.00000, 130.657, 130.66, 131.399, 0, 157.885, 134.272, 126.589, 28.1486
20, 900.00000, 124.915, 124.997, 125.76, 0, 162.09, 136.83, 129.026, 29.8875
20, 1800.00000, 125.124, 125.192, 125.961, 0, 157.168, 132.832, 123.201, 30.3069
20, 2700.00000, 124.949, 124.979, 125.803, 0, 151.558, 129.403, 117.13, 30.2727
21, 0.00000, 124.999, 124.963, 125.862, 0, 143.067, 123.309, 108.426, 30.1978
21, 900.00000, 125.211, 125.168, 126.05, 0, 138.77, 120.107, 105.123, 29.3014
21, 1800.00000, 121.406, 121.425, 122.238, 0, 138.579, 119.061, 105.96, 28.5243
21, 2700.00000, 121.586, 121.609, 122.353, 0, 128.642, 109.227, 99.7508, 25.5465
22, 0.00000, 121.811, 121.801, 122.533, 0, 121.888, 104.434, 94.945, 23.7108
22, 900.00000, 121.875, 121.838, 122.574, 0, 116.132, 99.97, 90.1869, 22.7422
22, 1800.00000, 121.857, 121.814, 122.518, 0, 116.338, 100.705, 92.4522, 21.0365
22, 2700.00000, 123.602, 123.545, 124.223, 0, 103.992, 87.9937, 82.4029, 19.3802
23, 0.00000, 123.673, 123.613, 124.293, 0, 97.7043, 81.482, 76.8954, 18.896
23, 900.00000, 123.82, 123.735, 124.413, 0, 95.5936, 81.2155, 75.7421, 17.7415
23, 1800.00000, 127.612, 127.487, 128.182, 0, 94.4704, 79.6702, 74.8852, 17.6337
23, 2700.00000, 127.778, 127.669, 128.337, 0, 88.8319, 73.5408, 69.7216, 17.4523
24, 0.00000, 127.795, 127.684, 128.352, 0, 86.3903, 71.0424, 67.602, 17.2585
24, 900.00000, 127.895, 127.77, 128.442, 0, 85.1906, 71.3909, 66.1848, 16.9797
