hour, t(sec), |V|1 (volts), |V|2 (volts), |V|3 (volts), |V|4 (volts), |I|1 (amps), |I|2 (amps), |I|3 (amps), |I|4 (amps)
0, 900.00000, 126.216, 126.39, 127.101, 0, 129.231, 104.192, 91.6674, 33.2214
0, 1800.00000, 126.447, 126.587, 127.272, 0, 121.532, 98.7512, 87.0341, 30.4673
0, 2700.00000, 126.294, 126.372, 127.005, 0, 120.053, 101.373, 91.9806, 24.8107
1, 0.00000, 126.176, 126.279, 126.96, 0, 122.433, 102.487, 90.2841, 28.207
1, 900.00000, 126.255, 126.413, 127.102, 0, 119.816, 96.7933, 83.7496, 31.7321
1, 1800.00000, 126.269, 126.347, 127.014, 0, 120.202, 102.086, 89.8299, 26.5646
1, 2700.00000, 126.287, 126.366, 126.973, 0, 117.106, 98.7678, 90.1182, 23.9175
2, 0.00000, 126.183, 126.324, 126.911, 0, 121.608, 99.7574, 92.6317, 26.1745
2, 900.00000, 126.338, 126.318, 126.94, 0, 116.534, 104.02, 94.6305, 19.1151
2, 1800.00000, 126.356, 126.341, 126.975, 0, 113.324, 100.19, 90.4216, 19.9873
2, 2700.00000, 126.452, 126.468, 127.113, 0, 112.374, 97.7614, 86.7492, 22.3542
3, 0.00000, 126.695, 126.726, 127.273, 0, 104.627, 89.7028, 83.5372, 18.8042
3, 900.00000, 126.648, 126.726, 127.341, 0, 104.11, 86.1633, 76.434, 24.3802
3, 1800.00000, 126.997, 127.082, 127.648, 0, 98.6491, 80.4116, 73.0013, 22.893
3, 2700.00000, 126.633, 126.709, 127.316, 0, 110.94, 92.8006, 84.3144, 23.6063
4, 0.00000, 126.694, 126.866, 127.458, 0, 109.928, 86.326, 78.3733, 28.4587
4, 900.00000, 126.722, 126.865, 127.396, 0, 110.735, 88.9301, 84.5235, 24.2945
4, 1800.00000, 126.528, 126.538, 127.097, 0, 114.854, 99.9492, 95.4622, 17.5745
4, 2700.00000, 126.91, 126.965, 127.535, 0, 110.688, 93.6916, 87.1532, 21.0622
5, 0.00000, 126.864, 126.938, 127.582, 0, 109.199, 90.6089, 80.4539, 25.3139
5, 900.00000, 126.958, 127.047, 127.605, 0, 105.669, 86.4371, 80.893, 22.523
5, 1800.00000, 126.658, 126.753, 127.361, 0, 121.035, 101.817, 93.3265, 24.6349
5, 2700.00000, 126.801, 126.936, 127.584, 0, 114.317, 92.4024, 81.5659, 28.9692
6, 0.00000, 127.085, 127.156, 127.789, 0, 104.767, 86.6491, 76.0501, 25.2187
6, 900.00000, 126.85, 126.926, 127.596, 0, 112.161, 92.7003, 82.0536, 26.5122
6, 1800.00000, 126.746, 126.753, 127.426, 0, 117.595, 101.549, 91.9753, 22.4882
6, 2700.00000, 127.371, 127.455, 127.987, 0, 89.5993, 74.3072, 68.4777, 18.7556
7, 0.00000, 127.103, 127.217, 127.85, 0, 98.8404, 80.7733, 70.8505, 24.5644
7, 900.00000, 126.963, 126.766, 127.414, 0, 105.735, 105.275, 95.0928, 11.1603
7, 1800.00000, 127.522, 127.556, 128.004, 0, 79.4166, 71.2944, 67.5647, 10.3064
7, 2700.00000, 127.576, 127.664, 128.133, 0, 77.6838, 66.4149, 61.4195, 14.2102
8, 0.00000, 127.426, 127.444, 127.982, 0, 81.5359, 73.6242, 65.3892, 14.2442
8, 900.00000, 127.635, 127.69, 128.254, 0, 76.1925, 66.4553, 56.2627, 17.5403
8, 1800.00000, 127.664, 127.697, 128.205, 0, 71.679, 63.1304, 56.6835, 13.0896
8, 2700.00000, 127.628, 127.763, 128.216, 0, 67.7162, 57.0788, 51.4147, 14.1675
9, 0.00000, 127.275, 127.271, 127.763, 0, 80.5818, 77.6951, 70.2223, 10.3321
9, 900.00000, 127.491, 127.525, 127.965, 0, 70.371, 65.5854, 60.7204, 8.73259
9, 1800.00000, 127.967, 128.056, 128.372, 0, 56.5655, 57.4359, 51.4546, 9.08829
9, 2700.00000, 128.127, 128.089, 128.385, 0, 53.4915, 61.4614, 55.7082, 12.9858
10, 0.00000, 128.165, 128.282, 128.671, 0, 51.8639, 51.7397, 40.9707, 14.0472
10, 900.00000, 127.889, 127.886, 128.201, 0, 61.7912, 68.2739, 61.6348, 11.8726
10, 1800.00000, 127.997, 128.223, 128.594, 0, 59.0076, 53.2611, 43.4874, 15.1759
10, 2700.00000, 128.68, 129.114, 129.314, 0, 47.3746, 42.0185, 36.3487, 16.4202
11, 0.00000, 128.762, 129.149, 129.34, 0, 46.2184, 41.7707, 36.312, 15.3441
11, 900.00000, 128.923, 129.338, 129.44, 0, 44.9173, 40.1075, 36.1299, 11.598
11, 1800.00000, 128.844, 128.981, 129.036, 0, 49.3697, 52.4506, 46.2362, 23.0752
11, 2700.00000, 128.972, 129.316, 129.417, 0, 48.7777, 45.5491, 39.9671, 16.5468
12, 0.00000, 129.097, 129.487, 129.465, 0, 48.3429, 43.924, 40.0382, 11.8412
12, 900.00000, 128.633, 129.136, 129.168, 0, 52.4292, 46.7675, 41.9828, 10.9442
12, 1800.00000, 128.924, 129.298, 129.315, 0, 48.5999, 44.3724, 40.2866, 11.9909
12, 2700.00000, 128.851, 129.4, 129.404, 0, 52.1886, 46.4223, 42.2143, 12.0703
13, 0.00000, 129.103, 129.508, 129.503, 0, 51.3243, 45.8955, 42.1061, 13.1929
13, 900.00000, 128.925, 129.326, 129.34, 0, 51.4957, 46.9413, 42.5225, 13.4539
13, 1800.00000, 128.757, 129.09, 129.134, 0, 52.4919, 50.395, 44.5829, 16.4999
13, 2700.00000, 128.298, 128.839, 128.953, 0, 57.1358, 50.5717, 44.2977, 14.9852
14, 0.00000, 128.523, 128.876, 128.939, 0, 53.7806, 51.505, 45.9697, 14.5895
14, 900.00000, 128.662, 129.005, 129.099, 0, 52.4584, 49.6336, 43.7365, 16.1188
14, 1800.00000, 128.723, 129.262, 129.345, 0, 52.6352, 46.7089, 42.2033, 14.6263
14, 2700.00000, 128.774, 129.255, 129.372, 0, 53.5241, 48.6575, 42.8408, 17.2295
15, 0.00000, 128.687, 128.79, 128.91, 0, 54.265, 60.7199, 51.6281, 27.1504
15, 900.00000, 128.921, 129.267, 129.373, 0, 52.4463, 49.3435, 43.2115, 18.0893
15, 1800.00000, 128.831, 129.17, 129.323, 0, 51.6899, 49.1707, 42.2582, 18.2274
15, 2700.00000, 128.751, 129.096, 129.2, 0, 53.1785, 51.6951, 44.549, 16.7622
16, 0.00000, 128.704, 129.057, 129.131, 0, 53.2119, 51.4, 45.2074, 15.2298
16, 900.00000, 128.741, 129.287, 129.399, 0, 52.9515, 46.8213, 41.5871, 16.1439
16, 1800.00000, 128.87, 129.495, 129.56, 0, 51.2325, 45.0385, 41.8829, 15.7073
16, 2700.00000, 128.378, 128.795, 129.009, 0, 54.8357, 48.2311, 40.6246, 14.8133
17, 0.00000, 128.35, 128.82, 129.044, 0, 53.2906, 44.6213, 37.4286, 16.9436
17, 900.00000, 128.271, 128.8, 128.95, 0, 56.9647, 46.6137, 40.3403, 16.1409
17, 1800.00000, 127.321, 127.476, 127.858, 0, 88.0906, 83.7872, 74.7791, 13.0254
17, 2700.00000, 127.283, 127.206, 127.602, 0, 90.2876, 99.8178, 89.2017, 14.1945
18, 0.00000, 127.284, 127.307, 127.734, 0, 92.0309, 96.2856, 83.082, 14.855
18, 900.00000, 126.627, 126.699, 127.104, 0, 116.396, 118.189, 106.944, 13.3091
18, 1800.00000, 126.663, 126.589, 126.985, 0, 113.691, 123.887, 112.965, 14.6124
18, 2700.00000, 125.454, 125.249, 126.022, 0, 164.482, 166.961, 147.23, 19.6456
19, 0.00000, 125.411, 125.449, 126.198, 0, 162.702, 150.992, 132.992, 26.3714
19, 900.00000, 125.421, 125.147, 125.919, 0, 164.936, 171.608, 151.652, 18.8063
19, 1800.00000, 125.013, 124.816, 125.604, 0, 182.488, 179.514, 163.143, 18.4332
19, 2700.00000, 124.811, 124.85, 125.703, 0, 189.023, 172.287, 153.303, 31.234
20, 0.00000, 124.864, 124.667, 125.571, 0, 189.305, 186.088, 163.609, 24.6843
20, 900.00000, 125.074, 125.055, 125.909, 0, 171.691, 157.895, 139.697, 28.0708
20, 1800.00000, 125.126, 125.092, 125.957, 0, 174.743, 161.967, 141.945, 28.9259
20, 2700.00000, 125.085, 125.133, 125.946, 0, 174.423, 156.828, 140.262, 29.8098
21, 0.00000, 124.742, 124.029, 124.914, 0, 187.664, 212.824, 193.848, 23.4378
21, 900.00000, 125.258, 125.278, 126.092, 0, 166.685, 150.191, 134.004, 28.5125
21, 1800.00000, 125.426, 125.301, 126.19, 0, 159.724, 151.278, 130.56, 26.2964
21, 2700.00000, 125.443, 125.346, 126.121, 0, 158.873, 149.183, 134.896, 21.1238
22, 0.00000, 125.635, 125.383, 126.191, 0, 153.671, 152.971, 135.95, 17.746
22, 900.00000, 125.453, 125.231, 126.077, 0, 161.41, 158.897, 139.791, 20.8352
22, 1800.00000, 125.46, 125.216, 126.115, 0, 160.361, 159.23, 136.87, 23.3254
22, 2700.00000, 125.615, 125.502, 126.341, 0, 157.862, 149.242, 130.237, 24.7571
23, 0.00000, 125.635, 125.759, 126.632, 0, 155.052, 132.213, 112.048, 37.4824
23, 900.00000, 125.834, 125.853, 126.628, 0, 149.151, 132.859, 117.458, 27.6207
23, 1800.00000, 125.866, 125.863, 126.686, 0, 142.257, 126.766, 109.124, 28.9089
23, 2700.00000, 125.935, 125.966, 126.733, 0, 141.881, 124.743, 109.926, 27.8496
24, 0.00000, 125.939, 125.992, 126.775, 0, 140.644, 122.103, 106.605, 29.6734
24, 900.00000, 126.216, 126.39, 127.101, 0, 129.233, 104.193, 91.668, 33.2219
