hour, t(sec), |V|1 (volts), |V|2 (volts), |V|3 (volts), |V|4 (volts), |I|1 (amps), |I|2 (amps), |I|3 (amps), |I|4 (amps)
0, 900.00000, 124.594, 124.022, 125.577, 0, 178.104, 187.041, 140.939, 42.9801
0, 1800.00000, 124.819, 124.338, 125.797, 0, 171.973, 176.477, 134.815, 40.1813
0, 2700.00000, 125.13, 124.651, 126.053, 0, 166.018, 171.017, 131.459, 37.8605
1, 0.00000, 124.962, 124.513, 125.935, 0, 170.488, 174.04, 133.038, 39.8949
1, 900.00000, 125.038, 124.606, 126.008, 0, 168.628, 171.539, 131.177, 39.5222
1, 1800.00000, 125.036, 124.6, 125.992, 0, 166.548, 170.003, 129.63, 39.2828
1, 2700.00000, 124.926, 124.473, 125.936, 0, 170.491, 174.653, 130.357, 42.8964
2, 0.00000, 124.898, 124.458, 125.922, 0, 170.074, 173.418, 129.467, 42.9102
2, 900.00000, 125.069, 124.641, 126.052, 0, 165.095, 167.789, 126.692, 40.3319
2, 1800.00000, 124.975, 124.545, 125.988, 0, 167.455, 169.907, 127.485, 41.7737
2, 2700.00000, 125.105, 124.687, 126.082, 0, 162.659, 165.063, 124.505, 39.9116
3, 0.00000, 125.471, 125.071, 126.344, 0, 149.645, 151.896, 116.9, 34.3776
3, 900.00000, 125.372, 124.987, 126.255, 0, 150.828, 151.934, 117.755, 34.0929
3, 1800.00000, 125.426, 125.043, 126.333, 0, 152.144, 153.502, 117.541, 35.7538
3, 2700.00000, 125.101, 124.708, 126.058, 0, 159.8, 160.772, 123.091, 37.698
4, 0.00000, 125.228, 124.832, 126.152, 0, 155.621, 156.989, 120.685, 36.1195
4, 900.00000, 125.449, 125.037, 126.315, 0, 146.267, 148.592, 114.702, 33.251
4, 1800.00000, 125.039, 124.604, 126.021, 0, 160.5, 162.819, 123.271, 38.9702
4, 2700.00000, 125.336, 124.917, 126.254, 0, 149.928, 152.311, 115.427, 36.2245
5, 0.00000, 125.144, 124.709, 126.113, 0, 155.589, 158.159, 118.693, 38.7488
5, 900.00000, 125.149, 124.722, 126.138, 0, 157.593, 160.027, 119.288, 40.0784
5, 1800.00000, 124.988, 124.584, 125.964, 0, 156.195, 157.68, 118.712, 38.7381
5, 2700.00000, 125.061, 124.622, 126.019, 0, 153.823, 156.986, 117.227, 38.7683
6, 0.00000, 125.346, 124.928, 126.263, 0, 146.197, 148.344, 111.405, 36.3657
6, 900.00000, 125.093, 124.639, 126.05, 0, 152.268, 154.703, 116.896, 37.1687
6, 1800.00000, 125.226, 124.723, 126.153, 0, 144.431, 148.563, 111.952, 35.2655
6, 2700.00000, 125.43, 124.955, 126.296, 0, 133.19, 135.848, 104.305, 30.7932
7, 0.00000, 125.157, 124.585, 126.069, 0, 140.306, 146.795, 110.198, 34.4062
7, 900.00000, 125.17, 124.604, 126.083, 0, 138.738, 143.909, 108.516, 33.6851
7, 1800.00000, 125.643, 125.089, 126.549, 0, 123.746, 128.913, 93.9147, 33.2244
7, 2700.00000, 125.68, 125.131, 126.6, 0, 123.346, 128.274, 92.6704, 33.9094
8, 0.00000, 125.396, 124.784, 126.388, 0, 133.623, 141.044, 99.2339, 39.1915
8, 900.00000, 125.795, 125.265, 126.733, 0, 119.266, 122.67, 88.1047, 33.4757
8, 1800.00000, 125.722, 125.2, 126.646, 0, 119.302, 122.148, 89.396, 31.9131
8, 2700.00000, 125.43, 124.866, 126.419, 0, 128.228, 131.976, 95.529, 35.2753
9, 0.00000, 125.144, 124.56, 126.272, 0, 136.527, 140.851, 96.0443, 43.3867
9, 900.00000, 125.16, 124.607, 126.273, 0, 137.467, 140.71, 97.7838, 41.9755
9, 1800.00000, 125.282, 124.654, 126.32, 0, 130.045, 137.662, 94.4799, 40.4883
9, 2700.00000, 125.664, 125.137, 126.672, 0, 116.544, 119.206, 82.1792, 36.245
10, 0.00000, 125.639, 125.071, 126.629, 0, 118.075, 123.494, 84.5205, 37.0557
10, 900.00000, 125.441, 124.87, 126.487, 0, 123.861, 128.947, 87.268, 39.8941
10, 1800.00000, 125.481, 124.923, 126.54, 0, 125.539, 130.189, 88.1187, 40.4608
10, 2700.00000, 125.227, 124.685, 126.341, 0, 135.774, 139.045, 96.1692, 41.9054
11, 0.00000, 125.236, 124.678, 126.33, 0, 137.286, 141.206, 98.619, 41.3453
11, 900.00000, 125.542, 124.912, 126.592, 0, 126.906, 135.66, 89.9048, 42.5933
11, 1800.00000, 125.38, 124.864, 126.433, 0, 131, 133.535, 93.773, 39.081
11, 2700.00000, 125.617, 125.087, 126.601, 0, 123.496, 127.313, 89.3041, 36.7371
12, 0.00000, 125.673, 125.13, 126.684, 0, 125.598, 130.537, 89.6575, 39.136
12, 900.00000, 125.264, 124.687, 126.357, 0, 135.066, 140.578, 95.6989, 42.9456
12, 1800.00000, 125.273, 124.662, 126.319, 0, 136.304, 143.57, 99.4714, 41.5219
12, 2700.00000, 125.502, 124.935, 126.499, 0, 127.614, 133.206, 93.6868, 37.5723
13, 0.00000, 125.485, 124.89, 126.542, 0, 131.964, 138.168, 94.9996, 40.981
13, 900.00000, 125.344, 124.746, 126.42, 0, 134.961, 140.937, 97.2695, 41.5835
13, 1800.00000, 125.281, 124.694, 126.388, 0, 136.78, 142.11, 97.1698, 43.1009
13, 2700.00000, 124.523, 123.872, 125.767, 0, 161.519, 168.38, 116.457, 49.6004
14, 0.00000, 124.595, 123.967, 125.849, 0, 162.317, 168.169, 116.655, 49.5933
14, 900.00000, 124.755, 124.154, 125.944, 0, 156.397, 161.336, 114.283, 45.4974
14, 1800.00000, 125.085, 124.487, 126.233, 0, 145.024, 150.465, 104.403, 44.236
14, 2700.00000, 125.256, 124.689, 126.366, 0, 138.667, 142.819, 99.3127, 42.174
15, 0.00000, 125.249, 124.675, 126.386, 0, 135.954, 139.483, 95.8537, 42.5679
15, 900.00000, 125.441, 124.885, 126.553, 0, 131.729, 134.909, 92.7495, 41.2266
15, 1800.00000, 125.246, 124.673, 126.341, 0, 134.647, 138.572, 96.6593, 40.6793
15, 2700.00000, 125.223, 124.62, 126.314, 0, 137.815, 143.838, 99.72, 42.035
16, 0.00000, 125.096, 124.504, 126.233, 0, 140.792, 145.929, 100.525, 43.6792
16, 900.00000, 125.237, 124.693, 126.337, 0, 134.49, 137.543, 96.1416, 40.5359
16, 1800.00000, 125.202, 124.627, 126.326, 0, 137.03, 142.093, 96.8462, 43.5191
16, 2700.00000, 125.347, 124.766, 126.419, 0, 132.457, 137.869, 94.9519, 41.0445
17, 0.00000, 125.099, 124.472, 126.211, 0, 141.292, 149.046, 101.752, 44.5408
17, 900.00000, 125.068, 124.388, 126.169, 0, 145.021, 157.521, 104.277, 48.7988
17, 1800.00000, 125.165, 124.609, 126.28, 0, 146.724, 152.866, 103.711, 46.9256
17, 2700.00000, 125.195, 124.667, 126.269, 0, 145.188, 150.702, 103.908, 44.8084
18, 0.00000, 125.175, 124.631, 126.192, 0, 148.364, 155.283, 109.369, 43.387
18, 900.00000, 124.585, 123.953, 125.655, 0, 165.473, 177.332, 123.74, 49.3373
18, 1800.00000, 124.485, 123.822, 125.567, 0, 170.519, 184.144, 127.804, 51.5034
18, 2700.00000, 124.558, 123.791, 125.593, 0, 171.001, 190.455, 130.806, 53.2831
19, 0.00000, 124.309, 123.545, 125.377, 0, 179.099, 198.223, 137.433, 54.4711
19, 900.00000, 124.477, 123.816, 125.49, 0, 173.542, 187.651, 134.429, 48.3636
19, 1800.00000, 124.404, 123.696, 125.427, 0, 173.546, 190.245, 133.838, 50.7885
19, 2700.00000, 124.031, 123.321, 125.123, 0, 187.587, 203.995, 145.581, 52.8774
20, 0.00000, 124.082, 123.453, 125.239, 0, 189.214, 201.198, 142.691, 54.1874
20, 900.00000, 123.631, 122.938, 124.837, 0, 205.298, 220.47, 158.161, 57.0658
20, 1800.00000, 123.968, 123.365, 125.126, 0, 195.013, 205.342, 148.803, 52.8389
20, 2700.00000, 123.865, 123.28, 125.03, 0, 191.2, 200.477, 145.202, 51.9647
21, 0.00000, 123.478, 122.837, 124.714, 0, 205.305, 216.2, 156.302, 56.0488
21, 900.00000, 123.865, 123.262, 125.063, 0, 193.148, 202.601, 145.569, 53.6551
21, 1800.00000, 123.993, 123.416, 125.156, 0, 193.056, 200.849, 147.201, 50.9184
21, 2700.00000, 124.196, 123.656, 125.317, 0, 181.914, 188.215, 138.508, 47.5404
22, 0.00000, 124.404, 123.862, 125.505, 0, 177.677, 184.291, 134.531, 47.4314
22, 900.00000, 124.184, 123.622, 125.32, 0, 187.174, 194.672, 141.833, 50.1725
22, 1800.00000, 124.121, 123.574, 125.26, 0, 189.607, 196.483, 144.013, 50.0502
22, 2700.00000, 124.241, 123.68, 125.399, 0, 190.707, 198.334, 144.284, 51.3362
23, 0.00000, 124.225, 123.666, 125.377, 0, 188.953, 195.884, 143.842, 49.6411
23, 900.00000, 124.429, 123.899, 125.583, 0, 184.748, 190.767, 138.743, 49.9385
23, 1800.00000, 124.09, 123.534, 125.29, 0, 197.916, 204.75, 149.835, 52.55
23, 2700.00000, 124.454, 123.917, 125.607, 0, 182.332, 188.606, 136.5, 49.9129
24, 0.00000, 124.373, 123.855, 125.527, 0, 185.072, 190.211, 139.458, 49.0471
24, 900.00000, 124.594, 124.022, 125.576, 0, 178.108, 187.046, 140.941, 42.9826
