hour, t(sec), |V|1 (volts), |V|2 (volts), |V|3 (volts), |V|4 (volts), |I|1 (amps), |I|2 (amps), |I|3 (amps), |I|4 (amps)
0, 900.00000, 130.811, 129.812, 130.872, 0, 237.743, 284.892, 251.814, 43.1279
0, 1800.00000, 131.014, 130.042, 131.069, 0, 229.476, 275.315, 243.832, 41.746
0, 2700.00000, 123.672, 122.782, 123.775, 0, 219.552, 265.047, 232.852, 41.5317
1, 0.00000, 123.486, 122.601, 123.601, 0, 227.914, 273.132, 240.336, 41.5143
1, 900.00000, 123.572, 122.7, 123.696, 0, 223.818, 268.378, 235.415, 41.0639
1, 1800.00000, 118.382, 117.625, 118.51, 0, 214.468, 255.062, 225.481, 36.9911
1, 2700.00000, 118.275, 117.492, 118.37, 0, 220.625, 262.923, 234.07, 38.0639
2, 0.00000, 118.187, 117.403, 118.289, 0, 225.543, 267.998, 238.86, 38.2582
2, 900.00000, 118.369, 117.589, 118.469, 0, 216.282, 258.461, 229.581, 37.9689
2, 1800.00000, 118.253, 117.456, 118.339, 0, 222.036, 265.223, 236.643, 38.6809
2, 2700.00000, 118.786, 118.022, 118.903, 0, 213.571, 254.406, 225.348, 37.0274
3, 0.00000, 125.874, 125.03, 125.97, 0, 204.049, 246.921, 216.184, 39.1636
3, 900.00000, 125.718, 124.862, 125.81, 0, 210.553, 253.834, 223.429, 39.4254
3, 1800.00000, 125.887, 125.044, 125.992, 0, 202.779, 245.63, 214.288, 39.2973
3, 2700.00000, 125.524, 124.634, 125.617, 0, 218.391, 263.741, 231.84, 41.3384
4, 0.00000, 125.62, 124.708, 125.676, 0, 214.555, 262.059, 230.976, 42.7576
4, 900.00000, 125.75, 124.846, 125.805, 0, 208.082, 255.345, 224.729, 42.4565
4, 1800.00000, 125.446, 124.469, 125.484, 0, 221.624, 273.034, 240.559, 46.0896
4, 2700.00000, 132.582, 131.621, 132.587, 0, 206.468, 253.282, 223.969, 41.9426
5, 0.00000, 132.427, 131.453, 132.45, 0, 212.527, 259.268, 228.889, 42.1108
5, 900.00000, 132.476, 131.508, 132.497, 0, 211.732, 258.488, 227.972, 42.13
5, 1800.00000, 136.942, 135.954, 136.915, 0, 219.575, 265.513, 236.972, 40.9685
5, 2700.00000, 136.982, 136.003, 136.954, 0, 218.167, 262.926, 235.347, 39.9023
6, 0.00000, 137.222, 136.261, 137.17, 0, 208.239, 251.834, 226.984, 38.6026
6, 900.00000, 137, 135.983, 136.951, 0, 217.506, 262.867, 237.344, 40.1973
6, 1800.00000, 125.702, 124.781, 125.773, 0, 209.516, 253.802, 226.626, 39.7116
6, 2700.00000, 125.915, 124.99, 125.958, 0, 199.561, 244.495, 219.234, 39.9811
7, 0.00000, 125.682, 124.786, 125.823, 0, 207.924, 248.116, 220.645, 36.6679
7, 900.00000, 125.689, 124.795, 125.789, 0, 206.435, 245.021, 222.193, 34.6725
7, 1800.00000, 125.985, 125.151, 126.117, 0, 194.045, 228.901, 207.033, 31.4935
7, 2700.00000, 126.042, 125.239, 126.187, 0, 191.351, 223.682, 203.115, 29.3061
8, 0.00000, 125.879, 125.027, 126.001, 0, 197.335, 232.294, 211.118, 31.5196
8, 900.00000, 126.202, 125.417, 126.361, 0, 181.178, 211.558, 192.107, 27.5722
8, 1800.00000, 126.076, 125.236, 126.203, 0, 186.146, 221.026, 200.481, 31.3166
8, 2700.00000, 125.831, 124.927, 125.922, 0, 197.317, 235.622, 215.657, 34.214
9, 0.00000, 125.582, 124.696, 125.693, 0, 207.611, 243.505, 223.97, 32.2246
9, 900.00000, 125.659, 124.72, 125.734, 0, 203.578, 244.863, 223.221, 36.8419
9, 1800.00000, 125.741, 124.85, 125.864, 0, 198.158, 235.617, 213.581, 33.6653
9, 2700.00000, 126.044, 125.212, 126.164, 0, 183.502, 217.179, 198.583, 30.1463
10, 0.00000, 126.04, 125.258, 126.217, 0, 183.758, 213.788, 193.807, 27.4223
10, 900.00000, 125.863, 125.04, 125.998, 0, 191.513, 224.169, 205.128, 29.3905
10, 1800.00000, 125.989, 125.167, 126.11, 0, 186.322, 219.454, 201.14, 29.6799
10, 2700.00000, 125.713, 124.884, 125.894, 0, 197.122, 229.937, 208.089, 29.9922
11, 0.00000, 125.795, 124.933, 125.935, 0, 193.224, 228.642, 207.443, 31.8936
11, 900.00000, 125.989, 125.151, 126.116, 0, 186.777, 221.422, 200.937, 31.1226
11, 1800.00000, 125.659, 124.832, 125.813, 0, 198.192, 231.612, 210.48, 30.3053
11, 2700.00000, 125.817, 125.043, 125.961, 0, 192.771, 222.474, 204.948, 26.8134
12, 0.00000, 125.984, 125.174, 126.094, 0, 187.017, 220.58, 201.652, 30.0523
12, 900.00000, 125.531, 124.67, 125.644, 0, 205.907, 241.581, 221.776, 32.0096
12, 1800.00000, 125.56, 124.711, 125.7, 0, 206.368, 240.821, 219.639, 31.1783
12, 2700.00000, 125.612, 124.797, 125.771, 0, 200.73, 233.44, 212.85, 29.6758
13, 0.00000, 125.693, 124.853, 125.841, 0, 199.444, 233.096, 212.495, 30.4343
13, 900.00000, 125.558, 124.707, 125.71, 0, 203.715, 237.787, 216.949, 30.8366
13, 1800.00000, 125.54, 124.717, 125.706, 0, 204.204, 235.82, 215.914, 28.7703
13, 2700.00000, 124.975, 124.045, 125.155, 0, 227.001, 264.717, 240.124, 34.4906
14, 0.00000, 125.125, 124.164, 125.29, 0, 221.638, 262.608, 235.955, 37.3093
14, 900.00000, 125.238, 124.288, 125.41, 0, 216.258, 257.026, 229.869, 37.2032
14, 1800.00000, 125.467, 124.574, 125.629, 0, 206.738, 243.805, 220.359, 33.618
14, 2700.00000, 125.544, 124.694, 125.694, 0, 203.876, 237.979, 217.54, 30.81
15, 0.00000, 125.486, 124.643, 125.67, 0, 204.546, 236.556, 215.909, 29.2416
15, 900.00000, 125.656, 124.855, 125.856, 0, 199.606, 229.021, 209.308, 27.0464
15, 1800.00000, 125.474, 124.61, 125.629, 0, 207.046, 241.397, 220.81, 31.0655
15, 2700.00000, 125.548, 124.677, 125.693, 0, 203.956, 239.624, 218.096, 32.2025
16, 0.00000, 125.366, 124.482, 125.521, 0, 213.157, 249.414, 226.991, 32.858
16, 900.00000, 125.407, 124.574, 125.593, 0, 211.356, 244.047, 222.646, 29.9021
16, 1800.00000, 125.399, 124.568, 125.579, 0, 212.722, 245.462, 223.985, 29.9485
16, 2700.00000, 125.566, 124.744, 125.729, 0, 205.207, 237.332, 217.498, 29.1529
17, 0.00000, 125.388, 124.529, 125.553, 0, 212.993, 247.849, 225.306, 31.7653
17, 900.00000, 125.399, 124.565, 125.554, 0, 214.788, 249.719, 226.052, 31.98
17, 1800.00000, 125.358, 124.527, 125.448, 0, 217.831, 253.046, 233.224, 31.6224
17, 2700.00000, 125.385, 124.583, 125.505, 0, 215.396, 249.212, 227.704, 30.6746
18, 0.00000, 125.384, 124.564, 125.459, 0, 218.381, 254.37, 233.638, 32.2929
18, 900.00000, 124.823, 123.958, 124.93, 0, 242.549, 281.807, 255.721, 35.7826
18, 1800.00000, 124.794, 123.915, 124.909, 0, 244.508, 285.048, 256.538, 37.2555
18, 2700.00000, 124.719, 123.879, 124.893, 0, 246.954, 283.991, 253.823, 35.337
19, 0.00000, 124.513, 123.646, 124.689, 0, 255.373, 294.294, 262.8, 37.0698
19, 900.00000, 124.686, 123.824, 124.841, 0, 245.932, 285.329, 254.621, 37.0526
19, 1800.00000, 117.467, 116.736, 117.638, 0, 248.136, 283.883, 256.085, 33.3273
19, 2700.00000, 117.304, 116.559, 117.541, 0, 253.471, 290.375, 257.552, 35.9572
20, 0.00000, 117.4, 116.687, 117.616, 0, 251.022, 285.078, 255.876, 32.7871
20, 900.00000, 117.167, 116.38, 117.463, 0, 259.482, 299.837, 259.951, 41.1235
20, 1800.00000, 117.351, 116.571, 117.521, 0, 254.57, 294.208, 263.872, 36.7537
20, 2700.00000, 114.27, 113.53, 114.458, 0, 249.786, 288.518, 258.138, 36.1154
21, 0.00000, 114.11, 113.338, 114.327, 0, 255.169, 295.054, 261.58, 38.0057
21, 900.00000, 114.3, 113.568, 114.495, 0, 250.031, 287.373, 258.042, 34.8817
21, 1800.00000, 124.55, 123.616, 124.703, 0, 252.919, 296.457, 263.571, 40.6277
21, 2700.00000, 124.568, 123.645, 124.729, 0, 251.458, 294.841, 261.697, 40.5737
22, 0.00000, 124.809, 123.921, 124.961, 0, 241.76, 282.686, 251.622, 38.2086
22, 900.00000, 124.69, 123.78, 124.822, 0, 247.867, 290.135, 259.086, 39.1746
22, 1800.00000, 124.646, 123.743, 124.791, 0, 249.959, 291.904, 260.068, 39.1721
22, 2700.00000, 128.092, 127.174, 128.237, 0, 243.37, 284.441, 251.948, 38.7596
23, 0.00000, 128.034, 127.088, 128.186, 0, 244.481, 287.023, 253.678, 40.0552
23, 900.00000, 128.229, 127.308, 128.371, 0, 238.673, 280.256, 247.767, 39.0749
23, 1800.00000, 130.603, 129.61, 130.729, 0, 244.28, 288.974, 253.756, 42.0779
23, 2700.00000, 130.741, 129.803, 130.879, 0, 238.783, 279.585, 246.906, 38.635
24, 0.00000, 130.679, 129.718, 130.81, 0, 241.427, 283.91, 250.559, 39.9904
24, 900.00000, 130.812, 129.813, 130.873, 0, 237.735, 284.884, 251.808, 43.1271
