hour, t(sec), |V|1 (volts), |V|2 (volts), |V|3 (volts), |V|4 (volts), |I|1 (amps), |I|2 (amps), |I|3 (amps), |I|4 (amps)
0, 900.00000, 129.422, 128.628, 130.649, 0, 24.5947, 29.8063, 12.9933, 14.9052
0, 1800.00000, 129.537, 128.838, 130.739, 0, 24.0383, 28.3427, 12.676, 14.0233
0, 2700.00000, 126.124, 125.484, 127.311, 0, 22.6503, 26.9401, 11.9034, 13.4247
1, 0.00000, 125.765, 125.155, 127.085, 0, 25.8088, 29.7963, 13.7147, 14.5171
1, 900.00000, 125.791, 125.25, 127.11, 0, 25.7764, 29.0886, 13.6951, 14.0507
1, 1800.00000, 123.022, 122.585, 124.373, 0, 26.1646, 28.8506, 13.9015, 13.8255
1, 2700.00000, 122.974, 122.472, 124.334, 0, 26.4288, 29.7486, 14.0618, 14.3357
2, 0.00000, 122.85, 122.402, 124.258, 0, 27.5173, 30.2891, 14.6984, 14.4293
2, 900.00000, 123.029, 122.56, 124.375, 0, 26.1384, 29.1299, 13.9341, 13.9628
2, 1800.00000, 122.996, 122.533, 124.345, 0, 26.1948, 29.0933, 13.9695, 13.9241
2, 2700.00000, 123.254, 122.881, 124.587, 0, 25.9665, 27.9803, 13.8681, 13.2475
3, 0.00000, 127.327, 126.636, 128.412, 0, 20.7455, 25.6233, 10.8541, 13.0343
3, 900.00000, 127.313, 126.681, 128.387, 0, 20.4372, 24.6665, 10.6834, 12.426
3, 1800.00000, 127.256, 126.739, 128.369, 0, 21.4475, 24.5476, 11.2855, 12.0282
3, 2700.00000, 126.959, 126.416, 128.161, 0, 23.4255, 26.6876, 12.4233, 12.9596
4, 0.00000, 127.102, 126.53, 128.254, 0, 22.2633, 25.8439, 11.7582, 12.6916
4, 900.00000, 127.383, 126.645, 128.426, 0, 19.6835, 24.9902, 10.2943, 12.8889
4, 1800.00000, 126.938, 126.326, 128.143, 0, 23.3983, 27.2599, 12.4191, 13.3481
4, 2700.00000, 130.253, 129.727, 131.385, 0, 22.8561, 25.4868, 12.1085, 12.2887
5, 0.00000, 130.051, 129.566, 131.252, 0, 24.4633, 26.5819, 13.0242, 12.6499
5, 900.00000, 130.096, 129.626, 131.287, 0, 24.2166, 26.2238, 12.8728, 12.4866
5, 1800.00000, 131.718, 131.302, 132.976, 0, 26.6655, 27.8392, 14.2696, 13.0414
5, 2700.00000, 131.867, 131.446, 133.064, 0, 25.2678, 26.4747, 13.4847, 12.448
6, 0.00000, 132.134, 131.74, 133.237, 0, 23.1919, 24.1508, 12.3313, 11.3869
6, 900.00000, 132.06, 131.569, 133.18, 0, 23.3336, 25.0523, 12.3679, 11.9331
6, 1800.00000, 127.08, 126.44, 128.256, 0, 22.5636, 26.5187, 11.9364, 13.075
6, 2700.00000, 127.619, 126.842, 128.587, 0, 17.5912, 22.9796, 9.0997, 12.1222
7, 0.00000, 127.318, 126.72, 128.389, 0, 19.8928, 23.2721, 10.4486, 11.5296
7, 900.00000, 127.33, 126.697, 128.387, 0, 19.6439, 23.284, 10.3133, 11.6034
7, 1800.00000, 127.47, 126.902, 128.508, 0, 19.087, 22.1389, 9.94143, 11.0118
7, 2700.00000, 127.384, 126.974, 128.464, 0, 20.1251, 21.5675, 10.5603, 10.3884
8, 0.00000, 126.971, 126.714, 128.211, 0, 23.7857, 23.5378, 12.5887, 11.1151
8, 900.00000, 127.123, 126.963, 128.339, 0, 23.0259, 21.8576, 12.1019, 10.4307
8, 1800.00000, 127.383, 126.992, 128.47, 0, 19.931, 21.1143, 10.3518, 10.2514
8, 2700.00000, 127.112, 126.735, 128.293, 0, 22.0306, 22.9273, 11.5507, 10.9907
9, 0.00000, 126.188, 126.112, 127.733, 0, 30.6679, 28.4168, 16.4948, 13.2563
9, 900.00000, 126.443, 126.339, 127.888, 0, 28.2474, 26.3471, 15.1045, 12.3604
9, 1800.00000, 126.547, 126.569, 127.951, 0, 27.3203, 24.1465, 14.5763, 11.5467
9, 2700.00000, 126.678, 126.654, 128.054, 0, 26.7369, 24.12, 14.2403, 11.4689
10, 0.00000, 126.53, 126.727, 127.978, 0, 28.2584, 23.4123, 15.0259, 11.6518
10, 900.00000, 126.341, 126.476, 127.849, 0, 29.6622, 25.4003, 15.8242, 12.3372
10, 1800.00000, 126.151, 126.517, 127.757, 0, 31.9805, 25.3878, 17.1493, 12.9348
10, 2700.00000, 125.929, 126.39, 127.605, 0, 33.4128, 25.7948, 17.965, 13.4451
11, 0.00000, 126.095, 126.47, 127.707, 0, 31.9011, 25.1561, 17.083, 12.9143
11, 900.00000, 126.206, 126.507, 127.791, 0, 31.4527, 25.5417, 16.8242, 12.811
11, 1800.00000, 126.249, 126.449, 127.764, 0, 29.8583, 24.9767, 15.971, 12.2643
11, 2700.00000, 126.443, 126.613, 127.892, 0, 28.4517, 23.919, 15.1634, 11.757
12, 0.00000, 126.403, 126.565, 127.891, 0, 29.4011, 25.0174, 15.6934, 12.1853
12, 900.00000, 126.008, 126.227, 127.622, 0, 32.0962, 26.9846, 17.2207, 13.1605
12, 1800.00000, 126.392, 126.387, 127.845, 0, 28.3667, 25.5214, 15.0895, 12.1662
12, 2700.00000, 126.397, 126.451, 127.853, 0, 28.2593, 24.884, 14.9934, 12.0008
13, 0.00000, 126.332, 126.525, 127.829, 0, 29.3136, 24.4299, 15.6274, 12.0741
13, 900.00000, 126.211, 126.361, 127.744, 0, 30.0348, 25.5546, 16.0158, 12.466
13, 1800.00000, 125.891, 126.094, 127.553, 0, 33.2007, 28.1791, 17.8589, 13.622
13, 2700.00000, 125.323, 125.579, 127.18, 0, 37.2541, 31.4985, 20.1314, 15.1842
14, 0.00000, 125.364, 125.722, 127.227, 0, 37.3489, 30.5853, 20.159, 15.0895
14, 900.00000, 125.622, 125.978, 127.382, 0, 35.0373, 28.3345, 18.8692, 14.1502
14, 1800.00000, 125.673, 126.009, 127.434, 0, 35.1987, 28.7773, 18.9722, 14.235
14, 2700.00000, 125.622, 125.984, 127.409, 0, 35.9464, 29.3246, 19.3989, 14.5076
15, 0.00000, 125.602, 125.937, 127.389, 0, 35.868, 29.3987, 19.3484, 14.501
15, 900.00000, 125.728, 126.153, 127.489, 0, 35.2623, 27.9523, 18.9958, 14.1882
15, 1800.00000, 125.846, 126.062, 127.533, 0, 33.5149, 28.3083, 18.0045, 13.7488
15, 2700.00000, 125.724, 125.951, 127.469, 0, 34.9511, 29.6763, 18.8221, 14.3253
16, 0.00000, 125.685, 125.878, 127.438, 0, 34.9817, 30.0199, 18.8136, 14.4286
16, 900.00000, 125.805, 125.979, 127.511, 0, 33.9019, 29.1971, 18.2133, 14.0239
16, 1800.00000, 125.831, 126.07, 127.531, 0, 33.677, 28.3311, 18.0134, 13.8682
16, 2700.00000, 126.005, 126.241, 127.642, 0, 32.3678, 27.05, 17.3054, 13.3026
17, 0.00000, 125.88, 126.005, 127.547, 0, 33.1231, 28.919, 17.78, 13.8078
17, 900.00000, 125.64, 125.964, 127.407, 0, 35.736, 29.6796, 19.2503, 14.5241
17, 1800.00000, 125.695, 125.919, 127.435, 0, 35.1569, 30.1742, 18.8481, 14.5532
17, 2700.00000, 125.769, 125.972, 127.471, 0, 34.4264, 29.7336, 18.4516, 14.2956
18, 0.00000, 125.878, 126.07, 127.538, 0, 33.5599, 29.0303, 17.952, 13.9776
18, 900.00000, 125.465, 125.607, 127.24, 0, 36.2201, 32.187, 19.5036, 15.1873
18, 1800.00000, 125.389, 125.345, 127.194, 0, 36.9705, 34.8437, 19.9285, 16.1562
18, 2700.00000, 125.269, 125.346, 127.117, 0, 37.9409, 34.5765, 20.457, 16.148
19, 0.00000, 125.409, 125.428, 127.18, 0, 35.9242, 33.1322, 19.2588, 15.5334
19, 900.00000, 125.601, 125.54, 127.298, 0, 34.3336, 32.4105, 18.3727, 15.1562
19, 1800.00000, 121.914, 121.703, 123.636, 0, 34.2451, 34.4621, 18.3443, 16.0654
19, 2700.00000, 121.502, 121.436, 123.389, 0, 37.8269, 36.5697, 20.3978, 16.9129
20, 0.00000, 121.103, 121.411, 123.173, 0, 42.2491, 37.2177, 22.94, 17.4576
20, 900.00000, 121.315, 121.443, 123.276, 0, 39.3593, 36.1308, 21.2921, 16.7855
20, 1800.00000, 121.459, 121.506, 123.374, 0, 38.6342, 36.2152, 20.8839, 16.7586
20, 2700.00000, 119.939, 119.772, 121.776, 0, 36.9854, 36.9576, 20.1127, 16.9406
21, 0.00000, 119.45, 119.44, 121.463, 0, 41.3222, 39.5842, 22.705, 17.9099
21, 900.00000, 119.857, 119.902, 121.735, 0, 37.9653, 35.7249, 20.6922, 16.355
21, 1800.00000, 125.415, 125.313, 127.182, 0, 35.8208, 34.1744, 19.2785, 15.8535
21, 2700.00000, 125.777, 125.414, 127.384, 0, 32.1348, 33.2024, 17.2151, 15.5265
22, 0.00000, 125.793, 125.577, 127.417, 0, 32.7159, 32.315, 17.5452, 15.0284
22, 900.00000, 125.541, 125.396, 127.253, 0, 35.0002, 33.85, 18.9233, 15.5964
22, 1800.00000, 125.421, 125.371, 127.183, 0, 36.1228, 34.0193, 19.5414, 15.7064
22, 2700.00000, 126.912, 126.948, 128.715, 0, 37.5712, 34.3751, 20.3596, 15.931
23, 0.00000, 127.133, 127.036, 128.838, 0, 35.0917, 33.1734, 18.9406, 15.3472
23, 900.00000, 127.152, 126.983, 128.872, 0, 35.6192, 34.5224, 19.2556, 15.9032
23, 1800.00000, 128.251, 128.097, 129.96, 0, 35.8391, 34.3222, 19.4141, 15.7805
23, 2700.00000, 128.447, 128.218, 130.085, 0, 34.2623, 33.5681, 18.5409, 15.4369
24, 0.00000, 128.543, 128.324, 130.134, 0, 33.1291, 32.3184, 17.9005, 14.89
24, 900.00000, 129.422, 128.628, 130.649, 0, 24.5945, 29.806, 12.9931, 14.9052
