hour, t(sec), |V|1 (volts), |V|2 (volts), |V|3 (volts), |V|4 (volts), |I|1 (amps), |I|2 (amps), |I|3 (amps), |I|4 (amps)
0, 900.00000, 126.544, 122.963, 126.794, 0, 128.664, 303.834, 129.607, 175.469
0, 1800.00000, 126.752, 123.402, 126.997, 0, 123.429, 286.834, 124.436, 163.618
0, 2700.00000, 131.783, 128.581, 131.995, 0, 115.923, 271.981, 116.762, 156.273
1, 0.00000, 131.527, 128.531, 131.739, 0, 125.431, 269.832, 126.329, 144.63
1, 900.00000, 131.604, 128.744, 131.815, 0, 123.087, 260.407, 124.049, 137.492
1, 1800.00000, 125.768, 122.89, 126.01, 0, 120.662, 259.972, 121.514, 139.52
1, 2700.00000, 125.694, 122.581, 125.93, 0, 122.571, 274.302, 123.47, 151.945
2, 0.00000, 125.63, 122.704, 125.872, 0, 124.255, 265.651, 125.189, 141.598
2, 900.00000, 125.775, 122.957, 126.014, 0, 120.801, 256.558, 121.695, 135.949
2, 1800.00000, 125.696, 122.796, 125.934, 0, 122.071, 261.918, 123.145, 139.973
2, 2700.00000, 125.87, 123.183, 126.106, 0, 117.517, 246.437, 118.545, 129.021
3, 0.00000, 126.126, 123.642, 126.359, 0, 110.974, 229.768, 111.788, 118.935
3, 900.00000, 126.031, 123.525, 126.265, 0, 111.393, 231.028, 112.513, 119.644
3, 1800.00000, 126.187, 123.7, 126.419, 0, 107.42, 226.526, 108.43, 119.137
3, 2700.00000, 125.839, 123.236, 126.081, 0, 116.231, 240.541, 117.319, 124.378
4, 0.00000, 125.942, 123.352, 126.183, 0, 113.456, 237.312, 114.501, 123.924
4, 900.00000, 126.057, 123.695, 126.301, 0, 110.336, 221.949, 111.222, 111.728
4, 1800.00000, 125.787, 123.147, 126.041, 0, 116.816, 242.26, 117.813, 125.581
4, 2700.00000, 126.095, 123.607, 126.334, 0, 109.609, 227.868, 110.584, 118.335
5, 0.00000, 125.913, 123.424, 126.156, 0, 114.502, 232.053, 115.647, 117.587
5, 900.00000, 126.013, 123.367, 126.254, 0, 111.353, 237.848, 112.431, 126.546
5, 1800.00000, 125.874, 123.455, 126.117, 0, 116.472, 230.569, 117.464, 114.203
5, 2700.00000, 125.952, 123.414, 126.189, 0, 113.455, 233.976, 114.612, 120.54
6, 0.00000, 126.247, 123.612, 126.474, 0, 105.306, 231.643, 106.496, 126.292
6, 900.00000, 126.024, 123.178, 126.273, 0, 110.035, 246.236, 111.225, 136.229
6, 1800.00000, 125.965, 123.45, 126.229, 0, 113.72, 230.833, 114.657, 117.285
6, 2700.00000, 126.241, 123.78, 126.505, 0, 103.958, 218.552, 104.955, 114.679
7, 0.00000, 126.068, 123.505, 126.346, 0, 105.657, 224.324, 106.859, 118.701
7, 900.00000, 126.074, 123.059, 126.348, 0, 104.726, 247.375, 105.856, 142.741
7, 1800.00000, 126.364, 124.02, 126.635, 0, 97.502, 204.268, 98.6517, 106.765
7, 2700.00000, 126.446, 124.022, 126.715, 0, 94.3868, 205.712, 95.6145, 111.271
8, 0.00000, 126.266, 123.521, 126.535, 0, 98.9995, 226.899, 100.272, 127.878
8, 900.00000, 126.511, 124.385, 126.784, 0, 93.2284, 187.847, 94.4885, 94.5374
8, 1800.00000, 126.439, 124.26, 126.719, 0, 93.3268, 190.661, 94.5693, 97.2702
8, 2700.00000, 125.505, 122.907, 125.799, 0, 98.8388, 218.09, 100.08, 119.259
9, 0.00000, 125.153, 122.745, 125.444, 0, 111.063, 218.985, 112.323, 107.996
9, 900.00000, 125.287, 122.87, 125.581, 0, 105.313, 214.467, 106.59, 109.178
9, 1800.00000, 126.14, 123.902, 126.426, 0, 98.6805, 197.997, 100.066, 99.2391
9, 2700.00000, 126.309, 124.563, 126.59, 0, 97.0119, 169.908, 98.2758, 72.8352
10, 0.00000, 126.33, 124.649, 126.606, 0, 95.729, 165.415, 97.1851, 69.5187
10, 900.00000, 126.167, 124.188, 126.446, 0, 99.8305, 185.412, 101.128, 85.5303
10, 1800.00000, 126.272, 124.229, 126.55, 0, 97.7961, 187.385, 99.0948, 89.5215
10, 2700.00000, 127.918, 125.906, 128.199, 0, 102.158, 188.646, 103.69, 86.3545
11, 0.00000, 126.112, 123.763, 126.401, 0, 100.037, 205.801, 101.443, 105.687
11, 900.00000, 126.283, 124.229, 126.56, 0, 97.5783, 187.846, 98.8207, 90.2233
11, 1800.00000, 124.077, 122.067, 124.366, 0, 101.937, 190.084, 103.388, 88.0336
11, 2700.00000, 124.223, 122.078, 124.5, 0, 99.3937, 195.508, 100.871, 95.9645
12, 0.00000, 124.362, 122.203, 124.639, 0, 97.6998, 195.133, 98.8554, 97.4161
12, 900.00000, 123.96, 121.672, 124.252, 0, 106.184, 209.179, 107.557, 102.961
12, 1800.00000, 124.036, 121.478, 124.326, 0, 104.071, 221.839, 105.419, 117.744
12, 2700.00000, 123.795, 121.713, 124.092, 0, 103.101, 195.483, 104.455, 92.3239
13, 0.00000, 123.936, 121.605, 124.229, 0, 99.2652, 204.678, 100.715, 105.306
13, 900.00000, 123.771, 121.399, 124.071, 0, 103.438, 210.647, 104.856, 107.152
13, 1800.00000, 123.16, 120.864, 123.461, 0, 109.752, 212.825, 111.044, 103.108
13, 2700.00000, 122.63, 119.824, 122.964, 0, 121.798, 251.384, 123.105, 129.748
14, 0.00000, 122.808, 120.116, 123.141, 0, 117.085, 240.657, 118.359, 123.713
14, 900.00000, 122.942, 120.453, 123.272, 0, 112.494, 225.32, 113.87, 112.878
14, 1800.00000, 123.086, 120.815, 123.406, 0, 111.434, 212.83, 112.69, 101.475
14, 2700.00000, 118.59, 116.624, 118.888, 0, 111.618, 200.357, 113.205, 88.476
15, 0.00000, 125.69, 123.769, 125.992, 0, 113.362, 193.904, 114.71, 80.5849
15, 900.00000, 125.899, 124.023, 126.196, 0, 108.201, 187.094, 109.592, 78.8684
15, 1800.00000, 125.717, 123.712, 126.016, 0, 112.811, 198.405, 114.231, 85.5949
15, 2700.00000, 125.745, 123.624, 126.044, 0, 113.531, 206.056, 114.637, 92.6724
16, 0.00000, 125.619, 123.546, 125.922, 0, 116.107, 205.518, 117.374, 89.5072
16, 900.00000, 125.639, 123.851, 125.942, 0, 116.002, 190.252, 117.389, 74.2708
16, 1800.00000, 125.715, 123.701, 126.01, 0, 112.217, 199.189, 113.722, 86.9148
16, 2700.00000, 125.889, 123.744, 126.181, 0, 107.138, 201.526, 108.51, 94.3628
17, 0.00000, 125.682, 123.408, 125.976, 0, 113.702, 214.766, 115.045, 101.104
17, 900.00000, 125.744, 123.362, 126.017, 0, 112.102, 220.628, 113.356, 108.565
17, 1800.00000, 127.337, 124.669, 127.584, 0, 115.008, 239.132, 116.289, 124.163
17, 2700.00000, 127.332, 124.917, 127.573, 0, 115.15, 226.037, 116.433, 110.899
18, 0.00000, 127.378, 124.54, 127.609, 0, 114.481, 249.152, 115.727, 134.702
18, 900.00000, 126.884, 123.832, 127.125, 0, 125.824, 271.522, 127.036, 145.833
18, 1800.00000, 126.741, 123.733, 126.981, 0, 133.531, 276.693, 134.521, 143.439
18, 2700.00000, 131.011, 128.044, 131.218, 0, 133.354, 273.651, 134.46, 140.508
19, 0.00000, 130.929, 127.57, 131.141, 0, 131.813, 293.45, 133.108, 161.786
19, 900.00000, 131.006, 127.895, 131.216, 0, 130.945, 279.665, 132.122, 148.889
19, 1800.00000, 130.419, 127.351, 130.634, 0, 136.367, 282.563, 137.426, 146.45
19, 2700.00000, 130.191, 127.202, 130.432, 0, 142.849, 284.1, 143.813, 141.609
20, 0.00000, 130.285, 127.188, 130.508, 0, 141.797, 289.172, 142.923, 147.644
20, 900.00000, 124.559, 121.567, 124.852, 0, 143.249, 285.143, 144.42, 142.192
20, 1800.00000, 124.718, 121.238, 124.985, 0, 142.693, 311.166, 143.779, 168.812
20, 2700.00000, 124.356, 121.248, 124.635, 0, 147.139, 295.267, 148.165, 148.508
21, 0.00000, 124.123, 120.819, 124.41, 0, 153.674, 310.739, 154.551, 157.606
21, 900.00000, 124.506, 121.129, 124.781, 0, 141.509, 303.744, 142.691, 162.537
21, 1800.00000, 120.756, 117.358, 121.033, 0, 139.035, 305.995, 140.188, 167.157
21, 2700.00000, 120.783, 117.862, 121.064, 0, 137.595, 278.918, 138.73, 141.5
22, 0.00000, 120.996, 118.031, 121.264, 0, 132.813, 276.657, 133.987, 143.968
22, 900.00000, 120.874, 117.553, 121.138, 0, 136.954, 300.035, 138.082, 163.261
22, 1800.00000, 120.824, 117.564, 121.085, 0, 138.681, 298.523, 139.911, 159.976
22, 2700.00000, 122.422, 119.063, 122.693, 0, 135.668, 299.508, 136.701, 164.104
23, 0.00000, 122.37, 119.121, 122.654, 0, 135.561, 293.002, 136.747, 157.646
23, 900.00000, 122.495, 119.416, 122.771, 0, 136.223, 284.747, 137.171, 148.822
23, 1800.00000, 126.258, 122.667, 126.519, 0, 136.617, 310.899, 137.677, 174.608
23, 2700.00000, 126.389, 123.346, 126.644, 0, 133.872, 278.944, 134.978, 145.312
24, 0.00000, 126.385, 123.216, 126.643, 0, 132.099, 283.899, 133.332, 151.985
24, 900.00000, 126.545, 122.964, 126.794, 0, 128.663, 303.83, 129.606, 175.467
