hour, t(sec), |V|1 (volts), |V|2 (volts), |V|3 (volts), |V|4 (volts), |I|1 (amps), |I|2 (amps), |I|3 (amps), |I|4 (amps)
0, 900.00000, 72.8539, 72.7181, 72.9496, 0, 1.28622E-012, 1.81899E-012, 0, 9.09495E-013
0, 1800.00000, 72.8935, 72.7605, 72.9882, 0, 0, 4.54747E-013, 1.94268E-012, 2.03369E-012
0, 2700.00000, 74.1641, 74.0236, 74.2519, 0, 1.81899E-012, 4.54747E-013, 1.13687E-012, 4.54747E-013
1, 0.00000, 74.1309, 73.9914, 74.2194, 0, 9.09495E-013, 4.54747E-013, 1.13687E-012, 2.27374E-012
1, 900.00000, 74.145, 74.0075, 74.2331, 0, 0, 1.87497E-012, 1.81899E-012, 2.27374E-012
1, 1800.00000, 75.0725, 74.9289, 75.1535, 0, 3.27923E-012, 1.87497E-012, 2.03369E-012, 3.63798E-012
1, 2700.00000, 75.0584, 74.9129, 75.1379, 0, 2.03369E-012, 4.54747E-013, 2.57244E-012, 1.87497E-012
2, 0.00000, 75.0472, 74.9014, 75.1291, 0, 9.09495E-013, 9.09495E-013, 1.36424E-012, 0
2, 900.00000, 75.0755, 74.9302, 75.1561, 0, 2.03369E-012, 9.09495E-013, 1.87497E-012, 2.03369E-012
2, 1800.00000, 75.0576, 74.9097, 75.1387, 0, 2.72848E-012, 3.63798E-012, 2.27374E-012, 3.88536E-012
2, 2700.00000, 75.2603, 75.1149, 75.3396, 0, 1.28622E-012, 2.03369E-012, 4.54747E-013, 1.81899E-012
3, 0.00000, 75.3055, 75.1658, 75.3831, 0, 2.57244E-012, 1.87497E-012, 2.57244E-012, 9.09495E-013
3, 900.00000, 75.2783, 75.1361, 75.3574, 0, 9.09495E-013, 4.54747E-013, 1.36424E-012, 2.27374E-012
3, 1800.00000, 74.6614, 74.5279, 74.7431, 0, 9.09495E-013, 4.54747E-013, 4.54747E-013, 9.09495E-013
3, 2700.00000, 74.5962, 74.4565, 74.6817, 0, 1.81899E-012, 4.54747E-013, 4.54747E-013, 2.57244E-012
4, 0.00000, 74.615, 74.4766, 74.6998, 0, 2.72848E-012, 2.03369E-012, 1.81899E-012, 1.87497E-012
4, 900.00000, 74.6336, 74.4961, 74.7188, 0, 0, 1.87497E-012, 2.03369E-012, 1.81899E-012
4, 1800.00000, 74.5811, 74.4352, 74.67, 0, 1.28622E-012, 4.54747E-013, 1.81899E-012, 3.74994E-012
4, 2700.00000, 74.3424, 74.2053, 74.4281, 0, 1.28622E-012, 1.87497E-012, 0, 1.36424E-012
5, 0.00000, 74.3096, 74.1683, 74.3977, 0, 1.28622E-012, 4.54747E-013, 2.03369E-012, 1.36424E-012
5, 900.00000, 74.3246, 74.1853, 74.4114, 0, 0, 1.36424E-012, 6.82121E-013, 4.54747E-013
5, 1800.00000, 74.049, 73.9135, 74.1376, 0, 0, 1.81899E-012, 2.03369E-012, 3.66629E-012
5, 2700.00000, 74.0595, 73.9225, 74.1471, 0, 2.03369E-012, 2.03369E-012, 2.14504E-012, 1.87497E-012
6, 0.00000, 74.1103, 73.9746, 74.1945, 0, 2.03369E-012, 1.87497E-012, 2.27374E-013, 1.87497E-012
6, 900.00000, 74.0624, 73.9162, 74.154, 0, 9.09495E-013, 1.87497E-012, 4.54747E-013, 4.54747E-013
6, 1800.00000, 74.0599, 73.9077, 74.1561, 0, 2.57244E-012, 2.03369E-012, 1.94268E-012, 1.87497E-012
6, 2700.00000, 74.0386, 73.9314, 74.1376, 0, 1.28622E-012, 1.87497E-012, 1.94268E-012, 1.36424E-012
7, 0.00000, 73.9899, 73.8731, 74.0953, 0, 9.09495E-013, 4.54747E-013, 1.94268E-012, 1.87497E-012
7, 900.00000, 73.9823, 73.8594, 74.0856, 0, 1.81899E-012, 1.81899E-012, 9.09495E-013, 1.36424E-012
7, 1800.00000, 74.616, 74.5378, 74.7202, 0, 9.09495E-013, 0, 0, 9.09495E-013
7, 2700.00000, 74.625, 74.5471, 74.7291, 0, 1.28622E-012, 2.57244E-012, 1.81899E-012, 3.88536E-012
8, 0.00000, 74.5896, 74.5053, 74.6941, 0, 3.27923E-012, 2.03369E-012, 2.27374E-012, 2.03369E-012
8, 900.00000, 74.6375, 74.5575, 74.7437, 0, 2.57244E-012, 2.27374E-012, 2.03369E-012, 1.81899E-012
8, 1800.00000, 74.6121, 74.5309, 74.7207, 0, 1.28622E-012, 3.66629E-012, 3.74994E-012, 2.57244E-012
8, 2700.00000, 74.2045, 74.1561, 74.3199, 0, 1.28622E-012, 3.63798E-012, 2.27374E-013, 2.03369E-012
9, 0.00000, 74.1549, 74.1032, 74.2701, 0, 1.28622E-012, 3.66629E-012, 3.09262E-012, 2.9118E-012
9, 900.00000, 74.1666, 74.1186, 74.2823, 0, 9.09495E-013, 1.36424E-012, 3.97091E-012, 4.29008E-012
9, 1800.00000, 74.7991, 74.8298, 74.9202, 0, 2.03369E-012, 4.54747E-013, 2.27374E-012, 2.27374E-012
9, 2700.00000, 74.8431, 74.8788, 74.9624, 0, 1.81899E-012, 3.74994E-012, 1.87497E-012, 4.09273E-012
10, 0.00000, 74.8433, 74.8819, 74.9621, 0, 0, 0, 1.36424E-012, 2.03369E-012
10, 900.00000, 74.8122, 74.8472, 74.931, 0, 2.57244E-012, 2.03369E-012, 0, 4.09273E-012
10, 1800.00000, 74.8338, 74.8713, 74.9528, 0, 9.09495E-013, 2.03369E-012, 1.36424E-012, 1.36424E-012
10, 2700.00000, 74.9442, 75.0977, 75.0803, 0, 2.03369E-012, 2.03369E-012, 1.87497E-012, 9.09495E-013
11, 0.00000, 74.9548, 75.1074, 75.0895, 0, 1.81899E-012, 1.87497E-012, 3.63798E-012, 3.63798E-012
11, 900.00000, 74.9929, 75.1512, 75.1239, 0, 1.81899E-012, 2.03369E-012, 0, 1.36424E-012
11, 1800.00000, 74.9706, 75.162, 75.106, 0, 2.03369E-012, 1.87497E-012, 9.09495E-013, 2.27374E-012
11, 2700.00000, 75.0027, 75.1979, 75.1345, 0, 1.28622E-012, 1.81899E-012, 1.36424E-012, 1.81899E-012
12, 0.00000, 75.0327, 75.2315, 75.1637, 0, 2.03369E-012, 3.63798E-012, 2.03369E-012, 2.27374E-012
12, 900.00000, 74.9579, 75.1469, 75.0937, 0, 1.28622E-012, 1.81899E-012, 1.81899E-012, 2.27374E-012
12, 1800.00000, 74.969, 75.157, 75.1034, 0, 3.27923E-012, 1.87497E-012, 9.09495E-013, 2.27374E-012
12, 2700.00000, 75.2818, 75.4979, 75.4234, 0, 9.09495E-013, 4.54747E-013, 3.88536E-012, 2.03369E-012
13, 0.00000, 75.3041, 75.5146, 75.4456, 0, 9.09495E-013, 9.09495E-013, 4.54747E-013, 1.81899E-012
13, 900.00000, 75.2746, 75.4823, 75.4175, 0, 2.57244E-012, 2.03369E-012, 4.54747E-013, 2.03369E-012
13, 1800.00000, 75.6371, 75.8452, 75.7812, 0, 3.63798E-012, 9.09495E-013, 1.36424E-012, 1.87497E-012
13, 2700.00000, 75.542, 75.7352, 75.6946, 0, 0, 1.81899E-012, 0, 1.81899E-012
14, 0.00000, 75.5704, 75.7659, 75.7229, 0, 2.03369E-012, 1.87497E-012, 2.03369E-012, 9.09495E-013
14, 900.00000, 75.5877, 75.7868, 75.7401, 0, 1.81899E-012, 1.36424E-012, 2.03369E-012, 1.81899E-012
14, 1800.00000, 75.6247, 75.8292, 75.7748, 0, 1.28622E-012, 2.03369E-012, 9.09495E-013, 1.81899E-012
14, 2700.00000, 76.0444, 76.2582, 76.1945, 0, 1.81899E-012, 1.87497E-012, 1.81899E-012, 2.57244E-012
15, 0.00000, 76.0292, 76.2349, 76.181, 0, 9.09495E-013, 9.09495E-013, 2.03369E-012, 1.81899E-012
15, 900.00000, 76.0666, 76.2777, 76.2185, 0, 9.09495E-013, 9.09495E-013, 2.27374E-012, 4.54747E-013
15, 1800.00000, 76.1828, 76.38, 76.3339, 0, 9.09495E-013, 1.87497E-012, 1.81899E-012, 1.87497E-012
15, 2700.00000, 76.1923, 76.3931, 76.3422, 0, 2.87607E-012, 1.87497E-012, 9.09495E-013, 4.54747E-013
16, 0.00000, 76.1733, 76.3714, 76.3249, 0, 9.09495E-013, 1.87497E-012, 0, 3.66629E-012
16, 900.00000, 76.1816, 76.3837, 76.3342, 0, 1.28622E-012, 4.54747E-013, 2.57244E-012, 2.57244E-012
16, 1800.00000, 76.1833, 76.3876, 76.3338, 0, 2.03369E-012, 9.09495E-013, 1.87497E-012, 4.54747E-013
16, 2700.00000, 75.5143, 75.6378, 75.6487, 0, 2.03369E-012, 1.81899E-012, 4.54747E-013, 4.09273E-012
17, 0.00000, 75.4854, 75.6068, 75.6201, 0, 2.03369E-012, 9.09495E-013, 1.87497E-012, 0
17, 900.00000, 75.4945, 75.6281, 75.6217, 0, 9.09495E-013, 0, 1.87497E-012, 4.54747E-013
17, 1800.00000, 74.3625, 74.3751, 74.4692, 0, 2.87607E-012, 2.27374E-012, 2.03369E-012, 1.87497E-012
17, 2700.00000, 74.3636, 74.3811, 74.4678, 0, 0, 9.09495E-013, 1.83315E-012, 4.54747E-013
18, 0.00000, 74.3788, 74.3996, 74.4789, 0, 2.03369E-012, 1.87497E-012, 1.87497E-012, 2.03369E-012
18, 900.00000, 74.2878, 74.3075, 74.3903, 0, 2.03369E-012, 1.87497E-012, 6.82121E-013, 2.03369E-012
18, 1800.00000, 74.2867, 74.3069, 74.3874, 0, 2.03369E-012, 1.87497E-012, 6.82121E-013, 2.9118E-012
18, 2700.00000, 73.3894, 73.2864, 73.4838, 0, 1.81899E-012, 1.36424E-012, 2.14504E-012, 1.87497E-012
19, 0.00000, 73.354, 73.2502, 73.4512, 0, 0, 9.09495E-013, 1.87497E-012, 4.54747E-013
19, 900.00000, 73.3759, 73.2755, 73.4709, 0, 9.09495E-013, 2.03369E-012, 4.54747E-013, 2.03369E-012
19, 1800.00000, 72.9063, 72.7695, 73.001, 0, 1.28622E-012, 1.87497E-012, 2.03369E-012, 2.03369E-012
19, 2700.00000, 72.8683, 72.7307, 72.9708, 0, 1.28622E-012, 3.63798E-012, 2.27374E-012, 1.87497E-012
20, 0.00000, 72.8943, 72.7566, 72.9922, 0, 1.28622E-012, 1.87497E-012, 2.14504E-012, 1.81899E-012
20, 900.00000, 72.845, 72.7066, 72.9536, 0, 2.03369E-012, 1.36424E-012, 6.82121E-013, 1.87497E-012
20, 1800.00000, 74.2918, 74.1364, 74.3867, 0, 1.28622E-012, 1.81899E-012, 1.87497E-012, 3.66629E-012
20, 2700.00000, 74.2765, 74.1204, 74.3749, 0, 0, 0, 2.27374E-013, 2.27374E-012
21, 0.00000, 74.2337, 74.0676, 74.3337, 0, 1.81899E-012, 1.36424E-012, 1.36424E-012, 1.36424E-012
21, 900.00000, 74.2888, 74.1283, 74.3869, 0, 9.09495E-013, 2.03369E-012, 6.82121E-013, 3.66629E-012
21, 1800.00000, 74.3016, 74.1396, 74.3979, 0, 2.57244E-012, 1.87497E-012, 2.57244E-012, 0
21, 2700.00000, 74.3018, 74.1431, 74.3995, 0, 9.09495E-013, 2.03369E-012, 3.64508E-012, 1.81899E-012
22, 0.00000, 74.3475, 74.1904, 74.4399, 0, 9.09495E-013, 2.27374E-012, 1.59162E-012, 9.09495E-013
22, 900.00000, 74.33, 74.1714, 74.4209, 0, 9.09495E-013, 4.54747E-013, 1.83315E-012, 2.03369E-012
22, 1800.00000, 74.3238, 74.1664, 74.4147, 0, 0, 4.54747E-013, 2.14504E-012, 1.81899E-012
22, 2700.00000, 74.3615, 74.2052, 74.4531, 0, 1.81899E-012, 4.54747E-013, 3.70138E-012, 1.87497E-012
23, 0.00000, 74.3455, 74.1855, 74.4426, 0, 2.87607E-012, 4.54747E-013, 1.94268E-012, 1.87497E-012
23, 900.00000, 74.3912, 74.2357, 74.484, 0, 0, 2.03369E-012, 1.13687E-012, 1.87497E-012
23, 1800.00000, 74.3717, 74.2125, 74.4663, 0, 9.09495E-013, 1.87497E-012, 1.94268E-012, 1.81899E-012
23, 2700.00000, 74.3997, 74.2435, 74.4931, 0, 2.03369E-012, 1.81899E-012, 6.82121E-013, 1.87497E-012
24, 0.00000, 74.3898, 74.2327, 74.4847, 0, 9.09495E-013, 1.36424E-012, 3.81148E-012, 0
24, 900.00000, 74.4232, 74.2711, 74.5126, 0, 0, 3.74994E-012, 1.83315E-012, 3.27923E-012
