hour, t(sec), |V|1 (volts), |V|2 (volts), |V|3 (volts), |V|4 (volts), |I|1 (amps), |I|2 (amps), |I|3 (amps), |I|4 (amps)
0, 900.00000, 121.177, 121.422, 125.84, 0, 267.822, 230.545, 37.0264, 216.978
0, 1800.00000, 121.718, 121.79, 126.082, 0, 248.332, 220.785, 32.7332, 205.167
0, 2700.00000, 122.082, 122.151, 126.133, 0, 230.632, 203.923, 31.0692, 189.365
1, 0.00000, 121.725, 121.819, 126.018, 0, 242.288, 214.557, 29.9146, 201.829
1, 900.00000, 121.846, 121.931, 126.087, 0, 238.778, 211.8, 29.0222, 199.472
1, 1800.00000, 122.153, 122.224, 126.201, 0, 228.518, 202.513, 28.433, 190.113
1, 2700.00000, 122.044, 122.033, 126.103, 0, 231.067, 209.129, 30.4213, 192.228
2, 0.00000, 121.956, 121.965, 126.078, 0, 232.885, 209.773, 29.3649, 194.671
2, 900.00000, 122.181, 122.193, 126.218, 0, 227.703, 204.666, 28.0746, 190.769
2, 1800.00000, 121.892, 121.901, 126.102, 0, 238.228, 214.97, 29.6758, 199.66
2, 2700.00000, 122.295, 122.336, 126.344, 0, 228.523, 204.053, 27.9922, 191.122
3, 0.00000, 122.727, 122.773, 126.58, 0, 216.787, 193.094, 26.0015, 181.607
3, 900.00000, 122.277, 122.356, 126.417, 0, 232.901, 206.98, 27.3167, 195.635
3, 1800.00000, 122.798, 122.803, 126.59, 0, 213.696, 192.192, 26.3308, 179.019
3, 2700.00000, 122.188, 122.207, 126.3, 0, 230.671, 207.376, 27.3725, 194.362
4, 0.00000, 122.342, 122.377, 126.381, 0, 226.729, 202.803, 27.1376, 190.393
4, 900.00000, 122.509, 122.591, 126.49, 0, 222.736, 196.49, 25.9464, 186.703
4, 1800.00000, 122.141, 122.153, 126.245, 0, 230.268, 206.455, 28.0628, 193.095
4, 2700.00000, 122.659, 122.698, 126.544, 0, 218.423, 193.985, 26.4525, 182.54
5, 0.00000, 122.224, 122.308, 126.382, 0, 233.929, 206.614, 27.9841, 195.505
5, 900.00000, 122.557, 122.531, 126.449, 0, 219.867, 198.616, 28.0142, 183.657
5, 1800.00000, 122.554, 122.579, 126.526, 0, 221.643, 197.709, 25.3536, 187.067
5, 2700.00000, 122.365, 122.47, 126.495, 0, 232.994, 204.62, 28.1843, 193.968
6, 0.00000, 122.837, 122.859, 126.716, 0, 219.902, 196.193, 27.5298, 183.2
6, 900.00000, 122.448, 122.456, 126.514, 0, 229.595, 205.072, 28.8738, 191.327
6, 1800.00000, 122.385, 122.497, 126.572, 0, 234.41, 203.739, 27.3659, 195.417
6, 2700.00000, 122.733, 122.775, 126.752, 0, 224.671, 198.023, 26.4242, 188.048
7, 0.00000, 122.081, 122.318, 126.476, 0, 247.675, 208.938, 30.8804, 202.479
7, 900.00000, 122.25, 122.295, 126.467, 0, 238.115, 208.598, 30.4307, 196.523
7, 1800.00000, 122.66, 122.728, 126.691, 0, 226.058, 196.296, 27.4901, 187.267
7, 2700.00000, 122.822, 122.852, 126.731, 0, 219.697, 191.888, 27.534, 181.552
8, 0.00000, 122.509, 122.569, 126.542, 0, 229.137, 198.685, 30.7954, 186.823
8, 900.00000, 123.06, 123.072, 126.87, 0, 211.495, 184.45, 24.4383, 176.698
8, 1800.00000, 122.879, 122.872, 126.763, 0, 215.36, 189.256, 25.0576, 180.314
8, 2700.00000, 122.488, 122.428, 126.455, 0, 220.979, 196.404, 27.3727, 184.241
9, 0.00000, 122.174, 122.108, 126.29, 0, 228.312, 203.42, 26.573, 192.275
9, 900.00000, 122.416, 122.298, 126.346, 0, 217.805, 196.335, 26.346, 183.268
9, 1800.00000, 122.123, 122.292, 126.297, 0, 233.829, 196.869, 29.2049, 190.929
9, 2700.00000, 122.754, 122.738, 126.624, 0, 211.756, 185.653, 21.9447, 179.806
10, 0.00000, 122.425, 122.645, 126.558, 0, 228.879, 190.458, 24.9879, 189.663
10, 900.00000, 122.462, 122.51, 126.439, 0, 219.755, 189.897, 24.6668, 183.764
10, 1800.00000, 122.819, 122.838, 126.57, 0, 206.963, 179.03, 23.8066, 172.5
10, 2700.00000, 122.331, 122.384, 126.375, 0, 221.964, 191.581, 24.6466, 185.851
11, 0.00000, 122.557, 122.545, 126.421, 0, 213.616, 186.651, 25.6981, 177.657
11, 900.00000, 122.681, 122.866, 126.564, 0, 217.537, 180.882, 27.2363, 176.709
11, 1800.00000, 122.207, 122.232, 126.305, 0, 225.188, 196.798, 24.2794, 190.131
11, 2700.00000, 122.266, 122.37, 126.405, 0, 229.514, 197.467, 25.492, 191.926
12, 0.00000, 122.926, 122.931, 126.609, 0, 204.382, 178.182, 24.2483, 170.075
12, 900.00000, 122.103, 122.139, 126.21, 0, 227.43, 197.985, 26.5176, 189.782
12, 1800.00000, 121.979, 122.106, 126.199, 0, 237.343, 203.08, 30.207, 194.337
12, 2700.00000, 122.021, 122.199, 126.275, 0, 235.113, 198.821, 26.2608, 195.356
13, 0.00000, 122.252, 122.357, 126.352, 0, 229.143, 196.014, 28.3826, 188.345
13, 900.00000, 122.05, 122.135, 126.237, 0, 233.065, 200.61, 28.1583, 192.738
13, 1800.00000, 122.083, 122.13, 126.234, 0, 229.706, 199.227, 26.2202, 191.986
13, 2700.00000, 121.35, 121.379, 125.752, 0, 243.895, 212.477, 30.2509, 201.957
14, 0.00000, 121.748, 121.733, 125.915, 0, 230.563, 201.807, 29.0885, 190.694
14, 900.00000, 121.748, 121.827, 125.992, 0, 234.219, 200.979, 28.4234, 193.43
14, 1800.00000, 122.094, 122.177, 126.201, 0, 225.907, 193.225, 26.1338, 187.548
14, 2700.00000, 122.107, 122.204, 126.265, 0, 227.792, 194.803, 24.2213, 191.196
15, 0.00000, 121.86, 121.948, 126.194, 0, 236.248, 202.745, 23.5894, 200.12
15, 900.00000, 122.198, 122.291, 126.368, 0, 227.456, 194.354, 23.1739, 191.864
15, 1800.00000, 121.779, 121.943, 126.246, 0, 244.99, 207.904, 25.2711, 205.967
15, 2700.00000, 122.131, 122.298, 126.328, 0, 230.761, 193.988, 25.079, 192.036
16, 0.00000, 121.803, 121.942, 126.186, 0, 240.579, 204.946, 25.7241, 201.607
16, 900.00000, 121.741, 121.909, 126.239, 0, 244.72, 208.2, 23.6343, 207.524
16, 1800.00000, 121.725, 121.894, 126.191, 0, 246.314, 209.898, 26.846, 205.95
16, 2700.00000, 122.172, 122.309, 126.411, 0, 234.074, 199.214, 26.1451, 194.92
17, 0.00000, 121.776, 121.998, 126.232, 0, 248.198, 208.673, 29.1364, 204.518
17, 900.00000, 121.826, 122.21, 126.205, 0, 248.395, 201.439, 32.3939, 199.147
17, 1800.00000, 122.084, 122.098, 126.249, 0, 233.857, 206.795, 28.4249, 195.132
17, 2700.00000, 121.963, 122.058, 126.242, 0, 239.42, 208.703, 27.3556, 200.426
18, 0.00000, 121.93, 122.095, 126.223, 0, 243.115, 209.027, 30.0058, 200.29
18, 900.00000, 120.905, 121.283, 125.685, 0, 272.221, 226.248, 35.1784, 220.385
18, 1800.00000, 120.77, 121.22, 125.663, 0, 279.399, 230.029, 35.9066, 225.751
18, 2700.00000, 120.158, 120.937, 125.473, 0, 306.689, 239.349, 40.7566, 242.704
19, 0.00000, 119.914, 120.587, 125.259, 0, 309.693, 247.517, 43.5242, 244.243
19, 900.00000, 120.281, 120.828, 125.447, 0, 295.275, 240.552, 37.8006, 237.852
19, 1800.00000, 120.017, 120.629, 125.334, 0, 304.798, 246.661, 39.4204, 244.58
19, 2700.00000, 119.925, 120.571, 125.227, 0, 301.365, 241.24, 38.49, 241.588
20, 0.00000, 120.348, 120.774, 125.383, 0, 285.211, 236.685, 35.4048, 232.147
20, 900.00000, 119.823, 120.444, 125.113, 0, 301, 242.136, 40.333, 239.837
20, 1800.00000, 120.418, 120.728, 125.369, 0, 281.097, 238.997, 36.5411, 229.032
20, 2700.00000, 120.205, 120.502, 125.28, 0, 285.256, 243.957, 34.4828, 235.497
21, 0.00000, 119.94, 120.278, 125.103, 0, 291.206, 246.128, 35.9763, 238.714
21, 900.00000, 120.388, 120.644, 125.337, 0, 280.381, 240.55, 36.4143, 229.216
21, 1800.00000, 120.573, 120.726, 125.372, 0, 272.227, 237.853, 35.8164, 223.617
21, 2700.00000, 120.545, 120.699, 125.418, 0, 273.342, 239.471, 33.0219, 227.686
22, 0.00000, 120.855, 121.01, 125.595, 0, 267.479, 233.819, 32.9808, 221.949
22, 900.00000, 120.781, 120.902, 125.492, 0, 267.475, 235.194, 34.6795, 220.748
22, 1800.00000, 120.611, 120.788, 125.454, 0, 274.726, 239.57, 34.8673, 226.774
22, 2700.00000, 121.19, 121.327, 125.674, 0, 254.794, 221.99, 33.7739, 208.745
23, 0.00000, 120.904, 121.062, 125.595, 0, 264.799, 230.499, 33.9823, 218.078
23, 900.00000, 121.446, 121.508, 125.844, 0, 247.812, 219.354, 31.1268, 205.946
23, 1800.00000, 121.246, 121.31, 125.715, 0, 254.424, 225.368, 34.839, 208.682
23, 2700.00000, 121.318, 121.433, 125.861, 0, 256.614, 225.313, 32.2495, 212.618
24, 0.00000, 121.216, 121.3, 125.795, 0, 258.474, 228.68, 32.8588, 214.446
24, 900.00000, 121.176, 121.421, 125.84, 0, 267.833, 230.554, 37.0268, 216.989
