hour, t(sec), |V|1 (volts), |V|2 (volts), |V|3 (volts), |V|4 (volts), |I|1 (amps), |I|2 (amps), |I|3 (amps), |I|4 (amps)
0, 900.00000, 126.827, 127.292, 127.124, 0, 27.9549, 2.27374E-013, 27.9449, 27.8091
0, 1800.00000, 126.916, 127.419, 127.207, 0, 28.885, 9.09495E-013, 28.8749, 28.7378
0, 2700.00000, 126.618, 127.177, 126.903, 0, 30.2298, 6.4311E-013, 30.2192, 30.0798
1, 0.00000, 126.516, 127.084, 126.803, 0, 30.4022, 6.4311E-013, 30.3914, 30.2517
1, 900.00000, 126.541, 127.131, 126.826, 0, 30.8949, 4.54747E-013, 30.884, 30.7437
1, 1800.00000, 126.579, 127.165, 126.858, 0, 30.6195, 4.54747E-013, 30.609, 30.4725
1, 2700.00000, 126.585, 127.118, 126.859, 0, 29.1251, 9.09495E-013, 29.1153, 28.9846
2, 0.00000, 126.54, 127.082, 126.821, 0, 29.4274, 1.01685E-012, 29.4173, 29.2839
2, 900.00000, 126.618, 127.17, 126.895, 0, 29.6709, 5.08423E-013, 29.6608, 29.5277
2, 1800.00000, 126.594, 127.106, 126.874, 0, 28.601, 2.27374E-013, 28.5912, 28.4609
2, 2700.00000, 126.676, 127.22, 126.951, 0, 29.3097, 4.54747E-013, 29.2998, 29.1696
3, 0.00000, 126.813, 127.378, 127.083, 0, 29.4403, 4.54747E-013, 29.4307, 29.3047
3, 900.00000, 126.757, 127.283, 127.032, 0, 28.411, 9.09495E-013, 28.4015, 28.2775
3, 1800.00000, 127.061, 127.65, 127.33, 0, 30.2662, 4.54747E-013, 30.2564, 30.1271
3, 2700.00000, 126.863, 127.438, 127.145, 0, 30.3219, 4.54747E-013, 30.3116, 30.1756
4, 0.00000, 126.944, 127.496, 127.224, 0, 29.4672, 5.08423E-013, 29.4572, 29.3263
4, 900.00000, 127.025, 127.56, 127.305, 0, 28.8194, 1.01685E-012, 28.8097, 28.6826
4, 1800.00000, 126.819, 127.38, 127.112, 0, 30.3607, 4.54747E-013, 30.35, 30.2084
4, 2700.00000, 127.341, 127.817, 127.616, 0, 27.1788, 2.27374E-013, 27.1701, 27.0496
5, 0.00000, 127.246, 127.711, 127.528, 0, 27.1426, 2.27374E-013, 27.1336, 27.0098
5, 900.00000, 127.257, 127.759, 127.535, 0, 28.2293, 9.09495E-013, 28.22, 28.0929
5, 1800.00000, 127.233, 127.729, 127.513, 0, 27.8765, 8.19807E-013, 27.8673, 27.7424
5, 2700.00000, 127.35, 127.751, 127.627, 0, 24.9489, 0, 24.9407, 24.8286
6, 0.00000, 127.578, 127.907, 127.843, 0, 22.5416, 5.08423E-013, 22.5347, 22.4355
6, 900.00000, 127.404, 127.737, 127.692, 0, 23.588, 9.37486E-013, 23.5801, 23.468
6, 1800.00000, 127.442, 127.731, 127.742, 0, 22.5529, 5.08423E-013, 22.545, 22.4341
6, 2700.00000, 127.766, 128.143, 128.068, 0, 21.572, 4.54747E-013, 21.5646, 21.4783
7, 0.00000, 127.65, 127.975, 127.972, 0, 20.6925, 0, 20.6849, 20.5956
7, 900.00000, 127.754, 127.947, 128.069, 0, 17.0163, 5.08423E-013, 17.0102, 16.935
7, 1800.00000, 128.065, 128.323, 128.381, 0, 14.7864, 2.27374E-013, 14.7812, 14.7314
7, 2700.00000, 128.139, 128.351, 128.453, 0, 13.3309, 2.27374E-013, 13.3262, 13.2815
8, 0.00000, 128.077, 128.235, 128.392, 0, 12.1656, 0, 12.1614, 12.1187
8, 900.00000, 128.209, 128.393, 128.526, 0, 12.505, 5.08423E-013, 12.5006, 12.458
8, 1800.00000, 128.083, 128.319, 128.408, 0, 14.3138, 5.08423E-013, 14.3087, 14.2588
8, 2700.00000, 128.066, 128.344, 128.405, 0, 13.1371, 8.19807E-013, 13.1321, 13.0934
9, 0.00000, 128.019, 128.203, 128.355, 0, 10.3615, 5.08423E-013, 10.3576, 10.3265
9, 900.00000, 127.93, 128.244, 128.268, 0, 14.2741, 1.38306E-012, 14.2687, 14.2267
9, 1800.00000, 128.447, 128.887, 128.793, 0, 11.3236, 0, 11.3193, 11.3047
9, 2700.00000, 128.607, 129.039, 128.944, 0, 10.5803, 2.27374E-013, 10.5764, 10.5645
10, 0.00000, 128.644, 129.046, 128.98, 0, 9.31493, 5.08423E-013, 9.31158, 9.30176
10, 900.00000, 128.552, 128.945, 128.888, 0, 9.42751, 0, 9.42418, 9.41335
10, 1800.00000, 128.626, 129.02, 128.96, 0, 9.24084, 4.54747E-013, 9.23752, 9.22745
10, 2700.00000, 128.963, 129.788, 129.332, 0, 13.3333, 2.27374E-013, 13.3282, 13.3425
11, 0.00000, 128.995, 129.823, 129.359, 0, 13.5192, 4.54747E-013, 13.514, 13.5285
11, 900.00000, 129.253, 129.959, 129.605, 0, 9.00917, 5.08423E-013, 9.00591, 9.01733
11, 1800.00000, 129.113, 130.037, 129.477, 0, 13.3212, 5.08423E-013, 13.3162, 13.341
11, 2700.00000, 129.365, 130.139, 129.717, 0, 8.16779, 5.08423E-013, 8.16483, 8.18114
12, 0.00000, 129.385, 130.248, 129.734, 0, 10.7344, 2.27374E-013, 10.7306, 10.753
12, 900.00000, 129.171, 129.991, 129.535, 0, 10.2118, 4.54747E-013, 10.2079, 10.2262
12, 1800.00000, 129.186, 130.023, 129.548, 0, 10.842, 2.27374E-013, 10.8379, 10.8573
12, 2700.00000, 129.237, 130.157, 129.609, 0, 11.1636, 9.37486E-013, 11.1594, 11.185
13, 0.00000, 129.323, 130.208, 129.695, 0, 10.4839, 5.08423E-013, 10.4799, 10.5029
13, 900.00000, 129.223, 130.118, 129.6, 0, 11.0353, 5.08423E-013, 11.0311, 11.0543
13, 1800.00000, 129.186, 130.056, 129.557, 0, 10.2668, 9.37486E-013, 10.2629, 10.2847
13, 2700.00000, 128.737, 129.725, 129.138, 0, 15.3264, 0, 15.3198, 15.3454
14, 0.00000, 128.722, 129.818, 129.122, 0, 18.615, 5.08423E-013, 18.607, 18.639
14, 900.00000, 128.746, 129.876, 129.146, 0, 19.3885, 9.37486E-013, 19.3802, 19.415
14, 1800.00000, 129.005, 130.006, 129.394, 0, 14.7758, 2.27374E-013, 14.7697, 14.7987
14, 2700.00000, 129.227, 130.148, 129.606, 0, 11.4362, 5.08423E-013, 11.4318, 11.4569
15, 0.00000, 129.188, 130.081, 129.575, 0, 11.085, 0, 11.0806, 11.103
15, 900.00000, 129.325, 130.203, 129.709, 0, 10.2038, 5.08423E-013, 10.1998, 10.2215
15, 1800.00000, 129.255, 130.108, 129.64, 0, 10.4884, 4.54747E-013, 10.4842, 10.5037
15, 2700.00000, 129.249, 130.153, 129.629, 0, 11.8823, 2.27374E-013, 11.8776, 11.9008
16, 0.00000, 129.157, 130.072, 129.543, 0, 12.4879, 2.27374E-013, 12.483, 12.5062
16, 900.00000, 129.193, 130.101, 129.581, 0, 11.8863, 6.4311E-013, 11.8816, 11.9046
16, 1800.00000, 129.243, 130.113, 129.625, 0, 10.5223, 5.08423E-013, 10.5182, 10.5393
16, 2700.00000, 129.046, 129.682, 129.41, 0, 9.67117, 9.09495E-013, 9.66751, 9.67247
17, 0.00000, 128.917, 129.591, 129.283, 0, 11.0852, 9.37486E-013, 11.0809, 11.086
17, 900.00000, 128.993, 129.65, 129.337, 0, 9.60442, 5.08423E-013, 9.60092, 9.60861
17, 1800.00000, 128.379, 128.721, 128.689, 0, 9.99938, 4.54747E-013, 9.99604, 9.98072
17, 2700.00000, 128.307, 128.731, 128.612, 0, 12.1742, 5.08423E-013, 12.1701, 12.1532
18, 0.00000, 128.372, 128.771, 128.667, 0, 11.1554, 0, 11.1518, 11.1375
18, 900.00000, 127.987, 128.476, 128.293, 0, 14.2501, 4.54747E-013, 14.2452, 14.2254
18, 1800.00000, 127.922, 128.473, 128.224, 0, 16.1196, 5.08423E-013, 16.1141, 16.0926
18, 2700.00000, 127.251, 127.377, 127.544, 0, 13.5071, 4.54747E-013, 13.5025, 13.4488
19, 0.00000, 127.065, 127.257, 127.368, 0, 15.8187, 4.54747E-013, 15.813, 15.7484
19, 900.00000, 127.03, 127.333, 127.326, 0, 19.0424, 9.09495E-013, 19.0356, 18.9603
19, 1800.00000, 126.829, 126.972, 127.125, 0, 17.6296, 5.08423E-013, 17.6233, 17.5374
19, 2700.00000, 126.481, 126.85, 126.803, 0, 24.9796, 0, 24.9696, 24.8436
20, 0.00000, 126.637, 126.928, 126.942, 0, 22.5307, 0, 22.5222, 22.4105
20, 900.00000, 126.113, 126.767, 126.453, 0, 34.2687, 5.08423E-013, 34.254, 34.076
20, 1800.00000, 126.516, 126.917, 126.828, 0, 26.1643, 2.27374E-013, 26.1542, 26.0228
20, 2700.00000, 126.415, 126.859, 126.736, 0, 27.5318, 5.08423E-013, 27.5208, 27.3809
21, 0.00000, 126.188, 126.714, 126.517, 0, 30.9767, 2.27374E-013, 30.9638, 30.7989
21, 900.00000, 126.523, 126.895, 126.843, 0, 25.6493, 5.08423E-013, 25.6392, 25.5064
21, 1800.00000, 126.55, 126.951, 126.864, 0, 26.7413, 4.54747E-013, 26.7309, 26.5925
21, 2700.00000, 126.527, 126.963, 126.846, 0, 27.4854, 0, 27.4746, 27.334
22, 0.00000, 126.749, 127.102, 127.051, 0, 24.7529, 4.54747E-013, 24.7438, 24.6203
22, 900.00000, 126.696, 127.045, 126.995, 0, 24.8128, 4.54747E-013, 24.8037, 24.6792
22, 1800.00000, 126.656, 127.026, 126.955, 0, 25.3802, 5.08423E-013, 25.3709, 25.244
22, 2700.00000, 126.76, 127.182, 127.06, 0, 26.9795, 0, 26.9696, 26.8355
23, 0.00000, 126.673, 127.12, 126.989, 0, 28.0509, 2.27374E-013, 28.04, 27.896
23, 900.00000, 126.814, 127.272, 127.116, 0, 27.9996, 4.54747E-013, 27.9893, 27.8507
23, 1800.00000, 126.583, 127.127, 126.891, 0, 31.1369, 6.4311E-013, 31.1251, 30.9668
23, 2700.00000, 126.788, 127.22, 127.092, 0, 27.208, 0, 27.198, 27.0626
24, 0.00000, 126.703, 127.181, 127.012, 0, 28.7958, 5.08423E-013, 28.7851, 28.6402
24, 900.00000, 126.827, 127.292, 127.123, 0, 27.9551, 6.4311E-013, 27.9451, 27.8093
