hour, t(sec), |V|1 (volts), |V|2 (volts), |V|3 (volts), |V|4 (volts), |I|1 (amps), |I|2 (amps), |I|3 (amps), |I|4 (amps)
0, 900.00000, 132.284, 129.957, 130.747, 0, 1.9311, 39.6486, 39.6187, 37.8073
0, 1800.00000, 132.395, 130.206, 130.983, 0, 1.98345, 37.1296, 37.1025, 35.228
0, 2700.00000, 126.128, 124.066, 124.794, 0, 1.95026, 35.7891, 35.7524, 33.8942
1, 0.00000, 126.038, 123.863, 124.583, 0, 1.99528, 38.1705, 38.1311, 36.2337
1, 900.00000, 126.093, 124.001, 124.714, 0, 1.74305, 36.3669, 36.33, 34.6785
1, 1800.00000, 121.54, 119.566, 120.198, 0, 1.81324, 35.1254, 35.3235, 33.4069
1, 2700.00000, 121.507, 119.448, 120.079, 0, 1.72368, 36.6384, 36.8449, 35.0149
2, 0.00000, 121.463, 119.417, 120.054, 0, 1.93515, 36.6143, 36.8226, 34.7793
2, 900.00000, 121.539, 119.532, 120.172, 0, 1.94407, 35.7906, 35.9948, 33.9447
2, 1800.00000, 121.492, 119.489, 120.136, 0, 1.87507, 35.5498, 35.7549, 33.7737
2, 2700.00000, 121.885, 119.992, 120.631, 0, 1.8584, 33.4489, 33.6388, 31.6818
3, 0.00000, 127.899, 125.887, 126.578, 0, 1.76911, 34.9811, 34.9503, 33.2665
3, 900.00000, 127.823, 125.893, 126.593, 0, 1.73161, 33.1775, 33.1481, 31.4984
3, 1800.00000, 127.898, 126.056, 126.747, 0, 1.74441, 31.5617, 31.5343, 29.866
3, 2700.00000, 127.694, 125.723, 126.441, 0, 2.0567, 34.1232, 34.0918, 32.1215
4, 0.00000, 127.761, 125.813, 126.527, 0, 1.78422, 33.4523, 33.4216, 31.7214
4, 900.00000, 127.807, 125.791, 126.509, 0, 1.91377, 34.9682, 34.9361, 33.1099
4, 1800.00000, 127.653, 125.599, 126.356, 0, 1.78299, 35.1464, 35.112, 33.4226
4, 2700.00000, 133.534, 131.617, 132.369, 0, 1.77723, 31.7799, 31.7599, 30.0706
5, 0.00000, 133.444, 131.493, 132.267, 0, 1.74905, 32.1499, 32.1287, 30.4717
5, 900.00000, 133.473, 131.552, 132.314, 0, 1.99499, 31.9324, 31.9119, 30.0068
5, 1800.00000, 137.189, 135.197, 135.943, 0, 2.05487, 32.875, 33.0564, 30.9406
5, 2700.00000, 137.222, 135.287, 136.038, 0, 1.93162, 31.4601, 31.6347, 29.645
6, 0.00000, 137.352, 135.547, 136.293, 0, 1.94423, 28.8747, 29.0335, 27.0365
6, 900.00000, 137.232, 135.293, 136.106, 0, 1.65835, 30.5043, 30.6876, 28.9673
6, 1800.00000, 127.746, 125.678, 126.518, 0, 1.87539, 34.6608, 34.6236, 32.8493
6, 2700.00000, 127.846, 125.856, 126.703, 0, 1.86683, 33.0951, 33.0596, 31.2889
7, 0.00000, 127.563, 125.659, 126.564, 0, 4.56764, 33.4212, 33.3826, 28.9184
7, 900.00000, 127.658, 125.72, 126.644, 0, 2.30687, 31.4836, 31.4465, 29.2409
7, 1800.00000, 127.801, 125.961, 126.881, 0, 2.45097, 29.8885, 29.854, 27.4963
7, 2700.00000, 127.847, 126.141, 127.06, 0, 2.13457, 26.8873, 26.8565, 24.8055
8, 0.00000, 127.63, 125.91, 126.854, 0, 4.45545, 29.0727, 29.0382, 24.6771
8, 900.00000, 127.571, 125.99, 126.935, 0, 8.54081, 30.4883, 30.4522, 22.008
8, 1800.00000, 127.303, 125.603, 126.559, 0, 12.5346, 36.7771, 36.7321, 24.3157
8, 2700.00000, 127.069, 125.273, 126.272, 0, 14.6916, 40.3205, 40.2679, 25.7138
9, 0.00000, 126.599, 124.727, 125.738, 0, 21.3475, 48.1979, 48.1321, 26.9545
9, 900.00000, 126.451, 124.664, 125.662, 0, 25.0527, 50.3949, 50.3265, 25.4478
9, 1800.00000, 126.409, 124.813, 125.806, 0, 26.3904, 47.972, 47.908, 21.6812
9, 2700.00000, 126.292, 124.67, 125.647, 0, 31.5644, 53.8645, 53.7931, 22.4091
10, 0.00000, 126.388, 124.944, 125.906, 0, 29.718, 48.6366, 48.574, 19.015
10, 900.00000, 126.152, 124.563, 125.535, 0, 32.5978, 54.2072, 54.1353, 21.7196
10, 1800.00000, 126.146, 124.714, 125.679, 0, 34.1142, 52.7007, 52.6318, 18.6919
10, 2700.00000, 125.894, 124.498, 125.487, 0, 36.1136, 53.7818, 53.709, 17.7764
11, 0.00000, 126.033, 124.607, 125.597, 0, 34.013, 52.228, 52.1577, 18.3214
11, 900.00000, 126.173, 124.689, 125.651, 0, 33.615, 53.2826, 53.213, 19.7741
11, 1800.00000, 125.763, 124.248, 125.2, 0, 38.0434, 58.3858, 58.3085, 20.4577
11, 2700.00000, 125.85, 124.371, 125.299, 0, 38.4378, 58.22, 58.1452, 19.8966
12, 0.00000, 126.091, 124.558, 125.475, 0, 35.4493, 56.4991, 56.4282, 21.1587
12, 900.00000, 125.912, 124.306, 125.266, 0, 34.1743, 56.2064, 56.1317, 22.1455
12, 1800.00000, 126.167, 124.484, 125.445, 0, 29.6696, 53.2059, 53.1358, 23.6452
12, 2700.00000, 126.171, 124.564, 125.514, 0, 29.4976, 51.8116, 51.7444, 22.4154
13, 0.00000, 126.176, 124.673, 125.65, 0, 30.5462, 50.4045, 50.3376, 19.9608
13, 900.00000, 126.038, 124.444, 125.435, 0, 31.5189, 53.0414, 52.9692, 21.6319
13, 1800.00000, 126.184, 124.503, 125.492, 0, 28.2632, 51.5262, 51.4564, 23.3701
13, 2700.00000, 125.608, 123.769, 124.833, 0, 33.413, 59.0447, 58.9553, 25.7618
14, 0.00000, 125.573, 123.845, 124.905, 0, 35.8485, 59.3668, 59.2775, 23.6468
14, 900.00000, 125.657, 124.048, 125.093, 0, 35.3211, 56.6767, 56.5935, 21.4754
14, 1800.00000, 125.854, 124.219, 125.242, 0, 33.8935, 56.007, 55.9273, 22.2299
14, 2700.00000, 125.889, 124.249, 125.247, 0, 34.2234, 56.6069, 56.528, 22.5003
15, 0.00000, 125.687, 124.009, 125.048, 0, 37.0681, 59.746, 59.6587, 22.806
15, 900.00000, 125.739, 124.198, 125.218, 0, 38.427, 58.6416, 58.5582, 20.3368
15, 1800.00000, 125.629, 123.93, 124.953, 0, 38.7481, 62.0149, 61.9252, 23.3978
15, 2700.00000, 125.79, 124.04, 125.046, 0, 36.2141, 60.7052, 60.6192, 24.6174
16, 0.00000, 125.735, 123.94, 124.957, 0, 35.8601, 61.1461, 61.0582, 25.4142
16, 900.00000, 125.947, 124.191, 125.193, 0, 32.1878, 56.9587, 56.8791, 24.8871
16, 1800.00000, 125.999, 124.324, 125.31, 0, 31.3655, 54.6309, 54.5562, 23.3761
16, 2700.00000, 126.058, 124.449, 125.431, 0, 31.8114, 53.7897, 53.7171, 22.0874
17, 0.00000, 125.973, 124.201, 125.189, 0, 31.6637, 56.7859, 56.7077, 25.2393
17, 900.00000, 126.02, 124.364, 125.274, 0, 31.639, 55.1468, 55.0772, 23.6149
17, 1800.00000, 126.256, 124.516, 125.381, 0, 27.1236, 52.6364, 52.5738, 25.6145
17, 2700.00000, 126.336, 124.619, 125.452, 0, 25.6541, 51.0637, 51.0053, 25.5049
18, 0.00000, 126.473, 124.792, 125.591, 0, 23.8289, 48.775, 48.7222, 25.036
18, 900.00000, 126.322, 124.467, 125.255, 0, 21.2536, 49.7952, 49.7411, 28.6331
18, 1800.00000, 126.625, 124.525, 125.305, 0, 14.9289, 48.4585, 48.4065, 33.6192
18, 2700.00000, 126.673, 124.664, 125.439, 0, 13.0736, 44.7992, 44.7519, 31.8087
19, 0.00000, 126.733, 124.754, 125.532, 0, 9.75462, 40.9239, 40.8807, 31.2448
19, 900.00000, 126.934, 124.952, 125.707, 0, 7.07847, 38.6118, 38.5726, 31.6024
19, 1800.00000, 120.801, 118.692, 119.353, 0, 5.94406, 41.4123, 41.6583, 35.5895
19, 2700.00000, 120.7, 118.587, 119.273, 0, 5.72183, 41.2391, 41.4935, 35.639
20, 0.00000, 120.797, 118.888, 119.564, 0, 5.27512, 36.7075, 36.9299, 31.5405
20, 900.00000, 120.641, 118.673, 119.38, 0, 5.3978, 38.0072, 38.2488, 32.7221
20, 1800.00000, 120.797, 118.771, 119.452, 0, 5.09035, 38.8322, 39.0697, 33.8568
20, 2700.00000, 118.134, 115.983, 116.645, 0, 3.63273, 40.439, 40.6855, 36.9193
21, 0.00000, 118.011, 115.823, 116.521, 0, 3.72355, 40.8574, 41.1205, 37.2557
21, 900.00000, 118.163, 116.198, 116.882, 0, 3.52489, 36.3885, 36.6175, 32.969
21, 1800.00000, 127.03, 124.926, 125.745, 0, 3.47514, 36.9112, 36.8706, 33.5057
21, 2700.00000, 127.035, 124.817, 125.629, 0, 3.40031, 39.3104, 39.2673, 35.9821
22, 0.00000, 127.157, 125.079, 125.875, 0, 3.60387, 36.7729, 36.7339, 33.2366
22, 900.00000, 127.124, 125.027, 125.817, 0, 3.30938, 36.8166, 36.7778, 33.576
22, 1800.00000, 127.1, 125.056, 125.839, 0, 3.46535, 35.9589, 35.9214, 32.5601
22, 2700.00000, 129.961, 127.948, 128.751, 0, 3.37645, 34.7862, 34.7555, 31.483
23, 0.00000, 129.94, 127.89, 128.727, 0, 2.80235, 34.709, 34.6765, 31.9809
23, 900.00000, 130.044, 127.892, 128.704, 0, 3.29838, 37.5219, 37.4884, 34.3023
23, 1800.00000, 132.09, 129.95, 130.787, 0, 2.89054, 36.285, 36.256, 33.48
23, 2700.00000, 132.193, 130.047, 130.875, 0, 2.38301, 36.0485, 36.0202, 33.7491
24, 0.00000, 132.186, 130.106, 130.938, 0, 1.92251, 34.2269, 34.1999, 32.3837
24, 900.00000, 132.285, 129.958, 130.748, 0, 1.931, 39.6477, 39.6179, 37.8065
