hour, t(sec), |V|1 (volts), |V|2 (volts), |V|3 (volts), |V|4 (volts), |I|1 (amps), |I|2 (amps), |I|3 (amps), |I|4 (amps)
0, 900.00000, 121.487, 120.635, 122.627, 0, 153.747, 176.452, 115.23, 54.3384
0, 1800.00000, 121.755, 120.922, 122.843, 0, 145.495, 167.656, 109.826, 51.2242
0, 2700.00000, 124.391, 123.563, 125.413, 0, 139.252, 160.639, 106.348, 48.0189
1, 0.00000, 124.225, 123.393, 125.28, 0, 143.487, 165.376, 108.091, 50.7078
1, 900.00000, 124.273, 123.457, 125.327, 0, 143.31, 164.638, 107.877, 50.2936
1, 1800.00000, 126.182, 125.357, 127.197, 0, 139.739, 161.116, 105.592, 49.11
1, 2700.00000, 126.133, 125.29, 127.142, 0, 140.151, 162.314, 105.879, 49.8432
2, 0.00000, 126.038, 125.2, 127.074, 0, 143.347, 165.138, 108.08, 50.4891
2, 900.00000, 126.222, 125.367, 127.228, 0, 137.505, 160.186, 104.223, 49.3593
2, 1800.00000, 126.116, 125.24, 127.146, 0, 140.269, 163.698, 105.716, 51.137
2, 2700.00000, 126.59, 125.743, 127.604, 0, 138.047, 160.298, 104.059, 49.6546
3, 0.00000, 126.932, 126.137, 127.866, 0, 126.875, 147.204, 97.0318, 44.2633
3, 900.00000, 126.757, 125.939, 127.725, 0, 132.14, 153.403, 100.475, 46.7041
3, 1800.00000, 125.626, 124.852, 126.591, 0, 129.257, 149.101, 98.1818, 45.0186
3, 2700.00000, 125.271, 124.44, 126.283, 0, 137.911, 159.93, 104.902, 48.5909
4, 0.00000, 125.37, 124.573, 126.375, 0, 135.508, 155.825, 102.912, 46.8436
4, 900.00000, 125.506, 124.708, 126.477, 0, 130.801, 151.109, 100.635, 44.6004
4, 1800.00000, 125.183, 124.308, 126.217, 0, 139.076, 162.171, 106.639, 48.9989
4, 2700.00000, 124.92, 124.105, 125.924, 0, 131.873, 152.907, 100.345, 46.4422
5, 0.00000, 124.705, 123.859, 125.771, 0, 137.922, 159.845, 103.621, 49.7406
5, 900.00000, 124.801, 123.978, 125.835, 0, 135.237, 156.31, 102.202, 47.8766
5, 1800.00000, 124.2, 123.374, 125.241, 0, 138.329, 160.105, 104.783, 48.9148
5, 2700.00000, 124.22, 123.395, 125.286, 0, 138.756, 160.17, 103.873, 49.8602
6, 0.00000, 124.544, 123.736, 125.563, 0, 129.17, 149.765, 96.7548, 46.8887
6, 900.00000, 124.276, 123.411, 125.358, 0, 134.449, 156.06, 101.339, 48.4416
6, 1800.00000, 124.292, 123.386, 125.399, 0, 131.696, 153.98, 99.8213, 47.91
6, 2700.00000, 124.674, 123.993, 125.662, 0, 115.353, 136.174, 89.8827, 41.3126
7, 0.00000, 124.243, 123.498, 125.362, 0, 129.891, 152.259, 99.5733, 47.0477
7, 900.00000, 124.365, 123.528, 125.415, 0, 121.751, 148.113, 95.7998, 46.6395
7, 1800.00000, 125.973, 125.392, 126.954, 0, 109.12, 132.405, 86.5951, 41.4703
7, 2700.00000, 126.016, 125.454, 127.012, 0, 108.322, 130.553, 85.1683, 41.0554
8, 0.00000, 125.787, 125.176, 126.847, 0, 114.847, 138.525, 88.7234, 44.8987
8, 900.00000, 126.091, 125.521, 127.124, 0, 105.519, 127.332, 81.9315, 41.0686
8, 1800.00000, 126.042, 125.467, 127.058, 0, 104.118, 126.088, 81.8933, 40.0626
8, 2700.00000, 125.285, 124.858, 126.297, 0, 103.677, 125.766, 82.2401, 40.0411
9, 0.00000, 124.993, 124.49, 126.07, 0, 111.819, 137.455, 86.8277, 46.2044
9, 900.00000, 125.076, 124.616, 126.126, 0, 109.442, 133.451, 85.5893, 43.779
9, 1800.00000, 126.59, 126.47, 127.541, 0, 104.743, 130.265, 84.3366, 43.3876
9, 2700.00000, 126.976, 126.854, 127.833, 0, 90.7048, 117.057, 75.4548, 40.3372
10, 0.00000, 126.842, 126.766, 127.777, 0, 98.7684, 123.116, 78.5145, 42.1153
10, 900.00000, 126.752, 126.619, 127.644, 0, 98.6757, 125.68, 80.7786, 42.8779
10, 1800.00000, 126.833, 126.783, 127.767, 0, 97.8354, 120.508, 77.7918, 40.3866
10, 2700.00000, 127.333, 127.798, 128.147, 0, 94.0126, 117.848, 78.1407, 40.1293
11, 0.00000, 127.452, 127.924, 128.237, 0, 89.1806, 112.417, 74.9134, 38.4634
11, 900.00000, 127.629, 128.14, 128.414, 0, 86.0721, 107.927, 70.904, 37.6728
11, 1800.00000, 127.639, 128.19, 128.281, 0, 84.9612, 113.733, 75.533, 41.6181
11, 2700.00000, 127.821, 128.441, 128.462, 0, 80.8648, 106.293, 70.338, 38.8569
12, 0.00000, 127.993, 128.667, 128.611, 0, 76.2021, 99.1127, 66.9079, 35.622
12, 900.00000, 127.49, 128.092, 128.187, 0, 90.7126, 116.177, 78.4233, 39.9356
12, 1800.00000, 127.591, 128.201, 128.286, 0, 86.8277, 111.612, 74.4603, 39.3123
12, 2700.00000, 128.28, 129.019, 128.931, 0, 85.9067, 110.374, 75.5188, 38.1434
13, 0.00000, 128.359, 129.068, 129.045, 0, 83.7547, 108.513, 72.7126, 38.8526
13, 900.00000, 128.224, 128.906, 128.916, 0, 86.2578, 112.097, 75.3011, 39.8985
13, 1800.00000, 128.944, 129.615, 129.64, 0, 85.5647, 112.225, 74.4035, 40.7729
13, 2700.00000, 128.312, 128.947, 129.142, 0, 102.931, 129.068, 86.9769, 43.2613
14, 0.00000, 128.456, 129.088, 129.269, 0, 99.5201, 126.111, 84.7313, 42.9547
14, 900.00000, 128.538, 129.194, 129.343, 0, 98.1917, 124.175, 83.5325, 42.2541
14, 1800.00000, 128.772, 129.488, 129.556, 0, 91.8874, 115.211, 77.783, 39.2334
14, 2700.00000, 129.727, 130.474, 130.477, 0, 87.1444, 111.032, 73.7832, 39.3157
15, 0.00000, 129.65, 130.259, 130.39, 0, 87.4908, 117.479, 76.3319, 44.1734
15, 900.00000, 129.82, 130.524, 130.576, 0, 84.5327, 109.998, 72.172, 40.3199
15, 1800.00000, 129.92, 130.558, 130.696, 0, 88.8097, 115.046, 75.2, 41.6288
15, 2700.00000, 129.977, 130.65, 130.737, 0, 87.6723, 112.583, 74.4587, 40.0437
16, 0.00000, 129.829, 130.469, 130.603, 0, 92.1308, 118.572, 78.3751, 41.9084
16, 900.00000, 129.868, 130.554, 130.642, 0, 91.8231, 116.463, 77.6118, 40.3878
16, 1800.00000, 129.856, 130.566, 130.636, 0, 93.3821, 117.2, 77.9302, 40.3578
16, 2700.00000, 128.305, 128.636, 129.149, 0, 97.7115, 121.99, 80.5452, 40.9461
17, 0.00000, 128.113, 128.445, 129.001, 0, 103.495, 127.438, 83.6011, 42.611
17, 900.00000, 128.083, 128.482, 128.953, 0, 109.295, 132.283, 86.5841, 43.7621
17, 1800.00000, 125.471, 125.24, 126.379, 0, 117.079, 144.214, 92.5975, 47.5394
17, 2700.00000, 125.477, 125.21, 126.335, 0, 117.888, 148.278, 94.6524, 49.5294
18, 0.00000, 125.53, 125.322, 126.377, 0, 118.381, 146.445, 93.84, 48.3554
18, 900.00000, 124.875, 124.615, 125.772, 0, 140.425, 171.869, 111.543, 54.946
18, 1800.00000, 124.876, 124.599, 125.767, 0, 140.06, 172.542, 110.764, 56.2042
18, 2700.00000, 122.249, 121.371, 123.444, 0, 171.223, 204.757, 128.337, 67.4897
19, 0.00000, 122.037, 121.183, 123.243, 0, 177.241, 209.572, 133.593, 67.1966
19, 900.00000, 122.286, 121.387, 123.374, 0, 167.833, 203.497, 129.855, 64.9629
19, 1800.00000, 121.077, 120.04, 122.263, 0, 177.365, 210.861, 134.947, 66.8589
19, 2700.00000, 120.747, 119.775, 122.035, 0, 188.369, 218.125, 141.994, 67.6482
20, 0.00000, 120.93, 119.905, 122.179, 0, 182.935, 215.562, 137.94, 68.5776
20, 900.00000, 120.498, 119.537, 121.866, 0, 197.164, 226.283, 147.672, 70.1286
20, 1800.00000, 123.737, 122.707, 124.963, 0, 177.956, 208.621, 133.895, 65.8511
20, 2700.00000, 123.688, 122.651, 124.91, 0, 177.653, 208.439, 134.594, 65.0677
21, 0.00000, 123.43, 122.195, 124.67, 0, 183.701, 223.599, 141.248, 72.2295
21, 900.00000, 123.73, 122.695, 124.998, 0, 176.694, 206.336, 132.292, 65.4014
21, 1800.00000, 123.91, 122.856, 125.126, 0, 169.027, 199.412, 127.578, 63.2891
21, 2700.00000, 123.964, 122.905, 125.127, 0, 166.125, 197.392, 127.647, 61.3393
22, 0.00000, 124.199, 123.129, 125.334, 0, 160.787, 192.868, 123.085, 61.278
22, 900.00000, 124.078, 123.007, 125.228, 0, 165.018, 197.075, 125.803, 62.603
22, 1800.00000, 124.011, 122.943, 125.185, 0, 167.87, 200, 126.886, 64.2379
22, 2700.00000, 124.153, 123.149, 125.351, 0, 165.474, 193.954, 124.121, 61.6018
23, 0.00000, 124.028, 123.036, 125.269, 0, 168.764, 195.759, 126.645, 61.1848
23, 900.00000, 124.334, 123.366, 125.514, 0, 159.497, 185.939, 119.818, 58.4266
23, 1800.00000, 124.173, 123.201, 125.402, 0, 164.714, 190.817, 122.634, 60.3996
23, 2700.00000, 124.338, 123.364, 125.538, 0, 160.254, 186.739, 119.75, 59.229
24, 0.00000, 124.269, 123.292, 125.471, 0, 162.339, 188.973, 121.838, 59.3605
24, 900.00000, 124.557, 123.676, 125.682, 0, 153.024, 175.65, 114.725, 54.054
